 time            v(bvdd)         v(bypass_en)    v(ea_en)        v(ref_sel)      v(uvov_en)      v(ilim_en)      v(pass_off)    
 1.00000000e-10  1.00000000e-04  8.05183935e-01  7.73681789e-01  7.49706983e-01  7.54792386e-01  7.54792386e-01  7.53989138e-01 
 1.02317700e-10  1.02317700e-04  8.02386641e-01  7.60844963e-01  7.45118905e-01  7.50512032e-01  7.50512032e-01  7.56026154e-01 
 1.06953101e-10  1.06953101e-04  7.92730316e-01  7.28040341e-01  7.31249856e-01  7.39255435e-01  7.39255435e-01  7.54918580e-01 
 1.16223901e-10  1.16223901e-04  7.87962997e-01  6.49997647e-01  6.97274874e-01  7.13376264e-01  7.13376264e-01  7.42078736e-01 
 1.27492981e-10  1.27492981e-04  7.87108950e-01  5.80038887e-01  6.49168331e-01  6.74756081e-01  6.74756081e-01  7.10435808e-01 
 1.39137830e-10  1.39137830e-04  7.67825712e-01  5.19612140e-01  5.95434520e-01  6.30145138e-01  6.30145138e-01  6.65488661e-01 
 1.62427530e-10  1.62427530e-04  7.03977387e-01  4.38990652e-01  4.91805818e-01  5.38571609e-01  5.38571609e-01  5.64225951e-01 
 1.93767332e-10  1.93767332e-04  6.05057748e-01  3.95174519e-01  3.76273182e-01  4.26947223e-01  4.26947223e-01  4.38218721e-01 
 2.30381693e-10  2.30381693e-04  4.96061486e-01  3.86028171e-01  2.77446754e-01  3.23458098e-01  3.23458098e-01  3.24459142e-01 
 2.76853202e-10  2.76853202e-04  3.83933352e-01  3.74924792e-01  1.93193507e-01  2.31360616e-01  2.31360616e-01  2.26229589e-01 
 3.69796222e-10  3.69796222e-04  2.33608510e-01  3.02094512e-01  9.61236960e-02  1.25851142e-01  1.25851142e-01  1.12696771e-01 
 4.59689153e-10  4.59689153e-04  1.45844106e-01  2.15299799e-01  5.32091364e-02  7.15194419e-02  7.15194419e-02  5.81658997e-02 
 5.67326342e-10  5.67326342e-04  8.45123251e-02  1.38344943e-01  3.00755467e-02  3.89678452e-02  3.89678452e-02  3.00349016e-02 
 6.79563475e-10  6.79563475e-04  5.19979843e-02  9.06982124e-02  1.62449771e-02  2.27793868e-02  2.27793868e-02  1.60056537e-02 
 8.59126105e-10  8.59126105e-04  2.86413807e-02  5.01728544e-02  4.78921739e-03  8.79341149e-03  8.79341149e-03  4.60441987e-03 
 1.09362887e-09  1.09362887e-03  1.73846094e-02  2.66339402e-02 -2.97488201e-04  1.35458485e-03  1.35458485e-03 -4.04511499e-04 
 1.32228192e-09  1.32228192e-03  1.27704867e-02  1.72963221e-02 -1.04908037e-03 -4.65969538e-04 -4.65969538e-04 -1.03108069e-03 
 1.62411637e-09  1.62411637e-03  7.48163399e-03  9.86437294e-03 -6.28489254e-04 -5.72660840e-04 -5.72660840e-04 -5.66935116e-04 
 1.95914286e-09  1.95914286e-03  4.04963476e-03  4.83657519e-03 -1.18139665e-04 -1.00524734e-04 -1.00524734e-04 -6.16804387e-05 
 2.34761720e-09  2.34761720e-03  1.97419056e-03  2.25664068e-03  1.57456943e-04  2.75503544e-04  2.75503544e-04  1.96679510e-04 
 2.79123444e-09  2.79123444e-03  1.06661618e-03  1.25271025e-03  2.07782424e-04  3.81103767e-04  3.81103767e-04  2.23935254e-04 
 3.21054370e-09  3.21054370e-03  8.10816483e-04  9.05435864e-04  1.47074559e-04  2.80655073e-04  2.80655073e-04  1.52942761e-04 
 3.76393407e-09  3.76393407e-03  5.83455500e-04  5.66380123e-04  6.76040973e-05  1.24596965e-04  1.24596965e-04  7.14784258e-05 
 4.28884412e-09  4.28884412e-03  3.71071604e-04  3.15342399e-04  2.74976037e-05  4.11280033e-05  4.11280033e-05  3.04743768e-05 
 5.07376168e-09  5.07376168e-03  1.33660659e-04  8.67240968e-05  5.03038049e-06 -2.27607226e-06 -2.27607226e-06  6.16128288e-06 
 6.08359805e-09  6.08359805e-03 -2.90077290e-07 -2.10624449e-05 -1.91250826e-06 -9.99347930e-06 -9.99347930e-06 -2.07174290e-06 
 7.78928294e-09  7.78928294e-03 -3.59974023e-05 -3.72739360e-05 -2.84406482e-06 -5.61323614e-06 -5.61323614e-06 -3.29480700e-06 
 1.00000000e-08  1.00000000e-02 -1.38139897e-05 -1.19408081e-05 -1.36886583e-06 -8.81616830e-07 -8.81616830e-07 -1.51369725e-06 
 1.02738674e-08  1.02738674e-02 -7.66782547e-06 -6.87799958e-06 -1.04108889e-06 -4.07906401e-07 -4.07906401e-07 -1.15114857e-06 
 1.08216021e-08  1.08216021e-02 -1.45893286e-06 -1.81116700e-06 -5.73952412e-07 -2.94185607e-07 -2.94185607e-07 -6.14896524e-07 
 1.19170715e-08  1.19170715e-02  1.91927699e-06  8.81558010e-07 -8.93338464e-08 -1.87930265e-07 -1.87930265e-07 -1.05532135e-07 
 1.41080103e-08  1.41080103e-02  2.32888212e-06  1.42202967e-06  1.25059158e-07  6.66951713e-08  6.66951714e-08  1.34264051e-07 
 1.84898880e-08  1.84898880e-02  1.07386574e-06  7.02859675e-07  9.38483744e-08  7.98518073e-08  7.98518073e-08  9.17737189e-08 
 2.33300241e-08  2.33300241e-02  3.89348596e-07  2.25490982e-07  3.19183392e-08  2.41383729e-08  2.41383729e-08  2.82944240e-08 
 3.00491861e-08  3.00491861e-02  1.72211891e-07  8.48243689e-08  1.59912486e-08  1.18572595e-08  1.18572595e-08  1.19235130e-08 
 3.92917121e-08  3.92917121e-02  1.08068856e-07  5.88322044e-08  1.71934026e-08  1.42689383e-08  1.42689383e-08  1.37763669e-08 
 4.92917121e-08  4.92917121e-02  8.19304043e-08  4.86621482e-08  1.79846874e-08  1.52845169e-08  1.52845169e-08  1.51680676e-08 
 5.92917121e-08  5.92917121e-02  6.26918369e-08  3.90656329e-08  1.77243740e-08  1.52938450e-08  1.52938450e-08  1.53036738e-08 
 6.92917121e-08  6.92917121e-02  5.18849517e-08  3.35826512e-08  1.73854203e-08  1.52662347e-08  1.52662347e-08  1.52743509e-08 
 7.92917121e-08  7.92917121e-02  4.38518780e-08  2.95529119e-08  1.71219549e-08  1.52638656e-08  1.52638656e-08  1.52651202e-08 
 8.92917121e-08  8.92917121e-02  3.80475924e-08  2.66538374e-08  1.69094713e-08  1.52646356e-08  1.52646361e-08  1.52646570e-08 
 9.92917121e-08  9.92917121e-02  3.38238341e-08  2.45431305e-08  1.67318296e-08  1.52647054e-08  1.52647054e-08  1.52648167e-08 
 1.09291712e-07  1.09291712e-01  3.06654277e-08  2.29640795e-08  1.65812718e-08  1.52646292e-08  1.52646292e-08  1.52647861e-08 
 1.19291712e-07  1.19291712e-01  2.82440657e-08  2.17535031e-08  1.64526367e-08  1.52645897e-08  1.52645897e-08  1.52647303e-08 
 1.29291712e-07  1.29291712e-01  2.63485612e-08  2.08058873e-08  1.63419038e-08  1.52645795e-08  1.52645795e-08  1.52646952e-08 
 1.39291712e-07  1.39291712e-01  2.48378212e-08  2.00506438e-08  1.62459025e-08  1.52645788e-08  1.52645788e-08  1.52646735e-08 
 1.49291712e-07  1.49291712e-01  2.36147453e-08  1.94392055e-08  1.61621295e-08  1.52645793e-08  1.52645793e-08  1.52646579e-08 
 1.59291712e-07  1.59291712e-01  2.26109201e-08  1.89373699e-08  1.60885952e-08  1.52645796e-08  1.52645796e-08  1.52646451e-08 
 1.69291712e-07  1.69291712e-01  2.17770329e-08  1.85204882e-08  1.60236994e-08  1.52645796e-08  1.52645796e-08  1.52646352e-08 
 1.79291712e-07  1.79291712e-01  2.10768817e-08  1.81704636e-08  1.59661413e-08  1.52645794e-08  1.52645794e-08  1.52646271e-08 
 1.89291712e-07  1.89291712e-01  2.04833771e-08  1.78737502e-08  1.59148562e-08  1.52645792e-08  1.52645792e-08  1.52646205e-08 
 1.99291712e-07  1.99291712e-01  1.99759637e-08  1.76200726e-08  1.58689670e-08  1.52645790e-08  1.52645790e-08  1.52646150e-08 
 2.09291712e-07  2.09291712e-01  1.95387785e-08  1.74015064e-08  1.58277436e-08  1.52645789e-08  1.52645789e-08  1.52646105e-08 
 2.19291712e-07  2.19291712e-01  1.91594562e-08  1.72118730e-08  1.57905752e-08  1.52645788e-08  1.52645788e-08  1.52646062e-08 
 2.29291712e-07  2.29291712e-01  1.88282511e-08  1.70462834e-08  1.57569479e-08  1.52645787e-08  1.52645787e-08  1.52646030e-08 
 2.39291712e-07  2.39291712e-01  1.85373604e-08  1.69008535e-08  1.57264259e-08  1.52645786e-08  1.52645787e-08  1.52646008e-08 
 2.49291712e-07  2.49291712e-01  1.82805065e-08  1.67724422e-08  1.56986401e-08  1.52645786e-08  1.52645786e-08  1.52645980e-08 
 2.59291712e-07  2.59291712e-01  1.80525953e-08  1.66584974e-08  1.56732739e-08  1.52645785e-08  1.52645786e-08  1.52645960e-08 
 2.69291712e-07  2.69291712e-01  1.78494388e-08  1.65569280e-08  1.56500535e-08  1.52645785e-08  1.52645785e-08  1.52645942e-08 
 2.79291712e-07  2.79291712e-01  1.76675886e-08  1.64660140e-08  1.56287453e-08  1.52645785e-08  1.52645785e-08  1.52645927e-08 
 2.89291712e-07  2.89291712e-01  1.75041664e-08  1.63843046e-08  1.56091453e-08  1.52645785e-08  1.52645785e-08  1.52645918e-08 
 2.99291712e-07  2.99291712e-01  1.73567751e-08  1.63106179e-08  1.55910739e-08  1.52645785e-08  1.52645785e-08  1.52645907e-08 
 3.09291712e-07  3.09291712e-01  1.72233831e-08  1.62439286e-08  1.55743804e-08  1.52645784e-08  1.52645784e-08  1.52645896e-08 
 3.19291712e-07  3.19291712e-01  1.71022788e-08  1.61833798e-08  1.55589254e-08  1.52645784e-08  1.52645784e-08  1.52645887e-08 
 3.29291712e-07  3.29291712e-01  1.69920030e-08  1.61282468e-08  1.55445909e-08  1.52645784e-08  1.52645784e-08  1.52645874e-08 
 3.39291712e-07  3.39291712e-01  1.68912986e-08  1.60778989e-08  1.55312715e-08  1.52645784e-08  1.52645784e-08  1.52645867e-08 
 3.49291712e-07  3.49291712e-01  1.67991001e-08  1.60318022e-08  1.55188741e-08  1.52645784e-08  1.52645784e-08  1.52645860e-08 
 3.59291712e-07  3.59291712e-01  1.67144656e-08  1.59894885e-08  1.55073143e-08  1.52645784e-08  1.52645784e-08  1.52645855e-08 
 3.69291712e-07  3.69291712e-01  1.66366098e-08  1.59505631e-08  1.54965201e-08  1.52645784e-08  1.52645784e-08  1.52645849e-08 
 3.79291712e-07  3.79291712e-01  1.65648107e-08  1.59146648e-08  1.54864242e-08  1.52645784e-08  1.52645784e-08  1.52645844e-08 
 3.89291712e-07  3.89291712e-01  1.64984687e-08  1.58814967e-08  1.54769691e-08  1.52645784e-08  1.52645784e-08  1.52645845e-08 
 3.99291712e-07  3.99291712e-01  1.64370448e-08  1.58507864e-08  1.54681011e-08  1.52645784e-08  1.52645784e-08  1.52645836e-08 
 4.09291712e-07  4.09291712e-01  1.63800582e-08  1.58222961e-08  1.54597728e-08  1.52645784e-08  1.52645784e-08  1.52645832e-08 
 4.19291712e-07  4.19291712e-01  1.63271081e-08  1.57958209e-08  1.54519417e-08  1.52645783e-08  1.52645783e-08  1.52645829e-08 
 4.29291712e-07  4.29291712e-01  1.62778062e-08  1.57711712e-08  1.54445687e-08  1.52645783e-08  1.52645784e-08  1.52645826e-08 
 4.39291712e-07  4.39291712e-01  1.62318342e-08  1.57481883e-08  1.54376192e-08  1.52645783e-08  1.52645783e-08  1.52645823e-08 
 4.49291712e-07  4.49291712e-01  1.61888987e-08  1.57267213e-08  1.54310608e-08  1.52645783e-08  1.52645783e-08  1.52645821e-08 
 4.59291712e-07  4.59291712e-01  1.61487416e-08  1.57066406e-08  1.54248662e-08  1.52645783e-08  1.52645783e-08  1.52645818e-08 
 4.69291712e-07  4.69291712e-01  1.61111214e-08  1.56878360e-08  1.54190069e-08  1.52645783e-08  1.52645783e-08  1.52645816e-08 
 4.79291712e-07  4.79291712e-01  1.60758369e-08  1.56701926e-08  1.54134616e-08  1.52645783e-08  1.52645783e-08  1.52645814e-08 
 4.89291712e-07  4.89291712e-01  1.60426957e-08  1.56536230e-08  1.54082070e-08  1.52645783e-08  1.52645783e-08  1.52645812e-08 
 4.99291712e-07  4.99291712e-01  1.60115287e-08  1.56380404e-08  1.54032232e-08  1.52645783e-08  1.52645783e-08  1.52645810e-08 
 5.09291712e-07  5.09291712e-01  1.59821783e-08  1.56233691e-08  1.53984919e-08  1.52645783e-08  1.52645783e-08  1.52645809e-08 
 5.19291712e-07  5.19291712e-01  1.59545186e-08  1.56095349e-08  1.53939975e-08  1.52645783e-08  1.52645783e-08  1.52645807e-08 
 5.29291712e-07  5.29291712e-01  1.59284124e-08  1.55964847e-08  1.53897230e-08  1.52645783e-08  1.52645783e-08  1.52645805e-08 
 5.39291712e-07  5.39291712e-01  1.59037456e-08  1.55841513e-08  1.53856549e-08  1.52645783e-08  1.52645783e-08  1.52645804e-08 
 5.49291712e-07  5.49291712e-01  1.58804193e-08  1.55724881e-08  1.53817807e-08  1.52645783e-08  1.52645783e-08  1.52645802e-08 
 5.59291712e-07  5.59291712e-01  1.58583328e-08  1.55614473e-08  1.53780874e-08  1.52645783e-08  1.52645783e-08  1.52645801e-08 
 5.69291712e-07  5.69291712e-01  1.58374095e-08  1.55509850e-08  1.53745650e-08  1.52645783e-08  1.52645783e-08  1.52645800e-08 
 5.79291712e-07  5.79291712e-01  1.58175625e-08  1.55410619e-08  1.53712025e-08  1.52645783e-08  1.52645783e-08  1.52645798e-08 
 5.89291712e-07  5.89291712e-01  1.57987171e-08  1.55316421e-08  1.53679900e-08  1.52645783e-08  1.52645783e-08  1.52645797e-08 
 5.99291712e-07  5.99291712e-01  1.57808154e-08  1.55226870e-08  1.53649195e-08  1.52645783e-08  1.52645783e-08  1.52645795e-08 
 6.09291712e-07  6.09291712e-01  1.57637842e-08  1.55141755e-08  1.53619824e-08  1.52645783e-08  1.52645783e-08  1.52645794e-08 
 6.19291712e-07  6.19291712e-01  1.57475862e-08  1.55060737e-08  1.53591712e-08  1.52645783e-08  1.52645783e-08  1.52645792e-08 
 6.29291712e-07  6.29291712e-01  1.57321409e-08  1.54983550e-08  1.53564786e-08  1.52645783e-08  1.52645783e-08  1.52645791e-08 
 6.39291712e-07  6.39291712e-01  1.57174342e-08  1.54909985e-08  1.53538990e-08  1.52645783e-08  1.52645783e-08  1.52645789e-08 
 6.49291712e-07  6.49291712e-01  1.57033944e-08  1.54839811e-08  1.53514247e-08  1.52645783e-08  1.52645783e-08  1.52645787e-08 
 6.59291712e-07  6.59291712e-01  1.56899941e-08  1.54772809e-08  1.53490510e-08  1.52645783e-08  1.52645783e-08  1.52645785e-08 
 6.69291712e-07  6.69291712e-01  1.56771957e-08  1.54708811e-08  1.53467725e-08  1.52645783e-08  1.52645783e-08  1.52645783e-08 
 6.79291712e-07  6.79291712e-01  1.56649559e-08  1.54647642e-08  1.53445843e-08  1.52645783e-08  1.52645783e-08  1.52645780e-08 
 6.89291712e-07  6.89291712e-01  1.56532547e-08  1.54589090e-08  1.53424809e-08  1.52645783e-08  1.52645783e-08  1.52645778e-08 
 6.99291712e-07  6.99291712e-01  1.56420427e-08  1.54533103e-08  1.53404590e-08  1.52645783e-08  1.52645783e-08  1.52645775e-08 
 7.09291712e-07  7.09291712e-01  1.56313157e-08  1.54479432e-08  1.53385137e-08  1.52645783e-08  1.52645783e-08  1.52645771e-08 
 7.19291712e-07  7.19291712e-01  1.56210357e-08  1.54428012e-08  1.53366413e-08  1.52645783e-08  1.52645783e-08  1.52645767e-08 
 7.29291712e-07  7.29291712e-01  1.56111694e-08  1.54378705e-08  1.53348388e-08  1.52645783e-08  1.52645783e-08  1.52645762e-08 
 7.39291712e-07  7.39291712e-01  1.56017083e-08  1.54331414e-08  1.53331017e-08  1.52645783e-08  1.52645783e-08  1.52645757e-08 
 7.49291712e-07  7.49291712e-01  1.55926228e-08  1.54285981e-08  1.53314281e-08  1.52645783e-08  1.52645783e-08  1.52645751e-08 
 7.59291712e-07  7.59291712e-01  1.55838982e-08  1.54242384e-08  1.53298144e-08  1.52645783e-08  1.52645783e-08  1.52645744e-08 
 7.69291712e-07  7.69291712e-01  1.55755150e-08  1.54200456e-08  1.53282577e-08  1.52645783e-08  1.52645783e-08  1.52645739e-08 
 7.79291712e-07  7.79291712e-01  1.55674525e-08  1.54160141e-08  1.53267542e-08  1.52645783e-08  1.52645783e-08  1.52645727e-08 
 7.89291712e-07  7.89291712e-01  1.55596940e-08  1.54121360e-08  1.53253019e-08  1.52645783e-08  1.52645783e-08  1.52645695e-08 
 7.99291712e-07  7.99291712e-01  1.55522321e-08  1.54084048e-08  1.53239047e-08  1.52645783e-08  1.52645783e-08  1.52645730e-08 
 8.09291712e-07  8.09291712e-01  1.55450406e-08  1.54048122e-08  1.53225475e-08  1.52645783e-08  1.52645783e-08  1.52645671e-08 
 8.19291712e-07  8.19291712e-01  1.55381144e-08  1.54013501e-08  1.53212386e-08  1.52645783e-08  1.52645783e-08  1.52645667e-08 
 8.29291712e-07  8.29291712e-01  1.55314400e-08  1.53980145e-08  1.53199727e-08  1.52645783e-08  1.52645783e-08  1.52645648e-08 
 8.39291712e-07  8.39291712e-01  1.55250054e-08  1.53947962e-08  1.53187479e-08  1.52645783e-08  1.52645783e-08  1.52645619e-08 
 8.49291712e-07  8.49291712e-01  1.55187997e-08  1.53916917e-08  1.53175615e-08  1.52645783e-08  1.52645783e-08  1.52645595e-08 
 8.59291712e-07  8.59291712e-01  1.55128018e-08  1.53886997e-08  1.53164136e-08  1.52645783e-08  1.52645783e-08  1.52645563e-08 
 8.69291712e-07  8.69291712e-01  1.55070160e-08  1.53858053e-08  1.53153009e-08  1.52645783e-08  1.52645783e-08  1.52645521e-08 
 8.79291712e-07  8.79291712e-01  1.55014308e-08  1.53830159e-08  1.53142233e-08  1.52645783e-08  1.52645783e-08  1.52645478e-08 
 8.89291712e-07  8.89291712e-01  1.54960266e-08  1.53803171e-08  1.53131774e-08  1.52645783e-08  1.52645783e-08  1.52645431e-08 
 8.99291712e-07  8.99291712e-01  1.54908095e-08  1.53777098e-08  1.53121642e-08  1.52645783e-08  1.52645783e-08  1.52645378e-08 
 9.09291712e-07  9.09291712e-01  1.54857566e-08  1.53751880e-08  1.53111806e-08  1.52645783e-08  1.52645783e-08  1.52645319e-08 
 9.19291712e-07  9.19291712e-01  1.54808777e-08  1.53727491e-08  1.53102260e-08  1.52645783e-08  1.52645783e-08  1.52645256e-08 
 9.29291712e-07  9.29291712e-01  1.54761500e-08  1.53703884e-08  1.53092993e-08  1.52645783e-08  1.52645783e-08  1.52645180e-08 
 9.39291712e-07  9.39291712e-01  1.54715701e-08  1.53681067e-08  1.53084005e-08  1.52645783e-08  1.52645783e-08  1.52645129e-08 
 9.49291712e-07  9.49291712e-01  1.54671443e-08  1.53658912e-08  1.53075267e-08  1.52645783e-08  1.52645783e-08  1.52645048e-08 
 9.59291712e-07  9.59291712e-01  1.54628508e-08  1.53637502e-08  1.53066786e-08  1.52645783e-08  1.52645783e-08  1.52644985e-08 
 9.69291712e-07  9.69291712e-01  1.54586923e-08  1.53616735e-08  1.53058555e-08  1.52645783e-08  1.52645783e-08  1.52644919e-08 
 9.79291712e-07  9.79291712e-01  1.54546659e-08  1.53596629e-08  1.53050564e-08  1.52645783e-08  1.52645783e-08  1.52644865e-08 
 9.89291712e-07  9.89291712e-01  1.54507579e-08  1.53577116e-08  1.53042807e-08  1.52645783e-08  1.52645783e-08  1.52644822e-08 
 9.99291712e-07  9.99291712e-01  1.54469715e-08  1.53558184e-08  1.53035275e-08  1.52645783e-08  1.52645783e-08  1.52644792e-08 
 1.00929171e-06  1.00929171e+00  1.54432977e-08  1.53539822e-08  1.53027965e-08  1.52645783e-08  1.52645783e-08  1.52644778e-08 
 1.01929171e-06  1.01929171e+00  1.54397330e-08  1.53522034e-08  1.53020878e-08  1.52645783e-08  1.52645783e-08  1.52644780e-08 
 1.02929171e-06  1.02929171e+00  1.54362767e-08  1.53504714e-08  1.53013992e-08  1.52645783e-08  1.52645783e-08  1.52644798e-08 
 1.03929171e-06  1.03929171e+00  1.54329275e-08  1.53487926e-08  1.53007317e-08  1.52645783e-08  1.52645783e-08  1.52644833e-08 
 1.04929171e-06  1.04929171e+00  1.54296575e-08  1.53471630e-08  1.53000820e-08  1.52645783e-08  1.52645783e-08  1.52644881e-08 
 1.05929171e-06  1.05929171e+00  1.54265056e-08  1.53455780e-08  1.52994515e-08  1.52645783e-08  1.52645783e-08  1.52644941e-08 
 1.06929171e-06  1.06929171e+00  1.54234270e-08  1.53440386e-08  1.52988392e-08  1.52645783e-08  1.52645783e-08  1.52645010e-08 
 1.07929171e-06  1.07929171e+00  1.54204391e-08  1.53425414e-08  1.52982425e-08  1.52645783e-08  1.52645783e-08  1.52645086e-08 
 1.08929171e-06  1.08929171e+00  1.54175386e-08  1.53410843e-08  1.52976618e-08  1.52645783e-08  1.52645783e-08  1.52645168e-08 
 1.09929171e-06  1.09929171e+00  1.54147129e-08  1.53396718e-08  1.52970972e-08  1.52645783e-08  1.52645783e-08  1.52645246e-08 
 1.10929171e-06  1.10929171e+00  1.54119675e-08  1.53382935e-08  1.52965459e-08  1.52645783e-08  1.52645783e-08  1.52645321e-08 
 1.11929171e-06  1.11929171e+00  1.54092946e-08  1.53369537e-08  1.52960086e-08  1.52645783e-08  1.52645783e-08  1.52645392e-08 
 1.12929171e-06  1.12929171e+00  1.54066920e-08  1.53356509e-08  1.52954844e-08  1.52645783e-08  1.52645783e-08  1.52645462e-08 
 1.13929171e-06  1.13929171e+00  1.54041567e-08  1.53343793e-08  1.52949719e-08  1.52645783e-08  1.52645783e-08  1.52645520e-08 
 1.14929171e-06  1.14929171e+00  1.54016933e-08  1.53331438e-08  1.52944731e-08  1.52645783e-08  1.52645783e-08  1.52645572e-08 
 1.15929171e-06  1.15929171e+00  1.53992851e-08  1.53319405e-08  1.52939846e-08  1.52645783e-08  1.52645783e-08  1.52645611e-08 
 1.16929171e-06  1.16929171e+00  1.53969449e-08  1.53307665e-08  1.52935077e-08  1.52645783e-08  1.52645783e-08  1.52645649e-08 
 1.17929171e-06  1.17929171e+00  1.53946629e-08  1.53296242e-08  1.52930415e-08  1.52645783e-08  1.52645783e-08  1.52645684e-08 
 1.18929171e-06  1.18929171e+00  1.53924339e-08  1.53285103e-08  1.52925871e-08  1.52645783e-08  1.52645783e-08  1.52645708e-08 
 1.19929171e-06  1.19929171e+00  1.53902672e-08  1.53274247e-08  1.52921415e-08  1.52645783e-08  1.52645783e-08  1.52645727e-08 
 1.20929171e-06  1.20929171e+00  1.53881505e-08  1.53263660e-08  1.52917067e-08  1.52645783e-08  1.52645783e-08  1.52645741e-08 
 1.21929171e-06  1.21929171e+00  1.53860855e-08  1.53253326e-08  1.52912817e-08  1.52645783e-08  1.52645783e-08  1.52645750e-08 
