 time            v(bvdd)         time            v(pvdd)         time            v(gate)         time            v(ea_out)       time            v(startup_done) time            v(ea_en)       
 1.00000000e-09  1.00000000e-03  1.00000000e-09  1.82052665e-04  1.00000000e-09  7.87335392e-04  1.00000000e-09 -2.25828719e-03  1.00000000e-09  6.37327338e-04  1.00000000e-09  7.11797191e-06 
 1.02794806e-09  1.02794806e-03  1.02794806e-09  1.84236999e-04  1.02794806e-09  8.08637442e-04  1.02794806e-09 -2.30450429e-03  1.02794806e-09  6.55190659e-04  1.02794806e-09  7.31832762e-06 
 1.08384419e-09  1.08384419e-03  1.08384419e-09  1.86126281e-04  1.08384419e-09  8.50680269e-04  1.08384419e-09 -2.36255625e-03  1.08384419e-09  6.91081229e-04  1.08384419e-09  7.72036377e-06 
 1.19563645e-09  1.19563645e-03  1.19563645e-09  1.85778428e-04  1.19563645e-09  9.33861810e-04  1.19563645e-09 -2.42774740e-03  1.19563645e-09  7.63088250e-04  1.19563645e-09  8.52667695e-06 
 1.41922096e-09  1.41922096e-03  1.41922096e-09  1.85876483e-04  1.41922096e-09  1.10057957e-03  1.41922096e-09 -2.40774172e-03  1.41922096e-09  9.08432884e-04  1.41922096e-09  1.01499983e-05 
 1.72904811e-09  1.72904811e-03  1.72904811e-09  1.85672279e-04  1.72904811e-09  1.33187228e-03  1.72904811e-09 -2.20669395e-03  1.72904811e-09  1.11140692e-03  1.72904811e-09  1.24158848e-05 
 2.34870242e-09  2.34870242e-03  2.34870242e-09  1.85589934e-04  2.34870242e-09  1.79563610e-03  2.34870242e-09 -1.68608496e-03  2.34870242e-09  1.51912341e-03  2.34870242e-09  1.69835914e-05 
 3.58801103e-09  3.58801103e-03  3.58801103e-09  1.85165339e-04  3.58801103e-09  2.72723764e-03  3.58801103e-09 -8.56818585e-04  3.58801103e-09  2.33592905e-03  3.58801103e-09  2.62180144e-05 
 6.06662825e-09  6.06662825e-03  6.06662825e-09  1.84584466e-04  6.06662825e-09  4.60591715e-03  6.06662825e-09 -1.13387405e-04  6.06662825e-09  3.97322898e-03  6.06662825e-09  4.49783780e-05 
 1.10238627e-08  1.10238627e-02  1.10238627e-08  1.83217071e-04  1.10238627e-08  8.41870027e-03  1.10238627e-08  1.17937406e-04  1.10238627e-08  7.27381943e-03  1.10238627e-08  8.32807890e-05 
 1.81675153e-08  1.81675153e-02  1.81675153e-08  1.81457810e-04  1.81675153e-08  1.40267282e-02  1.81675153e-08  8.72218852e-05  1.81675153e-08  1.20902502e-02  1.81675153e-08  1.39530828e-04 
 3.04920323e-08  3.04920323e-02  3.04920323e-08  1.78259137e-04  3.04920323e-08  2.39688203e-02  3.04920323e-08  9.46829197e-05  3.04920323e-08  2.05100600e-02  3.04920323e-08  2.38018617e-04 
 5.51410662e-08  5.51410662e-02  5.51410662e-08  1.72251039e-04  5.51410662e-08  4.46758851e-02  5.51410662e-08  8.63746604e-05  5.51410662e-08  3.75511482e-02  5.51410662e-08  4.37300273e-04 
 1.00000000e-07  1.00000000e-01  1.00000000e-07  1.61607560e-04  1.00000000e-07  8.44552800e-02  1.00000000e-07  8.68736220e-05  1.00000000e-07  6.88138680e-02  1.00000000e-07  7.98078159e-04 
 1.04929807e-07  1.04929807e-01  1.04929807e-07  1.60524115e-04  1.04929807e-07  8.89767376e-02  1.04929807e-07  8.40784643e-05  1.04929807e-07  7.22589271e-02  1.04929807e-07  8.37033584e-04 
 1.14789420e-07  1.14789420e-01  1.14789420e-07  1.58296188e-04  1.14789420e-07  9.80597244e-02  1.14789420e-07  8.23168657e-05  1.14789420e-07  7.91537956e-02  1.14789420e-07  9.14344265e-04 
 1.34508648e-07  1.34508648e-01  1.34508648e-07  1.53916570e-04  1.34508648e-07  1.16442348e-01  1.34508648e-07  7.99998847e-05  1.34508648e-07  9.29593415e-02  1.34508648e-07  1.06458709e-03 
 1.73947102e-07  1.73947102e-01  1.73947102e-07  1.45447711e-04  1.73947102e-07  1.53893213e-01  1.73947102e-07  7.43295112e-05  1.73947102e-07  1.20631219e-01  1.73947102e-07  1.34307029e-03 
 2.52824011e-07  2.52824011e-01  2.52824011e-07  1.29549654e-04  2.52824011e-07  2.30553135e-01  2.52824011e-07  6.34153729e-05  2.52824011e-07  1.76239876e-01  2.52824011e-07  1.80240012e-03 
 3.52824011e-07  3.52824011e-01  3.52824011e-07  1.11162878e-04  3.52824011e-07  3.29514550e-01  3.52824011e-07  4.96285469e-05  3.52824011e-07  2.47354375e-01  3.52824011e-07  2.21453635e-03 
 4.52824011e-07  4.52824011e-01  4.52824011e-07  9.45183072e-05  4.52824011e-07  4.29241924e-01  4.52824011e-07  3.75977961e-05  4.52824011e-07  3.19145700e-01  4.52824011e-07  2.48108845e-03 
 5.52824011e-07  5.52824011e-01  5.52824011e-07  7.94275907e-05  5.52824011e-07  5.29202961e-01  5.52824011e-07  2.67548409e-05  5.52824011e-07  3.90843260e-01  5.52824011e-07  2.64971579e-03 
 6.52824011e-07  6.52824011e-01  6.52824011e-07  6.57376052e-05  6.52824011e-07  6.29230319e-01  6.52824011e-07  1.79270318e-05  6.52824011e-07  4.59629803e-01  6.52824011e-07  2.75532236e-03 
 7.52824011e-07  7.52824011e-01  7.52824011e-07  5.33174502e-05  7.52824011e-07  7.29273104e-01  7.52824011e-07  1.04199711e-05  7.52824011e-07  5.18284946e-01  7.52824011e-07  2.82113225e-03 
 8.52824011e-07  8.52824011e-01  8.52824011e-07  4.20462439e-05  8.52824011e-07  8.29318237e-01  8.52824011e-07  4.85358159e-06  8.52824011e-07  5.52052904e-01  8.52824011e-07  2.86202792e-03 
 9.52824011e-07  9.52824011e-01  9.52824011e-07  3.18105800e-05  9.52824011e-07  9.29370575e-01  9.52824011e-07 -3.93901645e-07  9.52824011e-07  5.34579132e-01  9.52824011e-07  2.88740096e-03 
 1.05282401e-06  1.05282401e+00  1.05282401e-06  2.24761893e-05  1.05282401e-06  1.02949839e+00  1.05282401e-06 -8.66122110e-06  1.05282401e-06  3.26957844e-01  1.05282401e-06  2.90313209e-03 
 1.15282401e-06  1.15282401e+00  1.15282401e-06  1.38500004e-05  1.15282401e-06  1.13116032e+00  1.15282401e-06 -3.53903986e-05  1.15282401e-06  6.25172434e-04  1.15282401e-06  2.91291939e-03 
 1.25282401e-06  1.25282401e+00  1.25282401e-06  5.78350585e-06  1.25282401e-06  1.23499926e+00  1.25282401e-06 -7.69831948e-05  1.25282401e-06 -3.29749835e-04  1.25282401e-06  2.91895065e-03 
 1.33820139e-06  1.33820139e+00  1.33820139e-06 -3.01568524e-07  1.33820139e-06  1.31761625e+00  1.33820139e-06  1.55710737e-06  1.33820139e-06  3.45299569e-04  1.33820139e-06  2.92214642e-03 
 1.42610400e-06  1.42610400e+00  1.42610400e-06 -5.92645443e-06  1.42610400e-06  1.40385598e+00  1.42610400e-06 -1.07920191e-05  1.42610400e-06 -2.32082298e-04  1.42610400e-06  2.92428582e-03 
 1.52610400e-06  1.52610400e+00  1.52610400e-06 -1.16708839e-05  1.52610400e-06  1.50249072e+00  1.52610400e-06  1.99862204e-04  1.52610400e-06  2.52109026e-04  1.52610400e-06  2.92581715e-03 
 1.62610400e-06  1.62610400e+00  1.62610400e-06 -1.65515090e-05  1.62610400e-06  1.59907941e+00  1.62610400e-06  6.31471248e-04  1.62610400e-06 -1.74757617e-04  1.62610400e-06  2.92673010e-03 
 1.72610400e-06  1.72610400e+00  1.72610400e-06 -2.02908203e-05  1.72610400e-06  1.69215351e+00  1.72610400e-06  1.68773454e-03  1.72610400e-06  1.97808149e-04  1.72610400e-06  2.92727944e-03 
 1.82610400e-06  1.82610400e+00  1.82610400e-06 -2.25090718e-05  1.82610400e-06  1.77992096e+00  1.82610400e-06  3.40098693e-03  1.82610400e-06 -1.41159277e-04  1.82610400e-06  2.92761172e-03 
 1.92610400e-06  1.92610400e+00  1.92610400e-06 -2.28604539e-05  1.92610400e-06  1.86230928e+00  1.92610400e-06  6.08833878e-03  1.92610400e-06  1.64008489e-04  1.92610400e-06  2.92783164e-03 
 2.02610400e-06  2.02610400e+00  2.02610400e-06 -2.10409334e-05  2.02610400e-06  1.93905305e+00  2.02610400e-06  9.75609285e-03  2.02610400e-06 -1.19158155e-04  2.02610400e-06  2.92799558e-03 
 2.12610400e-06  2.12610400e+00  2.12610400e-06 -1.68138700e-05  2.12610400e-06  2.01073853e+00  2.12610400e-06  1.46780871e-02  2.12610400e-06  1.40997453e-04  2.12610400e-06  2.92815018e-03 
 2.22610400e-06  2.22610400e+00  2.22610400e-06 -9.99397343e-06  2.22610400e-06  2.07746094e+00  2.22610400e-06  2.08469629e-02  2.22610400e-06 -1.03673181e-04  2.22610400e-06  2.92831666e-03 
 2.32610400e-06  2.32610400e+00  2.32610400e-06 -4.54679865e-07  2.32610400e-06  2.13989422e+00  2.32610400e-06  2.84968892e-02  2.32610400e-06  1.24357045e-04  2.32610400e-06  2.92851805e-03 
 2.42610400e-06  2.42610400e+00  2.42610400e-06  1.18825345e-05  2.42610400e-06  2.19825789e+00  2.42610400e-06  3.76014077e-02  2.42610400e-06 -9.22077572e-05  2.42610400e-06  2.92876146e-03 
 2.52610400e-06  2.52610400e+00  2.52610400e-06  2.70470247e-05  2.52610400e-06  2.25325662e+00  2.52610400e-06  4.83562875e-02  2.52610400e-06  1.11400365e-04  2.52610400e-06  2.92906002e-03 
 2.62610400e-06  2.62610400e+00  2.62610400e-06  4.50275014e-05  2.62610400e-06  2.30517283e+00  2.62610400e-06  6.07148962e-02  2.62610400e-06 -8.37663350e-05  2.62610400e-06  2.92941521e-03 
 2.72610400e-06  2.72610400e+00  2.72610400e-06  6.57781493e-05  2.72610400e-06  2.35469991e+00  2.72610400e-06  7.48377784e-02  2.72610400e-06  1.01711765e-04  2.72610400e-06  2.92983602e-03 
 2.82610400e-06  2.82610400e+00  2.82610400e-06  8.92367868e-05  2.82610400e-06  2.40214162e+00  2.82610400e-06  9.06587891e-02  2.82610400e-06 -7.66906218e-05  2.82610400e-06  2.93032183e-03 
 2.92610400e-06  2.92610400e+00  2.92610400e-06  1.15375497e-04  2.92610400e-06  2.44815606e+00  2.92610400e-06  1.08307148e-01  2.92610400e-06  9.39372367e-05  2.92610400e-06  2.93087987e-03 
 3.02610400e-06  3.02610400e+00  3.02610400e-06  1.44368200e-04  3.02610400e-06  2.49303121e+00  3.02610400e-06  1.27699883e-01  3.02610400e-06 -7.09776841e-05  3.02610400e-06  2.93150920e-03 
 3.12610400e-06  3.12610400e+00  3.12610400e-06  1.77169968e-04  3.12610400e-06  2.53736516e+00  3.12610400e-06  1.48939756e-01  3.12610400e-06  8.75747466e-05  3.12610400e-06  2.93221714e-03 
 3.22610400e-06  3.22610400e+00  3.22610400e-06  2.17469000e-04  3.22610400e-06  2.58140571e+00  3.22610400e-06  1.71932625e-01  3.22610400e-06 -6.62759070e-05  3.22610400e-06  2.93300473e-03 
 3.32610400e-06  3.32610400e+00  3.32610400e-06  2.77881535e-04  3.32610400e-06  2.62566750e+00  3.32610400e-06  1.96767799e-01  3.32610400e-06  8.22832695e-05  3.32610400e-06  2.93388400e-03 
 3.42610400e-06  3.42610400e+00  3.42610400e-06  3.98059549e-04  3.42610400e-06  2.67033833e+00  3.42610400e-06  2.23369908e-01  3.42610400e-06 -6.23448691e-05  3.42610400e-06  2.93486864e-03 
 3.52610400e-06  3.52610400e+00  3.52610400e-06  6.91249315e-04  3.52610400e-06  2.71586963e+00  3.52610400e-06  2.51888781e-01  3.52610400e-06  7.78230216e-05  3.52610400e-06  2.93600174e-03 
 3.62610400e-06  3.62610400e+00  3.62610400e-06  1.44939671e-03  3.62610400e-06  2.76248095e+00  3.62610400e-06  2.82393676e-01  3.62610400e-06 -5.89150110e-05  3.62610400e-06  2.93736842e-03 
 3.72610400e-06  3.72610400e+00  3.72610400e-06  3.32462065e-03  3.72610400e-06  2.81095113e+00  3.72610400e-06  3.15622643e-01  3.72610400e-06  7.40207712e-05  3.72610400e-06  2.93917288e-03 
 3.82610400e-06  3.82610400e+00  3.82610400e-06  7.49879058e-03  3.82610400e-06  2.86226341e+00  3.82610400e-06  3.52392575e-01  3.82610400e-06 -5.60807881e-05  3.82610400e-06  2.94175759e-03 
 3.92610400e-06  3.92610400e+00  3.92610400e-06  1.55320919e-02  3.92610400e-06  2.91803889e+00  3.92610400e-06  3.93907644e-01  3.92610400e-06  7.08032570e-05  3.92610400e-06  2.94559456e-03 
 4.02610400e-06  4.02610400e+00  4.02610400e-06  2.87442118e-02  4.02610400e-06  2.97981712e+00  4.02610400e-06  4.41137650e-01  4.02610400e-06 -5.36282265e-05  4.02610400e-06  2.95113523e-03 
 4.12610400e-06  4.12610400e+00  4.12610400e-06  4.75343280e-02  4.12610400e-06  3.04882461e+00  4.12610400e-06  4.93957804e-01  4.12610400e-06  6.79522545e-05  4.12610400e-06  2.95863269e-03 
 4.22610400e-06  4.22610400e+00  4.22610400e-06  7.12722356e-02  4.22610400e-06  3.12479200e+00  4.22610400e-06  5.51196829e-01  4.22610400e-06 -5.14888420e-05  4.22610400e-06  2.96811990e-03 
 4.32610400e-06  4.32610400e+00  4.32610400e-06  9.87938114e-02  4.32610400e-06  3.20630587e+00  4.32610400e-06  6.10634458e-01  4.32610400e-06  6.54610945e-05  4.32610400e-06  2.97944772e-03 
 4.42610400e-06  4.42610400e+00  4.42610400e-06  1.29169212e-01  4.42610400e-06  3.29022945e+00  4.42610400e-06  6.69239228e-01  4.42610400e-06 -4.96095151e-05  4.42610400e-06  2.99227143e-03 
 4.52610400e-06  4.52610400e+00  4.52610400e-06  1.62409489e-01  4.52610400e-06  3.37257711e+00  4.52610400e-06  7.23635337e-01  4.52610400e-06  6.32707292e-05  4.52610400e-06  3.00599011e-03 
 4.62610400e-06  4.62610400e+00  4.62610400e-06  1.99909492e-01  4.62610400e-06  3.44899559e+00  4.62610400e-06  7.71634797e-01  4.62610400e-06 -4.79483972e-05  4.62610400e-06  3.01998142e-03 
 4.72610400e-06  4.72610400e+00  4.72610400e-06  2.44417778e-01  4.72610400e-06  3.51694056e+00  4.72610400e-06  8.13322978e-01  4.72610400e-06  6.13344369e-05  4.72610400e-06  3.03403257e-03 
 4.82610400e-06  4.82610400e+00  4.82610400e-06  2.99582375e-01  4.82610400e-06  3.57560596e+00  4.82610400e-06  8.49642380e-01  4.82610400e-06 -4.64720150e-05  4.82610400e-06  3.04825694e-03 
 4.92610400e-06  4.92610400e+00  4.92610400e-06  3.69433629e-01  4.92610400e-06  3.62546516e+00  4.92610400e-06  8.81185276e-01  4.92610400e-06  5.96148393e-05  4.92610400e-06  3.06285051e-03 
 5.02610400e-06  5.02610400e+00  5.02610400e-06  4.57990579e-01  5.02610400e-06  3.66731430e+00  5.02610400e-06  9.09212016e-01  5.02610400e-06 -4.51531867e-05  5.02610400e-06  3.07829578e-03 
 5.12610400e-06  5.12610400e+00  5.12610400e-06  5.68631150e-01  5.12610400e-06  3.70356867e+00  5.12610400e-06  9.35314372e-01  5.12610400e-06  5.80817873e-05  5.12610400e-06  3.09518952e-03 
 5.22610400e-06  5.22610400e+00  5.22610400e-06  7.02970137e-01  5.22610400e-06  3.73835067e+00  5.22610400e-06  9.59717211e-01  5.22610400e-06 -4.39694818e-05  5.22610400e-06  3.11374399e-03 
 5.32610400e-06  5.32610400e+00  5.32610400e-06  8.58546447e-01  5.32610400e-06  3.78101028e+00  5.32610400e-06  9.82942697e-01  5.32610400e-06  5.67108482e-05  5.32610400e-06  3.13433674e-03 
 5.42610400e-06  5.42610400e+00  5.42610400e-06  1.02764756e+00  5.42610400e-06  3.83890194e+00  5.42610400e-06  1.00495135e+00  5.42610400e-06 -4.29020502e-05  5.42610400e-06  3.16440846e-03 
 5.52610400e-06  5.52610400e+00  5.52610400e-06  1.19923259e+00  5.52610400e-06  3.91533004e+00  5.52610400e-06  1.05294889e+00  5.52610400e-06  5.54822175e-05  5.52610400e-06  3.20826884e-03 
 5.62610400e-06  5.62610400e+00  5.62610400e-06  1.36314862e+00  5.62610400e-06  4.00555067e+00  5.62610400e-06  1.13465930e+00  5.62610400e-06 -4.19347104e-05  5.62610400e-06  3.26305590e-03 
 5.72610400e-06  5.72610400e+00  5.72610400e-06  1.51428735e+00  5.72610400e-06  4.10074545e+00  5.72610400e-06  1.22041078e+00  5.72610400e-06  5.43799462e-05  5.72610400e-06  3.31854943e-03 
 5.82610400e-06  5.82610400e+00  5.82610400e-06  1.65331267e+00  5.82610400e-06  4.19296892e+00  5.82610400e-06  1.29261580e+00  5.82610400e-06 -4.10532175e-05  5.82610400e-06  3.37112718e-03 
 5.92610400e-06  5.92610400e+00  5.92610400e-06  1.78312010e+00  5.92610400e-06  4.28297258e+00  5.92610400e-06  1.36443875e+00  5.92610400e-06  5.33913820e-05  5.92610400e-06  3.42166035e-03 
 6.02610400e-06  6.02610400e+00  6.02610400e-06  1.90492848e+00  6.02610400e-06  4.37467050e+00  6.02610400e-06  1.43962766e+00  6.02610400e-06 -4.02446641e-05  6.02610400e-06  3.47043840e-03 
 6.12610400e-06  6.12610400e+00  6.12610400e-06  2.01917392e+00  6.12610400e-06  4.46626988e+00  6.12610400e-06  1.51117838e+00  6.12610400e-06  5.24987444e-05  6.12610400e-06  3.51672687e-03 
 6.22610400e-06  6.22610400e+00  6.22610400e-06  2.12712929e+00  6.22610400e-06  4.55672847e+00  6.22610400e-06  1.58129207e+00  6.22610400e-06 -3.95122786e-05  6.22610400e-06  3.56102574e-03 
 6.32610400e-06  6.32610400e+00  6.32610400e-06  2.23027228e+00  6.32610400e-06  4.64601004e+00  6.32610400e-06  1.64796965e+00  6.32610400e-06  5.17122169e-05  6.32610400e-06  3.60352431e-03 
 6.42610400e-06  6.42610400e+00  6.42610400e-06  2.32993494e+00  6.42610400e-06  4.73411427e+00  6.42610400e-06  1.71372693e+00  6.42610400e-06 -3.88122516e-05  6.42610400e-06  3.64489841e-03 
 6.52610400e-06  6.52610400e+00  6.52610400e-06  2.42717604e+00  6.52610400e-06  4.82145386e+00  6.52610400e-06  1.77734706e+00  6.52610400e-06  5.10177576e-05  6.52610400e-06  3.68531853e-03 
 6.62610400e-06  6.62610400e+00  6.62610400e-06  2.52279467e+00  6.62610400e-06  4.90807209e+00  6.62610400e-06  1.84073615e+00  6.62610400e-06 -3.81499775e-05  6.62610400e-06  3.72526452e-03 
 6.72610400e-06  6.72610400e+00  6.72610400e-06  2.61732387e+00  6.72610400e-06  4.99448448e+00  6.72610400e-06  1.90299566e+00  6.72610400e-06  5.04130942e-05  6.72610400e-06  3.76478149e-03 
 6.82610400e-06  6.82610400e+00  6.82610400e-06  2.71109339e+00  6.82610400e-06  5.08062328e+00  6.82610400e-06  1.96542257e+00  6.82610400e-06 -3.75135292e-05  6.82610400e-06  3.80414053e-03 
 6.92610400e-06  6.92610400e+00  6.92610400e-06  2.80429064e+00  6.92610400e-06  5.16688000e+00  6.92610400e-06  2.02723068e+00  6.92610400e-06  4.98982124e-05  6.92610400e-06  3.84328850e-03 
 7.00000000e-06  7.00000000e+00  7.00000000e-06  2.87284734e+00  7.00000000e-06  5.23055766e+00  7.00000000e-06  2.07314254e+00  7.00000000e-06 -3.69422450e-05  7.00000000e-06  3.87218542e-03 
 7.01000000e-06  7.00000000e+00  7.01000000e-06  2.88198162e+00  7.01000000e-06  5.23057686e+00  7.01000000e-06  2.07918581e+00  7.01000000e-06  1.10939190e-06  7.01000000e-06  3.87602722e-03 
 7.03000000e-06  7.00000000e+00  7.03000000e-06  2.90001482e+00  7.03000000e-06  5.23036197e+00  7.03000000e-06  2.09122392e+00  7.03000000e-06  1.30529695e-06  7.03000000e-06  3.88362914e-03 
 7.07000000e-06  7.00000000e+00  7.07000000e-06  2.93480858e+00  7.07000000e-06  5.22919345e+00  7.07000000e-06  2.11457871e+00  7.07000000e-06  1.13577152e-06  7.07000000e-06  3.89832149e-03 
 7.15000000e-06  7.00000000e+00  7.15000000e-06  2.99989697e+00  7.15000000e-06  5.22661568e+00  7.15000000e-06  2.15845945e+00  7.15000000e-06  1.30704662e-06  7.15000000e-06  3.92585408e-03 
 7.25000000e-06  7.00000000e+00  7.25000000e-06  3.07320719e+00  7.25000000e-06  5.22467418e+00  7.25000000e-06  2.20814075e+00  7.25000000e-06  1.13600363e-06  7.25000000e-06  3.95692748e-03 
 7.35000000e-06  7.00000000e+00  7.35000000e-06  3.13779108e+00  7.35000000e-06  5.22403896e+00  7.35000000e-06  2.25211418e+00  7.35000000e-06  1.30684054e-06  7.35000000e-06  3.98434769e-03 
 7.45000000e-06  7.00000000e+00  7.45000000e-06  3.19409821e+00  7.45000000e-06  5.22413621e+00  7.45000000e-06  2.29068893e+00  7.45000000e-06  1.13620970e-06  7.45000000e-06  4.00829407e-03 
 7.55000000e-06  7.00000000e+00  7.55000000e-06  3.24281240e+00  7.55000000e-06  5.22468369e+00  7.55000000e-06  2.32432202e+00  7.55000000e-06  1.30663456e-06  7.55000000e-06  4.02904779e-03 
 7.65000000e-06  7.00000000e+00  7.65000000e-06  3.28468469e+00  7.65000000e-06  5.22551050e+00  7.65000000e-06  2.35355274e+00  7.65000000e-06  1.13641560e-06  7.65000000e-06  4.04692732e-03 
 7.75000000e-06  7.00000000e+00  7.75000000e-06  3.32046201e+00  7.75000000e-06  5.22651624e+00  7.75000000e-06  2.37886391e+00  7.75000000e-06  1.30642875e-06  7.75000000e-06  4.06224342e-03 
 7.85000000e-06  7.00000000e+00  7.85000000e-06  3.35085829e+00  7.85000000e-06  5.22761198e+00  7.85000000e-06  2.40069921e+00  7.85000000e-06  1.13662141e-06  7.85000000e-06  4.07529164e-03 
 7.95000000e-06  7.00000000e+00  7.95000000e-06  3.37654920e+00  7.95000000e-06  5.22872020e+00  7.95000000e-06  2.41941417e+00  7.95000000e-06  1.30622346e-06  7.95000000e-06  4.08634247e-03 
 8.05000000e-06  7.00000000e+00  8.05000000e-06  3.39816963e+00  8.05000000e-06  5.22977072e+00  8.05000000e-06  2.43534959e+00  8.05000000e-06  1.13682837e-06  8.05000000e-06  4.09565151e-03 
 8.15000000e-06  7.00000000e+00  8.15000000e-06  3.41630221e+00  8.15000000e-06  5.23073923e+00  8.15000000e-06  2.44889967e+00  8.15000000e-06  1.30602205e-06  8.15000000e-06  4.10346646e-03 
 8.25000000e-06  7.00000000e+00  8.25000000e-06  3.43145515e+00  8.25000000e-06  5.23165050e+00  8.25000000e-06  2.46050130e+00  8.25000000e-06  1.13704093e-06  8.25000000e-06  4.11001849e-03 
