 time            v(bvdd)         time            v(pvdd)         time            v(gate)         time            v(ea_en)       
 1.00000000e-10  1.20000000e-03  1.00000000e-10  1.44379088e-03  1.00000000e-10  1.03967823e-03  1.00000000e-10  2.12544844e-03 
 1.02724264e-10  1.23269116e-03  1.02724264e-10  1.47828244e-03  1.02724264e-10  1.05655541e-03  1.02724264e-10  2.17807240e-03 
 1.08172791e-10  1.29807349e-03  1.08172791e-10  1.53909536e-03  1.08172791e-10  1.10875639e-03  1.08172791e-10  2.28507130e-03 
 1.19069845e-10  1.42883815e-03  1.19069845e-10  1.62312162e-03  1.19069845e-10  1.21415636e-03  1.19069845e-10  2.48117367e-03 
 1.40863955e-10  1.69036745e-03  1.40863955e-10  1.70636057e-03  1.40863955e-10  1.39588135e-03  1.40863955e-10  2.83513686e-03 
 1.76806716e-10  2.12168060e-03  1.76806716e-10  1.74332201e-03  1.76806716e-10  1.66311937e-03  1.76806716e-10  3.37209785e-03 
 2.32547130e-10  2.79056556e-03  2.32547130e-10  1.74762612e-03  2.32547130e-10  2.07294818e-03  2.32547130e-10  4.17791613e-03 
 3.11876207e-10  3.74251449e-03  3.11876207e-10  1.74726730e-03  3.11876207e-10  2.65355341e-03  3.11876207e-10  5.32124709e-03 
 4.70534362e-10  5.64641235e-03  4.70534362e-10  1.74804011e-03  4.70534362e-10  3.79278584e-03  4.70534362e-10  7.61327497e-03 
 7.87850672e-10  9.45420807e-03  7.87850672e-10  1.74903174e-03  7.87850672e-10  5.98662382e-03  7.87850672e-10  1.22173436e-02 
 1.42248329e-09  1.70697995e-02  1.42248329e-09  1.75170274e-03  1.42248329e-09  1.00567098e-02  1.42248329e-09  2.14928910e-02 
 2.69174853e-09  3.23009824e-02  2.69174853e-09  1.75734559e-03  2.69174853e-09  1.69442866e-02  2.69174853e-09  4.02052681e-02 
 5.23027901e-09  6.27633481e-02  5.23027901e-09  1.77179935e-03  5.23027901e-09  2.69852781e-02  5.23027901e-09  7.78777718e-02 
 9.14835450e-09  1.09780254e-01  9.14835450e-09  1.79857337e-03  9.14835450e-09  3.61371798e-02  9.14835450e-09  1.35684472e-01 
 1.00000000e-08  1.20000000e-01  1.00000000e-08  1.80503880e-03  1.00000000e-08  3.73530051e-02  1.00000000e-08  1.48090108e-01 
 1.06325717e-08  1.27590860e-01  1.06325717e-08  1.80980699e-03  1.06325717e-08  3.81049869e-02  1.06325717e-08  1.57253611e-01 
 1.18977150e-08  1.42772579e-01  1.18977150e-08  1.81951210e-03  1.18977150e-08  3.94348580e-02  1.18977150e-08  1.75447904e-01 
 1.44280016e-08  1.73136019e-01  1.44280016e-08  1.83927420e-03  1.44280016e-08  4.13450548e-02  1.44280016e-08  2.11203236e-01 
 1.94885748e-08  2.33862897e-01  1.94885748e-08  1.87928915e-03  1.94885748e-08  4.33964758e-02  1.94885748e-08  2.79673861e-01 
 2.94885748e-08  3.53862897e-01  2.94885748e-08  1.95743599e-03  2.94885748e-08  4.49695545e-02  2.94885748e-08  4.02521191e-01 
 3.94885748e-08  4.73862897e-01  3.94885748e-08  2.03276371e-03  3.94885748e-08  4.62411029e-02  3.94885748e-08  5.12660261e-01 
 4.94885748e-08  5.93862897e-01  4.94885748e-08  2.10448837e-03  4.94885748e-08  4.82531256e-02  4.94885748e-08  5.93881302e-01 
 5.94885748e-08  7.13862897e-01  5.94885748e-08  2.17476270e-03  5.94885748e-08  5.12804184e-02  5.94885748e-08  6.23117430e-01 
 6.94885748e-08  8.33862897e-01  6.94885748e-08  2.27517227e-03  6.94885748e-08  5.58434974e-02  6.94885748e-08  6.23519661e-01 
 7.94885748e-08  9.53862897e-01  7.94885748e-08  2.68659458e-03  7.94885748e-08  6.24183899e-02  7.94885748e-08  6.26578065e-01 
 8.94885748e-08  1.07386290e+00  8.94885748e-08  5.27858005e-03  8.94885748e-08  7.19496601e-02  8.94885748e-08  6.51056118e-01 
 9.94885748e-08  1.19386290e+00  9.94885748e-08  1.61230558e-02  9.94885748e-08  8.76330221e-02  9.94885748e-08  7.44293681e-01 
 1.09488575e-07  1.31386290e+00  1.09488575e-07  4.38780414e-02  1.09488575e-07  1.14990667e-01  1.09488575e-07  8.71186403e-01 
 1.19488575e-07  1.43386290e+00  1.19488575e-07  9.36432547e-02  1.19488575e-07  1.59996609e-01  1.19488575e-07  1.36503728e+00 
 1.29155104e-07  1.54986125e+00  1.29155104e-07  1.62244617e-01  1.29155104e-07  2.20613629e-01  1.29155104e-07  1.55254251e+00 
 1.38109424e-07  1.65731308e+00  1.38109424e-07  2.40766059e-01  1.38109424e-07  2.91803590e-01  1.38109424e-07  1.64024772e+00 
 1.48109424e-07  1.77731308e+00  1.48109424e-07  3.40775977e-01  1.48109424e-07  3.85034612e-01  1.48109424e-07  1.77329587e+00 
 1.58109424e-07  1.89731308e+00  1.58109424e-07  4.49566575e-01  1.58109424e-07  4.88518875e-01  1.58109424e-07  1.88838136e+00 
 1.68109424e-07  2.01731308e+00  1.68109424e-07  5.63833590e-01  1.68109424e-07  5.98628142e-01  1.68109424e-07  2.01315722e+00 
 1.78109424e-07  2.13731308e+00  1.78109424e-07  6.81577810e-01  1.78109424e-07  7.11856020e-01  1.78109424e-07  2.13113838e+00 
 1.88109424e-07  2.25731308e+00  1.88109424e-07  8.02987421e-01  1.88109424e-07  8.20870916e-01  1.88109424e-07  2.25357735e+00 
 1.98109424e-07  2.37731308e+00  1.98109424e-07  9.33611903e-01  1.98109424e-07  9.07402781e-01  1.98109424e-07  2.37274241e+00 
 2.08109424e-07  2.49731308e+00  2.08109424e-07  1.08483193e+00  2.08109424e-07  9.63972118e-01  2.08109424e-07  2.49482467e+00 
 2.18109424e-07  2.61731308e+00  2.18109424e-07  1.26536942e+00  2.18109424e-07  1.01237382e+00  2.18109424e-07  2.61486179e+00 
 2.28109424e-07  2.73731308e+00  2.28109424e-07  1.47670815e+00  2.28109424e-07  1.06216584e+00  2.28109424e-07  2.73650314e+00 
 2.38109424e-07  2.85731308e+00  2.38109424e-07  1.71534684e+00  2.38109424e-07  1.12017938e+00  2.38109424e-07  2.85646334e+00 
 2.48109424e-07  2.97731308e+00  2.48109424e-07  1.97030021e+00  2.48109424e-07  1.20529149e+00  2.48109424e-07  2.97738629e+00 
 2.57566714e-07  3.09080057e+00  2.57566714e-07  2.22021716e+00  2.57566714e-07  1.27346748e+00  2.57566714e-07  3.09043783e+00 
 2.66459470e-07  3.19751364e+00  2.66459470e-07  2.46807508e+00  2.66459470e-07  1.30345281e+00  2.66459470e-07  3.19799393e+00 
 2.75674102e-07  3.30808923e+00  2.75674102e-07  2.73763976e+00  2.75674102e-07  1.31261904e+00  2.75674102e-07  3.30823967e+00 
 2.84811240e-07  3.41773488e+00  2.84811240e-07  3.00422127e+00  2.84811240e-07  1.25805733e+00  2.84811240e-07  3.41786867e+00 
 2.91301840e-07  3.49562208e+00  2.91301840e-07  3.17290067e+00  2.91301840e-07  1.35647987e+00  2.91301840e-07  3.49483654e+00 
 2.97759982e-07  3.57311978e+00  2.97759982e-07  3.30206016e+00  2.97759982e-07  1.64498319e+00  2.97759982e-07  3.57191494e+00 
 3.03573451e-07  3.64288141e+00  3.03573451e-07  3.39046690e+00  3.03573451e-07  1.83276066e+00  3.03573451e-07  3.64041672e+00 
 3.11424649e-07  3.73709579e+00  3.11424649e-07  3.50028986e+00  3.11424649e-07  1.85490313e+00  3.11424649e-07  3.73475129e+00 
 3.20804924e-07  3.84965908e+00  3.20804924e-07  3.63861526e+00  3.20804924e-07  1.79690843e+00  3.20804924e-07  3.84718407e+00 
 3.30257684e-07  3.96309220e+00  3.30257684e-07  3.78170439e+00  3.30257684e-07  1.76124160e+00  3.30257684e-07  3.96099337e+00 
 3.40257684e-07  4.08309220e+00  3.40257684e-07  3.92828329e+00  3.40257684e-07  1.73355320e+00  3.40257684e-07  4.08063102e+00 
 3.50257684e-07  4.20309220e+00  3.50257684e-07  4.06770223e+00  3.50257684e-07  1.72362648e+00  3.50257684e-07  4.20098544e+00 
 3.60257684e-07  4.32309220e+00  3.60257684e-07  4.20126922e+00  3.60257684e-07  1.70821007e+00  3.60257684e-07  4.32061136e+00 
 3.70257684e-07  4.44309220e+00  3.70257684e-07  4.33109844e+00  3.70257684e-07  1.70104389e+00  3.70257684e-07  4.44102100e+00 
 3.80257684e-07  4.56309220e+00  3.80257684e-07  4.45843788e+00  3.80257684e-07  1.69484167e+00  3.80257684e-07  4.56066908e+00 
 3.90257684e-07  4.68309220e+00  3.90257684e-07  4.58418198e+00  3.90257684e-07  1.69454994e+00  3.90257684e-07  4.68108378e+00 
 4.00257684e-07  4.80309220e+00  4.00257684e-07  4.70881295e+00  4.00257684e-07  1.69823182e+00  4.00257684e-07  4.80074807e+00 
 4.10257684e-07  4.92309220e+00  4.10257684e-07  4.83266981e+00  4.10257684e-07  1.70475471e+00  4.10257684e-07  4.92114578e+00 
 4.20257684e-07  5.04309220e+00  4.20257684e-07  4.95595913e+00  4.20257684e-07  1.71458402e+00  4.20257684e-07  5.04082387e+00 
 4.30257684e-07  5.16309220e+00  4.30257684e-07  5.07882474e+00  4.30257684e-07  1.72502805e+00  4.30257684e-07  5.16120165e+00 
 4.40257684e-07  5.28309220e+00  4.40257684e-07  5.20137053e+00  4.40257684e-07  1.73683444e+00  4.40257684e-07  5.28089009e+00 
 4.50257684e-07  5.40309220e+00  4.50257684e-07  5.32366253e+00  4.50257684e-07  1.74794562e+00  4.50257684e-07  5.40125120e+00 
 4.60257684e-07  5.52309220e+00  4.60257684e-07  5.44575453e+00  4.60257684e-07  1.75869357e+00  4.60257684e-07  5.52094683e+00 
 4.70257684e-07  5.64309220e+00  4.70257684e-07  5.56767777e+00  4.70257684e-07  1.76821826e+00  4.70257684e-07  5.64129535e+00 
 4.80257684e-07  5.76309220e+00  4.80257684e-07  5.68945820e+00  4.80257684e-07  1.77660971e+00  4.80257684e-07  5.76099642e+00 
 4.90257684e-07  5.88309220e+00  4.90257684e-07  5.81111099e+00  4.90257684e-07  1.78390757e+00  4.90257684e-07  5.88133537e+00 
 5.00257684e-07  6.00309220e+00  5.00257684e-07  5.93264854e+00  5.00257684e-07  1.79016519e+00  5.00257684e-07  6.00104108e+00 
 5.10257684e-07  6.12309220e+00  5.10257684e-07  6.05408015e+00  5.10257684e-07  1.79574965e+00  5.10257684e-07  6.12137209e+00 
 5.20257684e-07  6.24309220e+00  5.20257684e-07  6.17541375e+00  5.20257684e-07  1.80070821e+00  5.20257684e-07  6.24108197e+00 
 5.30257684e-07  6.36309220e+00  5.30257684e-07  6.29665718e+00  5.30257684e-07  1.80535305e+00  5.30257684e-07  6.36140581e+00 
 5.40257684e-07  6.48309220e+00  5.40257684e-07  6.41781732e+00  5.40257684e-07  1.80972106e+00  5.40257684e-07  6.48111946e+00 
 5.50257684e-07  6.60309220e+00  5.50257684e-07  6.53890127e+00  5.50257684e-07  1.81397116e+00  5.50257684e-07  6.60143668e+00 
 5.60257684e-07  6.72309220e+00  5.60257684e-07  6.65991527e+00  5.60257684e-07  1.81813816e+00  5.60257684e-07  6.72115371e+00 
 5.70257684e-07  6.84309220e+00  5.70257684e-07  6.78086537e+00  5.70257684e-07  1.82227409e+00  5.70257684e-07  6.84146485e+00 
 5.80257684e-07  6.96309220e+00  5.80257684e-07  6.90175692e+00  5.80257684e-07  1.82641391e+00  5.80257684e-07  6.96118491e+00 
 5.90257684e-07  7.08309220e+00  5.90257684e-07  7.02259484e+00  5.90257684e-07  1.83056298e+00  5.90257684e-07  7.08149051e+00 
 6.00257684e-07  7.20309220e+00  6.00257684e-07  7.14338356e+00  6.00257684e-07  1.83474858e+00  6.00257684e-07  7.20121325e+00 
 6.10257684e-07  7.32309220e+00  6.10257684e-07  7.26412705e+00  6.10257684e-07  1.83896432e+00  6.10257684e-07  7.32151383e+00 
 6.20257684e-07  7.44309220e+00  6.20257684e-07  7.38482886e+00  6.20257684e-07  1.84322709e+00  6.20257684e-07  7.44123890e+00 
 6.30257684e-07  7.56309220e+00  6.30257684e-07  7.50549220e+00  6.30257684e-07  1.84753337e+00  6.30257684e-07  7.56153492e+00 
 6.40257684e-07  7.68309220e+00  6.40257684e-07  7.62611996e+00  6.40257684e-07  1.85189321e+00  6.40257684e-07  7.68126195e+00 
 6.50257684e-07  7.80309220e+00  6.50257684e-07  7.74671471e+00  6.50257684e-07  1.85630871e+00  6.50257684e-07  7.80155372e+00 
 6.60257684e-07  7.92309220e+00  6.60257684e-07  7.86727880e+00  6.60257684e-07  1.86078774e+00  6.60257684e-07  7.92128230e+00 
 6.70257684e-07  8.04309220e+00  6.70257684e-07  7.98781435e+00  6.70257684e-07  1.86533623e+00  6.70257684e-07  8.04156995e+00 
 6.80257684e-07  8.16309220e+00  6.80257684e-07  8.10832326e+00  6.80257684e-07  1.86996295e+00  6.80257684e-07  8.16129949e+00 
 6.90257684e-07  8.28309220e+00  6.90257684e-07  8.22880728e+00  6.90257684e-07  1.87467569e+00  6.90257684e-07  8.28158284e+00 
 7.00257684e-07  8.40309220e+00  7.00257684e-07  8.34926800e+00  7.00257684e-07  1.87948537e+00  7.00257684e-07  8.40131244e+00 
 7.10257684e-07  8.52309220e+00  7.10257684e-07  8.46970687e+00  7.10257684e-07  1.88440072e+00  7.10257684e-07  8.52159076e+00 
 7.20257684e-07  8.64309220e+00  7.20257684e-07  8.59012520e+00  7.20257684e-07  1.88943490e+00  7.20257684e-07  8.64131902e+00 
 7.30257684e-07  8.76309220e+00  7.30257684e-07  8.71052424e+00  7.30257684e-07  1.89459741e+00  7.30257684e-07  8.76159102e+00 
 7.40257684e-07  8.88309220e+00  7.40257684e-07  8.83090508e+00  7.40257684e-07  1.89990331e+00  7.40257684e-07  8.88131633e+00 
 7.50257684e-07  9.00309220e+00  7.50257684e-07  8.95126877e+00  7.50257684e-07  1.90536308e+00  7.50257684e-07  9.00158094e+00 
 7.60257684e-07  9.12309220e+00  7.60257684e-07  9.07161625e+00  7.60257684e-07  1.91099328e+00  7.60257684e-07  9.12130373e+00 
 7.70257684e-07  9.24309220e+00  7.70257684e-07  9.19194840e+00  7.70257684e-07  1.91680550e+00  7.70257684e-07  9.24156604e+00 
 7.80257684e-07  9.36309220e+00  7.80257684e-07  9.31226604e+00  7.80257684e-07  1.92281841e+00  7.80257684e-07  9.36131243e+00 
 7.90257684e-07  9.48309220e+00  7.90257684e-07  9.43256992e+00  7.90257684e-07  1.92904546e+00  7.90257684e-07  9.48163024e+00 
 8.00257684e-07  9.60309220e+00  8.00257684e-07  9.55286074e+00  8.00257684e-07  1.93550144e+00  8.00257684e-07  9.60140326e+00 
 8.06774324e-07  9.68129189e+00  8.06774324e-07  9.63124324e+00  8.06774324e-07  1.93983515e+00  8.06774324e-07  9.67987572e+00 
 8.13487813e-07  9.76185376e+00  8.13487813e-07  9.71198812e+00  8.13487813e-07  1.94441452e+00  8.13487813e-07  9.76017607e+00 
 8.20774733e-07  9.84929680e+00  8.20774733e-07  9.79962390e+00  8.20774733e-07  1.94951851e+00  8.20774733e-07  9.84788788e+00 
 8.30774733e-07  9.96929680e+00  8.30774733e-07  9.91987877e+00  8.30774733e-07  1.95676605e+00  8.30774733e-07  9.96762792e+00 
 8.40774733e-07  1.00892968e+01  8.40774733e-07  1.00401230e+01  8.40774733e-07  1.96430489e+00  8.40774733e-07  1.00878971e+01 
 8.50774733e-07  1.02092968e+01  8.50774733e-07  1.01603570e+01  8.50774733e-07  1.97215612e+00  8.50774733e-07  1.02076370e+01 
 8.60774733e-07  1.03292968e+01  8.60774733e-07  1.02805814e+01  8.60774733e-07  1.98033319e+00  8.60774733e-07  1.03279053e+01 
 8.70774733e-07  1.04492968e+01  8.70774733e-07  1.04007965e+01  8.70774733e-07  1.98885706e+00  8.70774733e-07  1.04476453e+01 
 8.75000000e-07  1.05000000e+01  8.75000000e-07  1.04515878e+01  8.75000000e-07  1.99256484e+00  8.75000000e-07  1.04986134e+01 
 8.76000000e-07  1.05000000e+01  8.76000000e-07  1.04611516e+01  8.76000000e-07  1.98855901e+00  8.76000000e-07  1.05001586e+01 
 8.78000000e-07  1.05000000e+01  8.78000000e-07  1.04763682e+01  8.78000000e-07  1.98260682e+00  8.78000000e-07  1.05005140e+01 
 8.82000000e-07  1.05000000e+01  8.82000000e-07  1.04913002e+01  8.82000000e-07  1.97532171e+00  8.82000000e-07  1.04999027e+01 
 8.90000000e-07  1.05000000e+01  8.90000000e-07  1.04984832e+01  8.90000000e-07  1.94371804e+00  8.90000000e-07  1.05001375e+01 
 9.00000000e-07  1.05000000e+01  9.00000000e-07  1.04984678e+01  9.00000000e-07  1.87439685e+00  9.00000000e-07  1.04997899e+01 
 9.10000000e-07  1.05000000e+01  9.10000000e-07  1.04985762e+01  9.10000000e-07  1.80406228e+00  9.10000000e-07  1.05001090e+01 
 9.20000000e-07  1.05000000e+01  9.20000000e-07  1.04986503e+01  9.20000000e-07  1.74896972e+00  9.20000000e-07  1.04998300e+01 
 9.30000000e-07  1.05000000e+01  9.30000000e-07  1.04987208e+01  9.30000000e-07  1.70681485e+00  9.30000000e-07  1.05001059e+01 
 9.40000000e-07  1.05000000e+01  9.40000000e-07  1.04987859e+01  9.40000000e-07  1.67253673e+00  9.40000000e-07  1.04998586e+01 
 9.50000000e-07  1.05000000e+01  9.50000000e-07  1.04988470e+01  9.50000000e-07  1.64419022e+00  9.50000000e-07  1.05000961e+01 
 9.60000000e-07  1.05000000e+01  9.60000000e-07  1.04989041e+01  9.60000000e-07  1.61970109e+00  9.60000000e-07  1.04998795e+01 
 9.70000000e-07  1.05000000e+01  9.70000000e-07  1.04989579e+01  9.70000000e-07  1.59838411e+00  9.70000000e-07  1.05000850e+01 
 9.80000000e-07  1.05000000e+01  9.80000000e-07  1.04990086e+01  9.80000000e-07  1.57931704e+00  9.80000000e-07  1.04998963e+01 
 9.90000000e-07  1.05000000e+01  9.90000000e-07  1.04990563e+01  9.90000000e-07  1.56210840e+00  9.90000000e-07  1.05000742e+01 
 1.00000000e-06  1.05000000e+01  1.00000000e-06  1.04991013e+01  1.00000000e-06  1.54639836e+00  1.00000000e-06  1.04999104e+01 
 1.01000000e-06  1.05000000e+01  1.01000000e-06  1.04991438e+01  1.01000000e-06  1.53190158e+00  1.01000000e-06  1.05000643e+01 
 1.02000000e-06  1.05000000e+01  1.02000000e-06  1.04991839e+01  1.02000000e-06  1.51848198e+00  1.02000000e-06  1.04999222e+01 
 1.03000000e-06  1.05000000e+01  1.03000000e-06  1.04992218e+01  1.03000000e-06  1.50594489e+00  1.03000000e-06  1.05000555e+01 
 1.04000000e-06  1.05000000e+01  1.04000000e-06  1.04992575e+01  1.04000000e-06  1.49422008e+00  1.04000000e-06  1.04999324e+01 
 1.05000000e-06  1.05000000e+01  1.05000000e-06  1.04992913e+01  1.05000000e-06  1.48319139e+00  1.05000000e-06  1.05000478e+01 
 1.06000000e-06  1.05000000e+01  1.06000000e-06  1.04993232e+01  1.06000000e-06  1.47280231e+00  1.06000000e-06  1.04999411e+01 
 1.07000000e-06  1.05000000e+01  1.07000000e-06  1.04993534e+01  1.07000000e-06  1.46298865e+00  1.07000000e-06  1.05000411e+01 
 1.08000000e-06  1.05000000e+01  1.08000000e-06  1.04993819e+01  1.08000000e-06  1.45370038e+00  1.08000000e-06  1.04999486e+01 
 1.09000000e-06  1.05000000e+01  1.09000000e-06  1.04994089e+01  1.09000000e-06  1.44489987e+00  1.09000000e-06  1.05000353e+01 
 1.10000000e-06  1.05000000e+01  1.10000000e-06  1.04994343e+01  1.10000000e-06  1.43654629e+00  1.10000000e-06  1.04999552e+01 
 1.11000000e-06  1.05000000e+01  1.11000000e-06  1.04994585e+01  1.11000000e-06  1.42861316e+00  1.11000000e-06  1.05000303e+01 
 1.12000000e-06  1.05000000e+01  1.12000000e-06  1.04994813e+01  1.12000000e-06  1.42106939e+00  1.12000000e-06  1.04999608e+01 
 1.13000000e-06  1.05000000e+01  1.13000000e-06  1.04995028e+01  1.13000000e-06  1.41389329e+00  1.13000000e-06  1.05000259e+01 
 1.14000000e-06  1.05000000e+01  1.14000000e-06  1.04995232e+01  1.14000000e-06  1.40706135e+00  1.14000000e-06  1.04999658e+01 
 1.15000000e-06  1.05000000e+01  1.15000000e-06  1.04995426e+01  1.15000000e-06  1.40055492e+00  1.15000000e-06  1.05000221e+01 
 1.16000000e-06  1.05000000e+01  1.16000000e-06  1.04995608e+01  1.16000000e-06  1.39435543e+00  1.16000000e-06  1.04999700e+01 
 1.17000000e-06  1.05000000e+01  1.17000000e-06  1.04995782e+01  1.17000000e-06  1.38844692e+00  1.17000000e-06  1.05000188e+01 
 1.18000000e-06  1.05000000e+01  1.18000000e-06  1.04995946e+01  1.18000000e-06  1.38281389e+00  1.18000000e-06  1.04999738e+01 
 1.19000000e-06  1.05000000e+01  1.19000000e-06  1.04996101e+01  1.19000000e-06  1.37744274e+00  1.19000000e-06  1.05000160e+01 
 1.20000000e-06  1.05000000e+01  1.20000000e-06  1.04996248e+01  1.20000000e-06  1.37232005e+00  1.20000000e-06  1.04999770e+01 
 1.21000000e-06  1.05000000e+01  1.21000000e-06  1.04996387e+01  1.21000000e-06  1.36743412e+00  1.21000000e-06  1.05000136e+01 
 1.22000000e-06  1.05000000e+01  1.22000000e-06  1.04996519e+01  1.22000000e-06  1.36277313e+00  1.22000000e-06  1.04999799e+01 
 1.23000000e-06  1.05000000e+01  1.23000000e-06  1.04996644e+01  1.23000000e-06  1.35832686e+00  1.23000000e-06  1.05000115e+01 
 1.24000000e-06  1.05000000e+01  1.24000000e-06  1.04996763e+01  1.24000000e-06  1.35408481e+00  1.24000000e-06  1.04999823e+01 
 1.25000000e-06  1.05000000e+01  1.25000000e-06  1.04996875e+01  1.25000000e-06  1.35003791e+00  1.25000000e-06  1.05000097e+01 
 1.26000000e-06  1.05000000e+01  1.26000000e-06  1.04996981e+01  1.26000000e-06  1.34617681e+00  1.26000000e-06  1.04999845e+01 
 1.27000000e-06  1.05000000e+01  1.27000000e-06  1.04997082e+01  1.27000000e-06  1.34249335e+00  1.27000000e-06  1.05000081e+01 
 1.28000000e-06  1.05000000e+01  1.28000000e-06  1.04997178e+01  1.28000000e-06  1.33897914e+00  1.28000000e-06  1.04999864e+01 
 1.29000000e-06  1.05000000e+01  1.29000000e-06  1.04997269e+01  1.29000000e-06  1.33562683e+00  1.29000000e-06  1.05000068e+01 
 1.30000000e-06  1.05000000e+01  1.30000000e-06  1.04997355e+01  1.30000000e-06  1.33242884e+00  1.30000000e-06  1.04999880e+01 
 1.31000000e-06  1.05000000e+01  1.31000000e-06  1.04997437e+01  1.31000000e-06  1.32937849e+00  1.31000000e-06  1.05000056e+01 
