 time            v(bvdd)         time            v(pvdd)         time            v(gate)         time            v(ea_en)        time            v(startup_done)
 1.00000000e-10  1.00000000e-04  1.00000000e-10  1.44299451e-03  1.00000000e-10  2.60386513e-04  1.00000000e-10  2.06216123e-03  1.00000000e-10  3.04506184e-05 
 1.02724269e-10  1.02724269e-04  1.02724269e-10  1.47746670e-03  1.02724269e-10  2.57419524e-04  1.02724269e-10  2.11321748e-03  1.02724269e-10  3.12733205e-05 
 1.08172807e-10  1.08172807e-04  1.08172807e-10  1.53824339e-03  1.08172807e-10  2.67337629e-04  1.08172807e-10  2.21677794e-03  1.08172807e-10  3.29207458e-05 
 1.19069884e-10  1.19069884e-04  1.19069884e-10  1.62221146e-03  1.19069884e-10  2.88891256e-04  1.19069884e-10  2.40616630e-03  1.19069884e-10  3.61924517e-05 
 1.40864037e-10  1.40864037e-04  1.40864037e-10  1.70536615e-03  1.40864037e-10  3.06349691e-04  1.40864037e-10  2.74683680e-03  1.40864037e-10  4.26866000e-05 
 1.76807658e-10  1.76807658e-04  1.76807658e-10  1.74218777e-03  1.76807658e-10  3.16673715e-04  1.76807658e-10  3.26297072e-03  1.76807658e-10  5.33358000e-05 
 2.32545648e-10  2.32545648e-04  2.32545648e-10  1.74628062e-03  2.32545648e-10  3.17723689e-04  2.32545648e-10  4.03937544e-03  2.32545648e-10  6.98128586e-05 
 3.11876721e-10  3.11876721e-04  3.11876721e-10  1.74562245e-03  3.11876721e-10  3.24390250e-04  3.11876721e-10  5.14237171e-03  3.11876721e-10  9.32485071e-05 
 4.70538867e-10  4.70538867e-04  4.70538867e-10  1.74577538e-03  4.70538867e-10  3.43381122e-04  4.70538867e-10  7.35493968e-03  4.70538867e-10  1.40085375e-04 
 7.87863160e-10  7.87863160e-04  7.87863160e-10  1.74546370e-03  7.87863160e-10  4.18813528e-04  7.87863160e-10  1.18057811e-02  7.87863160e-10  2.33638124e-04 
 1.42251174e-09  1.42251174e-03  1.42251174e-09  1.74526703e-03  1.42251174e-09  6.59910006e-04  1.42251174e-09  2.07972259e-02  1.42251174e-09  4.20347620e-04 
 2.69180891e-09  2.69180891e-03  2.69180891e-09  1.74463962e-03  2.69180891e-09  1.30978316e-03  2.69180891e-09  3.90312309e-02  2.69180891e-09  7.92493961e-04 
 5.23040326e-09  5.23040326e-03  5.23040326e-09  1.74401631e-03  5.23040326e-09  2.60427913e-03  5.23040326e-09  7.60020844e-02  5.23040326e-09  1.53273434e-03 
 9.32272414e-09  9.32272414e-03  9.32272414e-09  1.74352475e-03  9.32272414e-09  4.01653471e-03  9.32272414e-09  1.35678772e-01  9.32272414e-09  2.71738059e-03 
 1.00000000e-08  1.00000000e-02  1.00000000e-08  1.74364844e-03  1.00000000e-08  4.17070986e-03  1.00000000e-08  1.45467641e-01  1.00000000e-08  2.91263080e-03 
 1.06386698e-08  1.06386698e-02  1.06386698e-08  1.74364124e-03  1.06386698e-08  4.29994143e-03  1.06386698e-08  1.54661296e-01  1.06386698e-08  3.09658437e-03 
 1.19160095e-08  1.19160095e-02  1.19160095e-08  1.74374654e-03  1.19160095e-08  4.53662377e-03  1.19160095e-08  1.72926162e-01  1.19160095e-08  3.46400991e-03 
 1.44706887e-08  1.44706887e-02  1.44706887e-08  1.74409650e-03  1.44706887e-08  4.90597142e-03  1.44706887e-08  2.08860236e-01  1.44706887e-08  4.19726497e-03 
 1.95800473e-08  1.95800473e-02  1.95800473e-08  1.74516930e-03  1.95800473e-08  5.37123767e-03  1.95800473e-08  2.77728439e-01  1.95800473e-08  5.65931098e-03 
 2.95800473e-08  2.95800473e-02  2.95800473e-08  1.74808749e-03  2.95800473e-08  5.80135218e-03  2.95800473e-08  3.99933893e-01  2.95800473e-08  8.51871912e-03 
 3.95800473e-08  3.95800473e-02  3.95800473e-08  1.75122745e-03  3.95800473e-08  6.02260368e-03  3.95800473e-08  5.08662567e-01  3.95800473e-08  1.14071231e-02 
 4.95800473e-08  4.95800473e-02  4.95800473e-08  1.75303103e-03  4.95800473e-08  6.18410015e-03  4.95800473e-08  5.87513201e-01  4.95800473e-08  1.42936963e-02 
 5.95800473e-08  5.95800473e-02  5.95800473e-08  1.75214231e-03  5.95800473e-08  6.29023328e-03  5.95800473e-08  6.14483934e-01  5.95800473e-08  1.70541260e-02 
 6.95800473e-08  6.95800473e-02  6.95800473e-08  1.74974698e-03  6.95800473e-08  6.43051975e-03  6.95800473e-08  6.13487777e-01  6.95800473e-08  1.97240836e-02 
 7.95800473e-08  7.95800473e-02  7.95800473e-08  1.74730541e-03  7.95800473e-08  6.62193530e-03  7.95800473e-08  6.12269663e-01  7.95800473e-08  2.23968686e-02 
 8.95800473e-08  8.95800473e-02  8.95800473e-08  1.74488029e-03  8.95800473e-08  6.81716664e-03  8.95800473e-08  6.11160466e-01  8.95800473e-08  2.50731442e-02 
 9.95800473e-08  9.95800473e-02  9.95800473e-08  1.74248028e-03  9.95800473e-08  7.01334239e-03  9.95800473e-08  6.10509627e-01  9.95800473e-08  2.77531024e-02 
 1.09580047e-07  1.09580047e-01  1.09580047e-07  1.74009308e-03  1.09580047e-07  7.20789412e-03  1.09580047e-07  6.09960354e-01  1.09580047e-07  3.04347766e-02 
 1.19580047e-07  1.19580047e-01  1.19580047e-07  1.73770645e-03  1.19580047e-07  7.40190160e-03  1.19580047e-07  6.09526487e-01  1.19580047e-07  3.31175004e-02 
 1.29580047e-07  1.29580047e-01  1.29580047e-07  1.73532475e-03  1.29580047e-07  7.59504170e-03  1.29580047e-07  6.09176903e-01  1.29580047e-07  3.58005067e-02 
 1.39580047e-07  1.39580047e-01  1.39580047e-07  1.73293554e-03  1.39580047e-07  7.78754411e-03  1.39580047e-07  6.08894252e-01  1.39580047e-07  3.84831230e-02 
 1.49580047e-07  1.49580047e-01  1.49580047e-07  1.73054461e-03  1.49580047e-07  7.97933825e-03  1.49580047e-07  6.08664482e-01  1.49580047e-07  4.11647311e-02 
 1.59580047e-07  1.59580047e-01  1.59580047e-07  1.72814073e-03  1.59580047e-07  8.17051541e-03  1.59580047e-07  6.08477010e-01  1.59580047e-07  4.38447574e-02 
 1.69580047e-07  1.69580047e-01  1.69580047e-07  1.72573044e-03  1.69580047e-07  8.36106835e-03  1.69580047e-07  6.08323656e-01  1.69580047e-07  4.65226642e-02 
 1.79580047e-07  1.79580047e-01  1.79580047e-07  1.72330341e-03  1.79580047e-07  8.55104672e-03  1.79580047e-07  6.08198057e-01  1.79580047e-07  4.91979386e-02 
 1.89580047e-07  1.89580047e-01  1.89580047e-07  1.72086666e-03  1.89580047e-07  8.74046202e-03  1.89580047e-07  6.08095246e-01  1.89580047e-07  5.18700864e-02 
 1.99580047e-07  1.99580047e-01  1.99580047e-07  1.71841056e-03  1.99580047e-07  8.92935056e-03  1.99580047e-07  6.08011289e-01  1.99580047e-07  5.45386238e-02 
 2.09580047e-07  2.09580047e-01  2.09580047e-07  1.71594245e-03  2.09580047e-07  9.11772951e-03  2.09580047e-07  6.07943069e-01  2.09580047e-07  5.72030737e-02 
 2.19580047e-07  2.19580047e-01  2.19580047e-07  1.71345326e-03  2.19580047e-07  9.30563100e-03  2.19580047e-07  6.07888071e-01  2.19580047e-07  5.98629587e-02 
 2.29580047e-07  2.29580047e-01  2.29580047e-07  1.71095052e-03  2.29580047e-07  9.49307416e-03  2.29580047e-07  6.07844275e-01  2.29580047e-07  6.25177993e-02 
 2.39580047e-07  2.39580047e-01  2.39580047e-07  1.70842561e-03  2.39580047e-07  9.68009015e-03  2.39580047e-07  6.07810017e-01  2.39580047e-07  6.51671077e-02 
 2.49580047e-07  2.49580047e-01  2.49580047e-07  1.70588621e-03  2.49580047e-07  9.86669910e-03  2.49580047e-07  6.07783943e-01  2.49580047e-07  6.78103872e-02 
 2.59580047e-07  2.59580047e-01  2.59580047e-07  1.70332404e-03  2.59580047e-07  1.00529324e-02  2.59580047e-07  6.07764915e-01  2.59580047e-07  7.04471273e-02 
 2.69580047e-07  2.69580047e-01  2.69580047e-07  1.70074687e-03  2.69580047e-07  1.02388112e-02  2.69580047e-07  6.07751994e-01  2.69580047e-07  7.30768032e-02 
 2.79580047e-07  2.79580047e-01  2.79580047e-07  1.69814676e-03  2.79580047e-07  1.04243678e-02  2.79580047e-07  6.07744375e-01  2.79580047e-07  7.56988715e-02 
 2.89580047e-07  2.89580047e-01  2.89580047e-07  1.69553149e-03  2.89580047e-07  1.06096242e-02  2.89580047e-07  6.07741389e-01  2.89580047e-07  7.83127705e-02 
 2.99580047e-07  2.99580047e-01  2.99580047e-07  1.69289340e-03  2.99580047e-07  1.07946141e-02  2.99580047e-07  6.07742451e-01  2.99580047e-07  8.09179163e-02 
 3.09580047e-07  3.09580047e-01  3.09580047e-07  1.69024029e-03  3.09580047e-07  1.09793609e-02  3.09580047e-07  6.07747070e-01  3.09580047e-07  8.35137033e-02 
 3.19580047e-07  3.19580047e-01  3.19580047e-07  1.68756477e-03  3.19580047e-07  1.11638996e-02  3.19580047e-07  6.07754809e-01  3.19580047e-07  8.60995010e-02 
 3.29580047e-07  3.29580047e-01  3.29580047e-07  1.68487464e-03  3.29580047e-07  1.13482552e-02  3.29580047e-07  6.07765302e-01  3.29580047e-07  8.86746549e-02 
 3.39580047e-07  3.39580047e-01  3.39580047e-07  1.68216273e-03  3.39580047e-07  1.15324646e-02  3.39580047e-07  6.07778217e-01  3.39580047e-07  9.12384834e-02 
 3.49580047e-07  3.49580047e-01  3.49580047e-07  1.67943686e-03  3.49580047e-07  1.17165547e-02  3.49580047e-07  6.07793273e-01  3.49580047e-07  9.37902799e-02 
 3.59580047e-07  3.59580047e-01  3.59580047e-07  1.67669011e-03  3.59580047e-07  1.19005641e-02  3.59580047e-07  6.07810215e-01  3.59580047e-07  9.63293101e-02 
 3.69580047e-07  3.69580047e-01  3.69580047e-07  1.67393029e-03  3.69580047e-07  1.20845220e-02  3.69580047e-07  6.07828827e-01  3.69580047e-07  9.88548147e-02 
 3.79580047e-07  3.79580047e-01  3.79580047e-07  1.67115077e-03  3.79580047e-07  1.22684693e-02  3.79580047e-07  6.07848908e-01  3.79580047e-07  1.01366008e-01 
 3.89580047e-07  3.89580047e-01  3.89580047e-07  1.66835939e-03  3.89580047e-07  1.24524374e-02  3.89580047e-07  6.07870290e-01  3.89580047e-07  1.03862081e-01 
 3.99580047e-07  3.99580047e-01  3.99580047e-07  1.66554982e-03  3.99580047e-07  1.26364699e-02  3.99580047e-07  6.07892815e-01  3.99580047e-07  1.06342204e-01 
 4.09580047e-07  4.09580047e-01  4.09580047e-07  1.66273000e-03  4.09580047e-07  1.28206010e-02  4.09580047e-07  6.07916351e-01  4.09580047e-07  1.08805528e-01 
 4.19580047e-07  4.19580047e-01  4.19580047e-07  1.65989397e-03  4.19580047e-07  1.30048769e-02  4.19580047e-07  6.07940772e-01  4.19580047e-07  1.11251192e-01 
 4.29580047e-07  4.29580047e-01  4.29580047e-07  1.65704986e-03  4.29580047e-07  1.31893348e-02  4.29580047e-07  6.07965974e-01  4.29580047e-07  1.13678327e-01 
 4.39580047e-07  4.39580047e-01  4.39580047e-07  1.65419219e-03  4.39580047e-07  1.33740242e-02  4.39580047e-07  6.07991854e-01  4.39580047e-07  1.16086068e-01 
 4.49580047e-07  4.49580047e-01  4.49580047e-07  1.65132942e-03  4.49580047e-07  1.35589856e-02  4.49580047e-07  6.08018331e-01  4.49580047e-07  1.18473559e-01 
 4.59580047e-07  4.59580047e-01  4.59580047e-07  1.64845673e-03  4.59580047e-07  1.37442721e-02  4.59580047e-07  6.08045320e-01  4.59580047e-07  1.20839975e-01 
 4.69580047e-07  4.69580047e-01  4.69580047e-07  1.64558314e-03  4.69580047e-07  1.39299278e-02  4.69580047e-07  6.08072755e-01  4.69580047e-07  1.23184534e-01 
 4.79580047e-07  4.79580047e-01  4.79580047e-07  1.64270477e-03  4.79580047e-07  1.41160100e-02  4.79580047e-07  6.08100564e-01  4.79580047e-07  1.25506523e-01 
 4.89580047e-07  4.89580047e-01  4.89580047e-07  1.63983157e-03  4.89580047e-07  1.43025669e-02  4.89580047e-07  6.08128689e-01  4.89580047e-07  1.27805326e-01 
 4.99580047e-07  4.99580047e-01  4.99580047e-07  1.63696102e-03  4.99580047e-07  1.44896603e-02  4.99580047e-07  6.08157065e-01  4.99580047e-07  1.30080463e-01 
 5.09580047e-07  5.09580047e-01  5.09580047e-07  1.63410455e-03  5.09580047e-07  1.46773434e-02  5.09580047e-07  6.08185635e-01  5.09580047e-07  1.32331639e-01 
 5.19580047e-07  5.19580047e-01  5.19580047e-07  1.63126171e-03  5.19580047e-07  1.48656833e-02  5.19580047e-07  6.08214326e-01  5.19580047e-07  1.34558796e-01 
 5.29580047e-07  5.29580047e-01  5.29580047e-07  1.62844623e-03  5.29580047e-07  1.50547388e-02  5.29580047e-07  6.08243064e-01  5.29580047e-07  1.36762198e-01 
 5.39580047e-07  5.39580047e-01  5.39580047e-07  1.62566081e-03  5.39580047e-07  1.52445834e-02  5.39580047e-07  6.08271741e-01  5.39580047e-07  1.38942521e-01 
 5.49580047e-07  5.49580047e-01  5.49580047e-07  1.62292280e-03  5.49580047e-07  1.54352828e-02  5.49580047e-07  6.08300212e-01  5.49580047e-07  1.41100978e-01 
 5.59580047e-07  5.59580047e-01  5.59580047e-07  1.62023966e-03  5.59580047e-07  1.56269181e-02  5.59580047e-07  6.08328233e-01  5.59580047e-07  1.43239483e-01 
 5.69580047e-07  5.69580047e-01  5.69580047e-07  1.61763439e-03  5.69580047e-07  1.58195632e-02  5.69580047e-07  6.08355389e-01  5.69580047e-07  1.45360862e-01 
 5.79580047e-07  5.79580047e-01  5.79580047e-07  1.61512170e-03  5.79580047e-07  1.60133086e-02  5.79580047e-07  6.08380865e-01  5.79580047e-07  1.47469166e-01 
 5.89580047e-07  5.89580047e-01  5.89580047e-07  1.61273332e-03  5.89580047e-07  1.62082382e-02  5.89580047e-07  6.08403000e-01  5.89580047e-07  1.49570117e-01 
 5.99580047e-07  5.99580047e-01  5.99580047e-07  1.61049495e-03  5.99580047e-07  1.64044522e-02  5.99580047e-07  6.08418331e-01  5.99580047e-07  1.51671804e-01 
 6.09580047e-07  6.09580047e-01  6.09580047e-07  1.60845255e-03  6.09580047e-07  1.66020828e-02  6.09580047e-07  6.08438304e-01  6.09580047e-07  1.53782345e-01 
 6.19580047e-07  6.19580047e-01  6.19580047e-07  1.60665412e-03  6.19580047e-07  1.68014361e-02  6.19580047e-07  6.08559989e-01  6.19580047e-07  1.55892798e-01 
 6.29580047e-07  6.29580047e-01  6.29580047e-07  1.60515576e-03  6.29580047e-07  1.70020364e-02  6.29580047e-07  6.08587986e-01  6.29580047e-07  1.58039290e-01 
 6.39580047e-07  6.39580047e-01  6.39580047e-07  1.60403156e-03  6.39580047e-07  1.72046310e-02  6.39580047e-07  6.08628390e-01  6.39580047e-07  1.60237895e-01 
 6.49580047e-07  6.49580047e-01  6.49580047e-07  1.60337885e-03  6.49580047e-07  1.74091262e-02  6.49580047e-07  6.08666000e-01  6.49580047e-07  1.62510114e-01 
 6.59580047e-07  6.59580047e-01  6.59580047e-07  1.60330595e-03  6.59580047e-07  1.76157646e-02  6.59580047e-07  6.08703992e-01  6.59580047e-07  1.64883964e-01 
 6.69580047e-07  6.69580047e-01  6.69580047e-07  1.60395911e-03  6.69580047e-07  1.78247185e-02  6.69580047e-07  6.08742281e-01  6.69580047e-07  1.67395024e-01 
 6.79580047e-07  6.79580047e-01  6.79580047e-07  1.60550606e-03  6.79580047e-07  1.80362411e-02  6.79580047e-07  6.08781526e-01  6.79580047e-07  1.70087967e-01 
 6.89580047e-07  6.89580047e-01  6.89580047e-07  1.60816588e-03  6.89580047e-07  1.82505876e-02  6.89580047e-07  6.08822136e-01  6.89580047e-07  1.73018538e-01 
 6.99580047e-07  6.99580047e-01  6.99580047e-07  1.61219571e-03  6.99580047e-07  1.84680821e-02  6.99580047e-07  6.08864811e-01  6.99580047e-07  1.76255992e-01 
 7.09580047e-07  7.09580047e-01  7.09580047e-07  1.61792373e-03  7.09580047e-07  1.86890817e-02  7.09580047e-07  6.08910132e-01  7.09580047e-07  1.79886090e-01 
 7.19580047e-07  7.19580047e-01  7.19580047e-07  1.62574044e-03  7.19580047e-07  1.89140253e-02  7.19580047e-07  6.08959027e-01  7.19580047e-07  1.84014719e-01 
 7.29580047e-07  7.29580047e-01  7.29580047e-07  1.63613619e-03  7.29580047e-07  1.91434145e-02  7.29580047e-07  6.09012372e-01  7.29580047e-07  1.88772278e-01 
 7.39580047e-07  7.39580047e-01  7.39580047e-07  1.64969877e-03  7.39580047e-07  1.93778599e-02  7.39580047e-07  6.09071472e-01  7.39580047e-07  1.94318917e-01 
 7.49580047e-07  7.49580047e-01  7.49580047e-07  1.66715757e-03  7.49580047e-07  1.96180736e-02  7.49580047e-07  6.09137673e-01  7.49580047e-07  2.00850825e-01 
 7.59580047e-07  7.59580047e-01  7.59580047e-07  1.68938966e-03  7.59580047e-07  1.98649190e-02  7.59580047e-07  6.09212856e-01  7.59580047e-07  2.08607675e-01 
 7.69580047e-07  7.69580047e-01  7.69580047e-07  1.71747337e-03  7.69580047e-07  2.01194141e-02  7.69580047e-07  6.09299074e-01  7.69580047e-07  2.17881424e-01 
 7.79580047e-07  7.79580047e-01  7.79580047e-07  1.75270602e-03  7.79580047e-07  2.03827901e-02  7.79580047e-07  6.09399062e-01  7.79580047e-07  2.29026599e-01 
 7.89580047e-07  7.89580047e-01  7.89580047e-07  1.79667033e-03  7.89580047e-07  2.06565069e-02  7.89580047e-07  6.09515911e-01  7.89580047e-07  2.42472220e-01 
 7.99580047e-07  7.99580047e-01  7.99580047e-07  1.85126787e-03  7.99580047e-07  2.09423254e-02  7.99580047e-07  6.09653609e-01  7.99580047e-07  2.58735386e-01 
 8.09580047e-07  8.09580047e-01  8.09580047e-07  1.91880283e-03  8.09580047e-07  2.12423387e-02  8.09580047e-07  6.09816753e-01  8.09580047e-07  2.78436491e-01 
 8.19580047e-07  8.19580047e-01  8.19580047e-07  2.00203613e-03  8.19580047e-07  2.15590618e-02  8.19580047e-07  6.10011140e-01  8.19580047e-07  3.02315703e-01 
 8.29580047e-07  8.29580047e-01  8.29580047e-07  2.10429190e-03  8.29580047e-07  2.18954848e-02  8.29580047e-07  6.10243535e-01  8.29580047e-07  3.31249982e-01 
 8.39580047e-07  8.39580047e-01  8.39580047e-07  2.22953766e-03  8.39580047e-07  2.22551845e-02  8.39580047e-07  6.10522328e-01  8.39580047e-07  3.66269012e-01 
 8.49580047e-07  8.49580047e-01  8.49580047e-07  2.38251872e-03  8.49580047e-07  2.26424038e-02  8.49580047e-07  6.10857374e-01  8.49580047e-07  4.08566988e-01 
 8.59580047e-07  8.59580047e-01  8.59580047e-07  2.56886869e-03  8.59580047e-07  2.30621908e-02  8.59580047e-07  6.11260743e-01  8.59580047e-07  4.59503928e-01 
 8.69580047e-07  8.69580047e-01  8.69580047e-07  2.79527398e-03  8.69580047e-07  2.35205062e-02  8.69580047e-07  6.11746660e-01  8.69580047e-07  5.20582366e-01 
 8.79580047e-07  8.79580047e-01  8.79580047e-07  3.06961338e-03  8.79580047e-07  2.40243910e-02  8.79580047e-07  6.12332375e-01  8.79580047e-07  5.93359098e-01 
 8.89580047e-07  8.89580047e-01  8.89580047e-07  3.40114584e-03  8.89580047e-07  2.45820973e-02  8.89580047e-07  6.13038238e-01  8.89580047e-07  6.79120827e-01 
 8.99580047e-07  8.99580047e-01  8.99580047e-07  3.80066425e-03  8.99580047e-07  2.52032734e-02  8.99580047e-07  6.13888732e-01  8.99580047e-07  7.76935102e-01 
 9.09580047e-07  9.09580047e-01  9.09580047e-07  4.28068113e-03  9.09580047e-07  2.58991012e-02  9.09580047e-07  6.14912781e-01  9.09580047e-07  8.64552348e-01 
 9.19580047e-07  9.19580047e-01  9.19580047e-07  4.85555705e-03  9.19580047e-07  2.66824644e-02  9.19580047e-07  6.16145669e-01  9.19580047e-07  9.07728696e-01 
 9.29580047e-07  9.29580047e-01  9.29580047e-07  5.54162894e-03  9.29580047e-07  2.75680496e-02  9.29580047e-07  6.17632384e-01  9.29580047e-07  9.26298533e-01 
 9.39580047e-07  9.39580047e-01  9.39580047e-07  6.35724235e-03  9.39580047e-07  2.85724352e-02  9.39580047e-07  6.19427774e-01  9.39580047e-07  9.37215903e-01 
 9.49580047e-07  9.49580047e-01  9.49580047e-07  7.32273926e-03  9.49580047e-07  2.97140747e-02  9.49580047e-07  6.21593374e-01  9.49580047e-07  9.47554138e-01 
 9.59580047e-07  9.59580047e-01  9.59580047e-07  8.46030274e-03  9.59580047e-07  3.10132488e-02  9.59580047e-07  6.24203262e-01  9.59580047e-07  9.57949038e-01 
 9.69580047e-07  9.69580047e-01  9.69580047e-07  9.79370852e-03  9.69580047e-07  3.24918341e-02  9.69580047e-07  6.27345818e-01  9.69580047e-07  9.68154273e-01 
 9.79580047e-07  9.79580047e-01  9.79580047e-07  1.13479042e-02  9.79580047e-07  3.41730122e-02  9.79580047e-07  6.31125203e-01  9.79580047e-07  9.78350781e-01 
 9.89580047e-07  9.89580047e-01  9.89580047e-07  1.31484825e-02  9.89580047e-07  3.60807997e-02  9.89580047e-07  6.35664055e-01  9.89580047e-07  9.88507384e-01 
 9.99580047e-07  9.99580047e-01  9.99580047e-07  1.52209941e-02  9.99580047e-07  3.82394937e-02  9.99580047e-07  6.41105961e-01  9.99580047e-07  9.98641500e-01 
 1.00958005e-06  1.00958005e+00  1.00958005e-06  1.75901980e-02  1.00958005e-06  4.06729710e-02  1.00958005e-06  6.47616788e-01  1.00958005e-06  1.00875344e+00 
 1.01958005e-06  1.01958005e+00  1.01958005e-06  2.02792284e-02  1.01958005e-06  4.34039627e-02  1.01958005e-06  6.55385321e-01  1.01958005e-06  1.01884870e+00 
 1.02958005e-06  1.02958005e+00  1.02958005e-06  2.33088006e-02  1.02958005e-06  4.64532585e-02  1.02958005e-06  6.64619111e-01  1.02958005e-06  1.02892940e+00 
 1.03958005e-06  1.03958005e+00  1.03958005e-06  2.66964498e-02  1.03958005e-06  4.98389811e-02  1.03958005e-06  6.75531915e-01  1.03958005e-06  1.03899838e+00 
 1.04958005e-06  1.04958005e+00  1.04958005e-06  3.04559288e-02  1.04958005e-06  5.35758812e-02  1.04958005e-06  6.88308860e-01  1.04958005e-06  1.04905736e+00 
 1.05958005e-06  1.05958005e+00  1.05958005e-06  3.45967448e-02  1.05958005e-06  5.76747610e-02  1.05958005e-06  7.03023425e-01  1.05958005e-06  1.05910808e+00 
