 time            v(bvdd)         time            v(pvdd)         time            v(gate)         time            v(ea_out)       time            v(startup_done) time            v(ea_en)       
 1.00000000e-09  1.00000000e-03  1.00000000e-09  1.82232935e-04  1.00000000e-09  7.85178919e-04  1.00000000e-09 -2.30937405e-03  1.00000000e-09  6.73689710e-04  1.00000000e-09  7.11604341e-06 
 1.02794806e-09  1.02794806e-03  1.02794806e-09  1.84422360e-04  1.02794806e-09  8.06438274e-04  1.02794806e-09 -2.35561500e-03  1.02794806e-09  6.92570202e-04  1.02794806e-09  7.31640042e-06 
 1.08384417e-09  1.08384417e-03  1.08384417e-09  1.86321864e-04  1.08384417e-09  8.48410538e-04  1.08384417e-09 -2.41131255e-03  1.08384417e-09  7.30361957e-04  1.08384417e-09  7.71853091e-06 
 1.19563641e-09  1.19563641e-03  1.19563641e-09  1.85994530e-04  1.19563641e-09  9.31472647e-04  1.19563641e-09 -2.46955848e-03  1.19563641e-09  8.06005965e-04  1.19563641e-09  8.52511614e-06 
 1.41922087e-09  1.41922087e-03  1.41922087e-09  1.86133588e-04  1.41922087e-09  1.09800710e-03  1.41922087e-09 -2.43312459e-03  1.41922087e-09  9.57564898e-04  1.41922087e-09  1.01490784e-05 
 1.72904793e-09  1.72904793e-03  1.72904793e-09  1.85986210e-04  1.72904793e-09  1.32910223e-03  1.72904793e-09 -2.21339311e-03  1.72904793e-09  1.16800580e-03  1.72904793e-09  1.24156947e-05 
 2.34870204e-09  2.34870204e-03  2.34870204e-09  1.86017532e-04  2.34870204e-09  1.79250523e-03  2.34870204e-09 -1.67678108e-03  2.34870204e-09  1.58987355e-03  2.34870204e-09  1.69840446e-05 
 3.58801025e-09  3.58801025e-03  3.58801025e-09  1.85820136e-04  3.58801025e-09  2.72330741e-03  3.58801025e-09 -8.47315141e-04  3.58801025e-09  2.43676300e-03  3.58801025e-09  2.62185259e-05 
 6.06662669e-09  6.06662669e-03  6.06662669e-09  1.85692504e-04  6.06662669e-09  4.60014886e-03  6.06662669e-09 -1.12604962e-04  6.06662669e-09  4.14195642e-03  6.06662669e-09  4.49786440e-05 
 1.10238596e-08  1.10238596e-02  1.10238596e-08  1.85226707e-04  1.10238596e-08  8.40941243e-03  1.10238596e-08  1.14188884e-04  1.10238596e-08  7.59206601e-03  1.10238596e-08  8.32810626e-05 
 1.81745585e-08  1.81745585e-02  1.81745585e-08  1.84754978e-04  1.81745585e-08  1.40190230e-02  1.81745585e-08  8.41819051e-05  1.81745585e-08  1.26396963e-02  1.81745585e-08  1.39587302e-04 
 3.05757312e-08  3.05757312e-02  3.05757312e-08  1.83742623e-04  3.05757312e-08  2.40191427e-02  3.05757312e-08  9.44970870e-05  3.05757312e-08  2.15185484e-02  3.05757312e-08  2.38692537e-04 
 5.53780766e-08  5.53780766e-02  5.53780766e-08  1.81995396e-04  5.53780766e-08  4.48553397e-02  5.53780766e-08  8.95311647e-05  5.53780766e-08  3.95111416e-02  5.53780766e-08  4.39225441e-04 
 1.00000000e-07  1.00000000e-01  1.00000000e-07  1.78772905e-04  1.00000000e-07  8.44268008e-02  1.00000000e-07  9.68306806e-05  1.00000000e-07  7.22071823e-02  1.00000000e-07  7.98102361e-04 
 1.04960469e-07  1.04960469e-01  1.04960469e-07  1.78469690e-04  1.04960469e-07  8.89761380e-02  1.04960469e-07  9.45861603e-05  1.04960469e-07  7.58575149e-02  1.04960469e-07  8.37298371e-04 
 1.14881407e-07  1.14881407e-01  1.14881407e-07  1.77791347e-04  1.14881407e-07  9.81154408e-02  1.14881407e-07  9.41303361e-05  1.14881407e-07  8.31667425e-02  1.14881407e-07  9.15081904e-04 
 1.34723284e-07  1.34723284e-01  1.34723284e-07  1.76446418e-04  1.34723284e-07  1.16613510e-01  1.34723284e-07  9.44524749e-05  1.34723284e-07  9.78169272e-02  1.34723284e-07  1.06620809e-03 
 1.74407036e-07  1.74407036e-01  1.74407036e-07  1.73795963e-04  1.74407036e-07  1.54303214e-01  1.74407036e-07  9.38412455e-05  1.74407036e-07  1.27245772e-01  1.74407036e-07  1.34614963e-03 
 2.53774541e-07  2.53774541e-01  2.53774541e-07  1.68581960e-04  2.53774541e-07  2.31456871e-01  2.53774541e-07  9.22377649e-05  2.53774541e-07  1.86674471e-01  2.53774541e-07  1.80718905e-03 
 3.53774541e-07  3.53774541e-01  3.53774541e-07  1.62080270e-04  3.53774541e-07  3.30436217e-01  3.53774541e-07  8.89619679e-05  3.53774541e-07  2.62845395e-01  3.53774541e-07  2.21769170e-03 
 4.53774541e-07  4.53774541e-01  4.53774541e-07  1.55582921e-04  4.53774541e-07  4.30175591e-01  4.53774541e-07  8.62353097e-05  4.53774541e-07  3.40436364e-01  4.53774541e-07  2.48310751e-03 
 5.53774541e-07  5.53774541e-01  5.53774541e-07  1.49065584e-04  5.53774541e-07  5.30148377e-01  5.53774541e-07  8.38676333e-05  5.53774541e-07  4.17815888e-01  5.53774541e-07  2.65099364e-03 
 6.53774541e-07  6.53774541e-01  6.53774541e-07  1.42522164e-04  6.53774541e-07  6.30189911e-01  6.53774541e-07  8.31875140e-05  6.53774541e-07  4.88582459e-01  6.53774541e-07  2.75613035e-03 
 7.53774541e-07  7.53774541e-01  7.53774541e-07  1.35955001e-04  7.53774541e-07  7.30250892e-01  7.53774541e-07  8.41294471e-05  7.53774541e-07  5.35916963e-01  7.53774541e-07  2.82164623e-03 
 8.53774541e-07  8.53774541e-01  8.53774541e-07  1.29365320e-04  8.53774541e-07  8.30317534e-01  8.53774541e-07  8.82449228e-05  8.53774541e-07  5.29357706e-01  8.53774541e-07  2.86235543e-03 
 9.53774541e-07  9.53774541e-01  9.53774541e-07  1.22755691e-04  9.53774541e-07  9.30383788e-01  9.53774541e-07  9.54274591e-05  9.53774541e-07  4.44559880e-01  9.53774541e-07  2.88761162e-03 
 1.05377454e-06  1.05377454e+00  1.05377454e-06  1.16119047e-04  1.05377454e-06  1.03044228e+00  1.05377454e-06  1.06302975e-04  1.05377454e-06  2.99749461e-01  1.05377454e-06  2.90327290e-03 
 1.15377454e-06  1.15377454e+00  1.15377454e-06  1.09429297e-04  1.15377454e-06  1.13056127e+00  1.15377454e-06  1.18337220e-04  1.15377454e-06  1.26442012e-01  1.15377454e-06  2.91298619e-03 
 1.25377454e-06  1.25377454e+00  1.25377454e-06  1.02869554e-04  1.25377454e-06  1.23717364e+00  1.25377454e-06  1.46006783e-04  1.25377454e-06  5.01515080e-04  1.25377454e-06  2.91896285e-03 
 1.32969632e-06  1.32969632e+00  1.32969632e-06  9.77643171e-05  1.32969632e-06  1.31013423e+00  1.32969632e-06  1.90304537e-04  1.32969632e-06 -3.42506845e-04  1.32969632e-06  2.92184649e-03 
 1.41061287e-06  1.41061287e+00  1.41061287e-06  9.23890169e-05  1.41061287e-06  1.38849991e+00  1.41061287e-06  2.88578843e-04  1.41061287e-06  3.57565015e-04  1.41061287e-06  2.92393733e-03 
 1.51061287e-06  1.51061287e+00  1.51061287e-06  8.60358863e-05  1.51061287e-06  1.48565051e+00  1.51061287e-06  6.97135473e-04  1.51061287e-06 -2.49988717e-04  1.51061287e-06  2.92560476e-03 
 1.61061287e-06  1.61061287e+00  1.61061287e-06  8.05822650e-05  1.61061287e-06  1.57667925e+00  1.61061287e-06  2.02447343e-03  1.61061287e-06  2.66399727e-04  1.61061287e-06  2.92662806e-03 
 1.71061287e-06  1.71061287e+00  1.71061287e-06  7.74257505e-05  1.71061287e-06  1.65509655e+00  1.71061287e-06  5.23285541e-03  1.71061287e-06 -1.94301403e-04  1.71061287e-06  2.92730177e-03 
 1.81061287e-06  1.81061287e+00  1.81061287e-06  7.84469292e-05  1.81061287e-06  1.71368873e+00  1.81061287e-06  1.10839588e-02  1.81061287e-06  2.14036159e-04  1.81061287e-06  2.92781261e-03 
 1.91061287e-06  1.91061287e+00  1.91061287e-06  8.55659032e-05  1.91061287e-06  1.75168534e+00  1.91061287e-06  2.00666354e-02  1.91061287e-06 -1.59935765e-04  1.91061287e-06  2.92828217e-03 
 2.01061287e-06  2.01061287e+00  2.01061287e-06  1.00360738e-04  2.01061287e-06  1.77072602e+00  2.01061287e-06  3.24774400e-02  2.01061287e-06  1.80117960e-04  2.01061287e-06  2.92878317e-03 
 2.11061287e-06  2.11061287e+00  2.11061287e-06  1.24055282e-04  2.11061287e-06  1.77564303e+00  2.11061287e-06  4.84988578e-02  2.11061287e-06 -1.36687655e-04  2.11061287e-06  2.92936256e-03 
 2.21061287e-06  2.21061287e+00  2.21061287e-06  1.57501927e-04  2.21061287e-06  1.77053817e+00  2.21061287e-06  6.81974035e-02  2.21061287e-06  1.56411737e-04  2.21061287e-06  2.93004687e-03 
 2.31061287e-06  2.31061287e+00  2.31061287e-06  2.01690846e-04  2.31061287e-06  1.76055858e+00  2.31061287e-06  9.15646632e-02  2.31061287e-06 -1.19955516e-04  2.31061287e-06  2.93085362e-03 
 2.41061287e-06  2.41061287e+00  2.41061287e-06  2.62643089e-04  2.41061287e-06  1.74933990e+00  2.41061287e-06  1.18517135e-01  2.41061287e-06  1.38946238e-04  2.41061287e-06  2.93179346e-03 
 2.51061287e-06  2.51061287e+00  2.51061287e-06  3.97195392e-04  2.51061287e-06  1.74090015e+00  2.51061287e-06  1.48970984e-01  2.51061287e-06 -1.07363722e-04  2.51061287e-06  2.93288853e-03 
 2.61061287e-06  2.61061287e+00  2.61061287e-06  1.01541831e-03  2.61061287e-06  1.73737529e+00  2.61061287e-06  1.83072344e-01  2.61061287e-06  1.25571080e-04  2.61061287e-06  2.93424988e-03 
 2.71061287e-06  2.71061287e+00  2.71061287e-06  4.02513253e-03  2.71061287e-06  1.74268091e+00  2.71061287e-06  2.22096294e-01  2.71061287e-06 -9.75637919e-05  2.71061287e-06  2.93637464e-03 
 2.81061287e-06  2.81061287e+00  2.81061287e-06  1.38738308e-02  2.81061287e-06  1.76294548e+00  2.81061287e-06  2.69098575e-01  2.81061287e-06  1.15020952e-04  2.81061287e-06  2.94040504e-03 
 2.91061287e-06  2.91061287e+00  2.91061287e-06  3.43569448e-02  2.91061287e-06  1.80861885e+00  2.91061287e-06  3.26141078e-01  2.91061287e-06 -8.97341956e-05  2.91061287e-06  2.94729153e-03 
 3.01061287e-06  3.01061287e+00  3.01061287e-06  6.42782511e-02  3.01061287e-06  1.88183903e+00  3.01061287e-06  3.91680563e-01  3.01061287e-06  1.06503015e-04  3.01061287e-06  2.95674342e-03 
 3.11061287e-06  3.11061287e+00  3.11061287e-06  9.89186828e-02  3.11061287e-06  1.97584895e+00  3.11061287e-06  4.60487700e-01  3.11061287e-06 -8.33462242e-05  3.11061287e-06  2.96762855e-03 
 3.21061287e-06  3.21061287e+00  3.21061287e-06  1.34340108e-01  3.21061287e-06  2.07895976e+00  3.21061287e-06  5.29698261e-01  3.21061287e-06  9.92491200e-05  3.21061287e-06  2.97922173e-03 
 3.31061287e-06  3.31061287e+00  3.31061287e-06  1.68992496e-01  3.31061287e-06  2.18410300e+00  3.31061287e-06  5.97185101e-01  3.31061287e-06 -7.82992024e-05  3.31061287e-06  2.99136738e-03 
 3.41061287e-06  3.41061287e+00  3.41061287e-06  2.03082454e-01  3.41061287e-06  2.28592354e+00  3.41061287e-06  6.62845746e-01  3.41061287e-06  9.34498705e-05  3.41061287e-06  3.00434991e-03 
 3.51061287e-06  3.51061287e+00  3.51061287e-06  2.38055711e-01  3.51061287e-06  2.38060737e+00  3.51061287e-06  7.25244831e-01  3.51061287e-06 -7.37834144e-05  3.51061287e-06  3.01833086e-03 
 3.61061287e-06  3.61061287e+00  3.61061287e-06  2.77003824e-01  3.61061287e-06  2.46182773e+00  3.61061287e-06  7.82027353e-01  3.61061287e-06  8.86850590e-05  3.61061287e-06  3.03315096e-03 
 3.71061287e-06  3.71061287e+00  3.71061287e-06  3.25644710e-01  3.71061287e-06  2.52299761e+00  3.71061287e-06  8.31170942e-01  3.71061287e-06 -6.97776742e-05  3.71061287e-06  3.04853667e-03 
 3.81061287e-06  3.81061287e+00  3.81061287e-06  3.93020178e-01  3.81061287e-06  2.56068545e+00  3.81061287e-06  8.73862151e-01  3.81061287e-06  8.44453801e-05  3.81061287e-06  3.06497869e-03 
 3.91061287e-06  3.91061287e+00  3.91061287e-06  4.89141862e-01  3.91061287e-06  2.58480581e+00  3.91061287e-06  9.12322207e-01  3.91061287e-06 -6.65040574e-05  3.91061287e-06  3.08337684e-03 
 4.01061287e-06  4.01061287e+00  4.01061287e-06  6.17969029e-01  4.01061287e-06  2.61813271e+00  4.01061287e-06  9.46495574e-01  4.01061287e-06  8.07840681e-05  4.01061287e-06  3.10371952e-03 
 4.11061287e-06  4.11061287e+00  4.11061287e-06  7.73223018e-01  4.11061287e-06  2.67630862e+00  4.11061287e-06  9.74777485e-01  4.11061287e-06 -6.36612343e-05  4.11061287e-06  3.12505253e-03 
 4.21061287e-06  4.21061287e+00  4.21061287e-06  9.47136298e-01  4.21061287e-06  2.74317017e+00  4.21061287e-06  1.00073395e+00  4.21061287e-06  7.75968739e-05  4.21061287e-06  3.15021407e-03 
 4.31061287e-06  4.31061287e+00  4.31061287e-06  1.13562638e+00  4.31061287e-06  2.81717113e+00  4.31061287e-06  1.02962919e+00  4.31061287e-06 -6.11735510e-05  4.31061287e-06  3.19087534e-03 
 4.41061287e-06  4.41061287e+00  4.41061287e-06  1.33441795e+00  4.41061287e-06  2.89891786e+00  4.41061287e-06  1.09011942e+00  4.41061287e-06  7.48031757e-05  4.41061287e-06  3.25227804e-03 
 4.51061287e-06  4.51061287e+00  4.51061287e-06  1.53874405e+00  4.51061287e-06  2.98861501e+00  4.51061287e-06  1.16850915e+00  4.51061287e-06 -5.89819851e-05  4.51061287e-06  3.32454055e-03 
 4.61061287e-06  4.61061287e+00  4.61061287e-06  1.74691921e+00  4.61061287e-06  3.07477058e+00  4.61061287e-06  1.23677738e+00  4.61061287e-06  7.23396827e-05  4.61061287e-06  3.40127546e-03 
 4.71061287e-06  4.71061287e+00  4.71061287e-06  1.95883593e+00  4.71061287e-06  3.16342029e+00  4.71061287e-06  1.31332419e+00  4.71061287e-06 -5.70397742e-05  4.71061287e-06  3.48153998e-03 
 4.81061287e-06  4.81061287e+00  4.81061287e-06  2.17139291e+00  4.81061287e-06  3.25961193e+00  4.81061287e-06  1.41039324e+00  4.81061287e-06  7.01560746e-05  4.81061287e-06  3.56400606e-03 
 4.91061287e-06  4.91061287e+00  4.91061287e-06  2.38161323e+00  4.91061287e-06  3.35810934e+00  4.91061287e-06  1.50508922e+00  4.91061287e-06 -5.53684637e-05  4.91061287e-06  3.64599489e-03 
 5.01061287e-06  5.01061287e+00  5.01061287e-06  2.58648673e+00  5.01061287e-06  3.46476266e+00  5.01061287e-06  1.60512371e+00  5.01061287e-06  6.82118331e-05  5.01061287e-06  3.72666296e-03 
 5.11061287e-06  5.11061287e+00  5.11061287e-06  2.78225852e+00  5.11061287e-06  3.57720966e+00  5.11061287e-06  1.69773095e+00  5.11061287e-06 -5.38113361e-05  5.11061287e-06  3.80378968e-03 
 5.21061287e-06  5.21061287e+00  5.21061287e-06  2.96358914e+00  5.21061287e-06  3.70526789e+00  5.21061287e-06  1.78944634e+00  5.21061287e-06  6.64743576e-05  5.21061287e-06  3.87576287e-03 
 5.31061287e-06  5.31061287e+00  5.31061287e-06  3.12419151e+00  5.31061287e-06  3.84511678e+00  5.31061287e-06  1.86820782e+00  5.31061287e-06 -5.24111242e-05  5.31061287e-06  3.93946206e-03 
 5.41061287e-06  5.41061287e+00  5.41061287e-06  3.26135275e+00  5.41061287e-06  3.98971818e+00  5.41061287e-06  1.94024825e+00  5.41061287e-06  6.48886101e-05  5.41061287e-06  3.99426445e-03 
 5.51061287e-06  5.51061287e+00  5.51061287e-06  3.37728021e+00  5.51061287e-06  4.12705233e+00  5.51061287e-06  1.99825950e+00  5.51061287e-06 -5.11461658e-05  5.51061287e-06  4.04041744e-03 
 5.61061287e-06  5.61061287e+00  5.61061287e-06  3.47806267e+00  5.61061287e-06  4.25078128e+00  5.61061287e-06  2.05204181e+00  5.61061287e-06  6.35183791e-05  5.61061287e-06  4.08079789e-03 
 5.71061287e-06  5.71061287e+00  5.71061287e-06  3.56972112e+00  5.71061287e-06  4.36437782e+00  5.71061287e-06  2.09752847e+00  5.71061287e-06 -4.99626900e-05  5.71061287e-06  4.11726744e-03 
 5.81061287e-06  5.81061287e+00  5.81061287e-06  3.65562297e+00  5.81061287e-06  4.47408642e+00  5.81061287e-06  2.14289431e+00  5.81061287e-06  6.22610928e-05  5.81061287e-06  4.15165002e-03 
 5.91061287e-06  5.91061287e+00  5.91061287e-06  3.73640209e+00  5.91061287e-06  4.58562522e+00  5.91061287e-06  2.18225359e+00  5.91061287e-06 -4.89178809e-05  5.91061287e-06  4.18372326e-03 
 6.01061287e-06  6.01061287e+00  6.01061287e-06  3.81123674e+00  6.01061287e-06  4.70017395e+00  6.01061287e-06  2.22089238e+00  6.01061287e-06  6.11303716e-05  6.01061287e-06  4.21360367e-03 
 6.11061287e-06  6.11061287e+00  6.11061287e-06  3.87936938e+00  6.11061287e-06  4.81662173e+00  6.11061287e-06  2.25244412e+00  6.11061287e-06 -4.79554987e-05  6.11061287e-06  4.24051357e-03 
 6.21061287e-06  6.21061287e+00  6.21061287e-06  3.94138576e+00  6.21061287e-06  4.92970750e+00  6.21061287e-06  2.28017373e+00  6.21061287e-06  6.01061017e-05  6.21061287e-06  4.26491814e-03 
 6.31061287e-06  6.31061287e+00  6.31061287e-06  4.01116273e+00  6.31061287e-06  4.97951421e+00  6.31061287e-06  2.28749931e+00  6.31061287e-06  6.30790392e+00  6.31061287e-06  4.40854014e-03 
 6.38168713e-06  6.38168713e+00  6.38168713e-06  4.06572524e+00  6.38168713e-06  5.06589826e+00  6.38168713e-06  2.31736746e+00  6.38168713e-06  6.38432318e+00  6.38168713e-06  4.60599415e-03 
 6.44685908e-06  6.44685908e+00  6.44685908e-06  4.11000703e+00  6.44685908e-06  5.15681350e+00  6.44685908e-06  2.33605349e+00  6.44685908e-06  6.44420924e+00  6.44685908e-06  4.78692598e-03 
 6.53103064e-06  6.53103064e+00  6.53103064e-06  4.15696067e+00  6.53103064e-06  5.27543345e+00  6.53103064e-06  2.36186526e+00  6.53103064e-06  6.53362570e+00  6.53103064e-06  5.01874916e-03 
 6.62996493e-06  6.62996493e+00  6.62996493e-06  4.19924792e+00  6.62996493e-06  5.40909334e+00  6.62996493e-06  2.38134911e+00  6.62996493e-06  6.62736010e+00  6.62996493e-06  5.28987180e-03 
 6.70258209e-06  6.70258209e+00  6.70258209e-06  4.22365968e+00  6.70258209e-06  5.49874465e+00  6.70258209e-06  2.39585855e+00  6.70258209e-06  6.70513565e+00  6.70258209e-06  5.48843768e-03 
 6.75537670e-06  6.75537670e+00  6.75537670e-06  4.23917882e+00  6.75537670e-06  5.56022985e+00  6.75537670e-06  2.40224908e+00  6.75537670e-06  6.75280722e+00  6.75537670e-06  5.63337838e-03 
 6.78831138e-06  6.78831138e+00  6.78831138e-06  4.24824087e+00  6.78831138e-06  5.59652900e+00  6.78831138e-06  2.40828920e+00  6.78831138e-06  6.79083189e+00  6.78831138e-06  5.72397670e-03 
 6.82498974e-06  6.82498974e+00  6.82498974e-06  4.25797741e+00  6.82498974e-06  5.63642475e+00  6.82498974e-06  2.41224593e+00  6.82498974e-06  6.82245316e+00  6.82498974e-06  5.82536335e-03 
 6.86159890e-06  6.86159890e+00  6.86159890e-06  4.26744252e+00  6.86159890e-06  5.67476916e+00  6.86159890e-06  2.41797261e+00  6.86159890e-06  6.86408757e+00  6.86159890e-06  5.92688517e-03 
 6.90328636e-06  6.90328636e+00  6.90328636e-06  4.27804323e+00  6.90328636e-06  5.71813328e+00  6.90328636e-06  2.42275292e+00  6.90328636e-06  6.90078116e+00  6.90328636e-06  6.04313803e-03 
 6.96371721e-06  6.96371721e+00  6.96371721e-06  4.29326219e+00  6.96371721e-06  5.77942923e+00  6.96371721e-06  2.43108681e+00  6.96371721e-06  6.96617493e+00  6.96371721e-06  6.21271447e-03 
 7.04667796e-06  7.04667796e+00  7.04667796e-06  4.31409420e+00  7.04667796e-06  5.86342386e+00  7.04667796e-06  2.44126289e+00  7.04667796e-06  7.04420605e+00  7.04667796e-06  6.44787553e-03 
 7.14667796e-06  7.14667796e+00  7.14667796e-06  4.33916372e+00  7.14667796e-06  5.96445106e+00  7.14667796e-06  2.45439977e+00  7.14667796e-06  7.14909966e+00  7.14667796e-06  6.73480060e-03 
 7.24667796e-06  7.24667796e+00  7.24667796e-06  4.36396588e+00  7.24667796e-06  6.06699880e+00  7.24667796e-06  2.46664762e+00  7.24667796e-06  7.24424326e+00  7.24667796e-06  7.02556837e-03 
 7.34667796e-06  7.34667796e+00  7.34667796e-06  4.38815268e+00  7.34667796e-06  6.17013610e+00  7.34667796e-06  2.47920005e+00  7.34667796e-06  7.34906417e+00  7.34667796e-06  7.31991755e-03 
 7.44667796e-06  7.44667796e+00  7.44667796e-06  4.41146163e+00  7.44667796e-06  6.27432559e+00  7.44667796e-06  2.49080729e+00  7.44667796e-06  7.44427794e+00  7.44667796e-06  7.61786445e-03 
 7.54667796e-06  7.54667796e+00  7.54667796e-06  4.43378052e+00  7.54667796e-06  6.37821834e+00  7.54667796e-06  2.50236105e+00  7.54667796e-06  7.54903105e+00  7.54667796e-06  7.91924814e-03 
 7.64667796e-06  7.64667796e+00  7.64667796e-06  4.45513211e+00  7.64667796e-06  6.48236109e+00  7.64667796e-06  2.51313665e+00  7.64667796e-06  7.64431030e+00  7.64667796e-06  8.22419288e-03 
 7.74667796e-06  7.74667796e+00  7.74667796e-06  4.47560984e+00  7.74667796e-06  6.58575700e+00  7.74667796e-06  2.52374812e+00  7.74667796e-06  7.74900010e+00  7.74667796e-06  8.53262185e-03 
 7.84667796e-06  7.84667796e+00  7.84667796e-06  4.49533398e+00  7.84667796e-06  6.68922861e+00  7.84667796e-06  2.53386497e+00  7.84667796e-06  7.84434058e+00  7.84667796e-06  8.84469677e-03 
 7.94667796e-06  7.94667796e+00  7.94667796e-06  4.51441312e+00  7.94667796e-06  6.79200071e+00  7.94667796e-06  2.54377542e+00  7.94667796e-06  7.94897111e+00  7.94667796e-06  9.16034645e-03 
 8.04667796e-06  8.04667796e+00  8.04667796e-06  4.53293872e+00  8.04667796e-06  6.89494760e+00  8.04667796e-06  2.55344351e+00  8.04667796e-06  8.04436893e+00  8.04667796e-06  9.47972236e-03 
