 time            v(bvdd)         time            v(pvdd)         time            v(gate)        
 1.00000000e-09  1.00000000e-03  1.00000000e-09  1.69433069e-03  1.00000000e-09  6.17107957e-04 
 1.02794894e-09  1.02794894e-03  1.02794894e-09  1.71424732e-03  1.02794894e-09  6.28904905e-04 
 1.08384681e-09  1.08384681e-03  1.08384681e-09  1.73098627e-03  1.08384681e-09  6.49784343e-04 
 1.19564255e-09  1.19564255e-03  1.19564255e-09  1.72618714e-03  1.19564255e-09  6.85065512e-04 
 1.41923404e-09  1.41923404e-03  1.41923404e-09  1.72401403e-03  1.41923404e-09  7.69407428e-04 
 1.72917524e-09  1.72917524e-03  1.72917524e-09  1.71782349e-03  1.72917524e-09  9.06618442e-04 
 2.34905763e-09  2.34905763e-03  2.34905763e-09  1.70859854e-03  2.34905763e-09  1.21542727e-03 
 3.58882240e-09  3.58882240e-03  3.58882240e-09  1.68784730e-03  3.58882240e-09  1.90218690e-03 
 6.06835195e-09  6.06835195e-03  6.06835195e-09  1.64958626e-03  6.06835195e-09  3.08666008e-03 
 1.10274110e-08  1.10274110e-02  1.10274110e-08  1.57445064e-03  1.10274110e-08  4.45446481e-03 
 1.94616976e-08  1.94616976e-02  1.94616976e-08  1.45780862e-03  1.94616976e-08  5.30576830e-03 
 2.87993286e-08  2.87993286e-02  2.87993286e-08  1.33848213e-03  2.87993286e-08  5.49379370e-03 
 4.49339421e-08  4.49339421e-02  4.49339421e-08  1.15648347e-03  4.49339421e-08  5.62467976e-03 
 6.11685228e-08  6.11685228e-02  6.11685228e-08  9.93140474e-04  6.11685228e-08  5.65851209e-03 
 7.73757815e-08  7.73757815e-02  7.73757815e-08  8.50829858e-04  7.73757815e-08  5.76679398e-03 
 9.40291981e-08  9.40291981e-02  9.40291981e-08  7.24255377e-04  9.40291981e-08  5.99290653e-03 
 1.00000000e-07  1.00000000e-01  1.00000000e-07  6.84418428e-04  1.00000000e-07  6.06602475e-03 
 1.01828627e-07  1.01828627e-01  1.01828627e-07  6.72218641e-04  1.01828627e-07  6.09063520e-03 
 1.05485881e-07  1.05485881e-01  1.05485881e-07  6.48885446e-04  1.05485881e-07  6.13910985e-03 
 1.12800388e-07  1.12800388e-01  1.12800388e-07  6.04551271e-04  1.12800388e-07  6.23875245e-03 
 1.27429403e-07  1.27429403e-01  1.27429403e-07  5.24342458e-04  1.27429403e-07  6.44588986e-03 
 1.56687433e-07  1.56687433e-01  1.56687433e-07  3.92750388e-04  1.56687433e-07  6.88490183e-03 
 2.15203493e-07  2.15203493e-01  2.15203493e-07  2.13784689e-04  2.15203493e-07  7.83349212e-03 
 2.86700750e-07  2.86700750e-01  2.86700750e-07  9.38016493e-05  2.86700750e-07  9.07550486e-03 
 3.54677558e-07  3.54677558e-01  3.54677558e-07  3.52968258e-05  3.54677558e-07  1.03020746e-02 
 4.10183747e-07  4.10183747e-01  4.10183747e-07  8.90062857e-06  4.10183747e-07  1.13250079e-02 
 4.71808433e-07  4.71808433e-01  4.71808433e-07 -8.30542961e-06  4.71808433e-07  1.24785164e-02 
 5.47659719e-07  5.47659719e-01  5.47659719e-07 -1.91247964e-05  5.47659719e-07  1.39352881e-02 
 6.26306191e-07  6.26306191e-01  6.26306191e-07 -2.01645938e-05  6.26306191e-07  1.55131588e-02 
 7.26306191e-07  7.26306191e-01  7.26306191e-07  2.69745106e-05  7.26306191e-07  1.77023973e-02 
 8.16319778e-07  8.16319778e-01  8.16319778e-07  3.27889761e-04  8.16319778e-07  2.01440493e-02 
 9.16319778e-07  9.16319778e-01  9.16319778e-07  2.49866953e-03  9.16319778e-07  2.49198677e-02 
 1.01631978e-06  1.01631978e+00  1.01631978e-06  1.31078233e-02  1.01631978e-06  3.79517492e-02 
 1.11631978e-06  1.11631978e+00  1.11631978e-06  4.32776519e-02  1.11631978e-06  6.96113056e-02 
 1.21631978e-06  1.21631978e+00  1.21631978e-06  9.47539380e-02  1.21631978e-06  1.22166885e-01 
 1.31631978e-06  1.31631978e+00  1.31631978e-06  1.57987759e-01  1.31631978e-06  1.86645993e-01 
 1.41631978e-06  1.41631978e+00  1.41631978e-06  2.26118581e-01  1.41631978e-06  2.56148350e-01 
 1.51631978e-06  1.51631978e+00  1.51631978e-06  2.97297961e-01  1.51631978e-06  3.28425840e-01 
 1.61631978e-06  1.61631978e+00  1.61631978e-06  3.70649798e-01  1.61631978e-06  4.02860533e-01 
 1.71631978e-06  1.71631978e+00  1.71631978e-06  4.45569665e-01  1.71631978e-06  4.78779712e-01 
 1.81631978e-06  1.81631978e+00  1.81631978e-06  5.21885403e-01  1.81631978e-06  5.55782821e-01 
 1.91631978e-06  1.91631978e+00  1.91631978e-06  5.99603038e-01  1.91631978e-06  6.33563916e-01 
 2.01631978e-06  2.01631978e+00  2.01631978e-06  6.79873186e-01  2.01631978e-06  7.10942622e-01 
 2.11631978e-06  2.11631978e+00  2.11631978e-06  7.67547479e-01  2.11631978e-06  7.84918551e-01 
 2.21631978e-06  2.21631978e+00  2.21631978e-06  8.75489375e-01  2.21631978e-06  8.49045329e-01 
 2.31631978e-06  2.31631978e+00  2.31631978e-06  1.02019316e+00  2.31631978e-06  9.00317635e-01 
 2.41631978e-06  2.41631978e+00  2.41631978e-06  1.20853692e+00  2.41631978e-06  9.41087038e-01 
 2.51631978e-06  2.51631978e+00  2.51631978e-06  1.43653174e+00  2.51631978e-06  9.72721109e-01 
 2.61631978e-06  2.61631978e+00  2.61631978e-06  1.68704032e+00  2.61631978e-06  1.00172176e+00 
 2.69942475e-06  2.69942475e+00  2.69942475e-06  1.94418624e+00  2.69942475e-06  9.77644631e-01 
 2.78579234e-06  2.78579234e+00  2.78579234e-06  2.21040207e+00  2.78579234e-06  9.78260108e-01 
 2.87256205e-06  2.87256205e+00  2.87256205e-06  2.39755635e+00  2.87256205e-06  9.72181012e-01 
 2.95747070e-06  2.95747070e+00  2.95747070e-06  2.53588416e+00  2.95747070e-06  9.62307431e-01 
 3.05747070e-06  3.05747070e+00  3.05747070e-06  2.67494791e+00  3.05747070e-06  9.49403388e-01 
 3.15747070e-06  3.15747070e+00  3.15747070e-06  2.80258151e+00  3.15747070e-06  9.32428843e-01 
 3.25747070e-06  3.25747070e+00  3.25747070e-06  2.92101394e+00  3.25747070e-06  9.26074755e-01 
 3.35747070e-06  3.35747070e+00  3.35747070e-06  3.03527554e+00  3.35747070e-06  9.12571730e-01 
 3.45747070e-06  3.45747070e+00  3.45747070e-06  3.14587937e+00  3.45747070e-06  9.11005637e-01 
 3.55747070e-06  3.55747070e+00  3.55747070e-06  3.25419209e+00  3.55747070e-06  9.01002454e-01 
 3.65747070e-06  3.65747070e+00  3.65747070e-06  3.36089040e+00  3.65747070e-06  9.01650130e-01 
 3.75747070e-06  3.75747070e+00  3.75747070e-06  3.46610161e+00  3.75747070e-06  8.94422104e-01 
 3.85747070e-06  3.85747070e+00  3.85747070e-06  3.56917675e+00  3.85747070e-06  9.09248499e-01 
 3.95747070e-06  3.95747070e+00  3.95747070e-06  3.65318726e+00  3.95747070e-06  1.08162618e+00 
 4.05747070e-06  4.05747070e+00  4.05747070e-06  3.72365828e+00  4.05747070e-06  1.30556286e+00 
 4.15747070e-06  4.15747070e+00  4.15747070e-06  3.79851938e+00  4.15747070e-06  1.47470878e+00 
 4.25747070e-06  4.25747070e+00  4.25747070e-06  3.88385934e+00  4.25747070e-06  1.58316070e+00 
 4.35747070e-06  4.35747070e+00  4.35747070e-06  3.98585582e+00  4.35747070e-06  1.61053096e+00 
 4.45747070e-06  4.45747070e+00  4.45747070e-06  4.10577185e+00  4.45747070e-06  1.54060136e+00 
 4.55747070e-06  4.55747070e+00  4.55747070e-06  4.24366521e+00  4.55747070e-06  1.29069117e+00 
 4.65747070e-06  4.65747070e+00  4.65747070e-06  4.37507409e+00  4.65747070e-06  1.00681958e+00 
 4.73763160e-06  4.73763160e+00  4.73763160e-06  4.46015460e+00  4.73763160e-06  9.64036881e-01 
 4.81372114e-06  4.81372114e+00  4.81372114e-06  4.53711599e+00  4.81372114e-06  9.49897875e-01 
 4.90295058e-06  4.90295058e+00  4.90295058e-06  4.62843700e+00  4.90295058e-06  9.24611374e-01 
 5.00295058e-06  5.00295058e+00  5.00295058e-06  4.72873087e+00  5.00295058e-06  9.19094411e-01 
 5.10295058e-06  5.10295058e+00  5.10295058e-06  4.82929886e+00  5.10295058e-06  9.05141349e-01 
 5.20295058e-06  5.20295058e+00  5.20295058e-06  4.92883337e+00  5.20295058e-06  9.09563060e-01 
 5.30295058e-06  5.30295058e+00  5.30295058e-06  5.02808530e+00  5.30295058e-06  9.13145213e-01 
 5.38674689e-06  5.38674689e+00  5.38674689e-06  5.11109109e+00  5.38674689e-06  9.21620661e-01 
 5.42866667e-06  5.42866667e+00  5.42866667e-06  5.15274958e+00  5.42866667e-06  9.18177059e-01 
 5.45347809e-06  5.45347809e+00  5.45347809e-06  5.17729593e+00  5.45347809e-06  9.24555308e-01 
 5.47826423e-06  5.47826423e+00  5.47826423e-06  5.20175180e+00  5.47826423e-06  9.24247888e-01 
 5.50432439e-06  5.50432439e+00  5.50432439e-06  5.22751009e+00  5.50432439e-06  9.30064472e-01 
 5.53413529e-06  5.53413529e+00  5.53413529e-06  5.25685390e+00  5.53413529e-06  9.33202063e-01 
 5.58083156e-06  5.58083156e+00  5.58083156e-06  5.30293578e+00  5.58083156e-06  9.40580921e-01 
 5.65291068e-06  5.65291068e+00  5.65291068e-06  5.37406627e+00  5.65291068e-06  9.46987593e-01 
 5.75291068e-06  5.75291068e+00  5.75291068e-06  5.47289573e+00  5.75291068e-06  9.54931051e-01 
 5.85291068e-06  5.85291068e+00  5.85291068e-06  5.57163533e+00  5.85291068e-06  9.60962589e-01 
 5.95291068e-06  5.95291068e+00  5.95291068e-06  5.67039495e+00  5.95291068e-06  9.67258602e-01 
 6.05291068e-06  6.05291068e+00  6.05291068e-06  5.76906519e+00  6.05291068e-06  9.72298704e-01 
 6.15291068e-06  6.15291068e+00  6.15291068e-06  5.86773115e+00  6.15291068e-06  9.77814813e-01 
 6.25291068e-06  6.25291068e+00  6.25291068e-06  5.96631415e+00  6.25291068e-06  9.82495327e-01 
 6.35291068e-06  6.35291068e+00  6.35291068e-06  6.06488500e+00  6.35291068e-06  9.87588496e-01 
 6.45291068e-06  6.45291068e+00  6.45291068e-06  6.16337996e+00  6.45291068e-06  9.92192460e-01 
 6.55291068e-06  6.55291068e+00  6.55291068e-06  6.26185985e+00  6.55291068e-06  9.97070620e-01 
 6.65291068e-06  6.65291068e+00  6.65291068e-06  6.36027245e+00  6.65291068e-06  1.00170218e+00 
 6.75291068e-06  6.75291068e+00  6.75291068e-06  6.45866876e+00  6.75291068e-06  1.00646002e+00 
 6.85291068e-06  6.85291068e+00  6.85291068e-06  6.55700622e+00  6.85291068e-06  1.01114950e+00 
 6.95291068e-06  6.95291068e+00  6.95291068e-06  6.65532681e+00  6.95291068e-06  1.01583135e+00 
 7.00000000e-06  7.00000000e+00  7.00000000e-06  6.70160139e+00  7.00000000e-06  1.01810930e+00 
 7.01000000e-06  7.00000000e+00  7.01000000e-06  6.70481596e+00  7.01000000e-06  1.01528914e+00 
 7.03000000e-06  7.00000000e+00  7.03000000e-06  6.70698299e+00  7.03000000e-06  1.01032174e+00 
 7.07000000e-06  7.00000000e+00  7.07000000e-06  6.70643353e+00  7.07000000e-06  9.99992456e-01 
 7.15000000e-06  7.00000000e+00  7.15000000e-06  6.70755539e+00  7.15000000e-06  9.82074019e-01 
 7.25000000e-06  7.00000000e+00  7.25000000e-06  6.70752906e+00  7.25000000e-06  9.67127172e-01 
 7.35000000e-06  7.00000000e+00  7.35000000e-06  6.70819869e+00  7.35000000e-06  9.57640434e-01 
 7.45000000e-06  7.00000000e+00  7.45000000e-06  6.70805455e+00  7.45000000e-06  9.51616841e-01 
 7.55000000e-06  7.00000000e+00  7.55000000e-06  6.70843929e+00  7.55000000e-06  9.47574121e-01 
 7.65000000e-06  7.00000000e+00  7.65000000e-06  6.70829241e+00  7.65000000e-06  9.45098080e-01 
 7.75000000e-06  7.00000000e+00  7.75000000e-06  6.70852583e+00  7.75000000e-06  9.43332298e-01 
 7.85000000e-06  7.00000000e+00  7.85000000e-06  6.70840491e+00  7.85000000e-06  9.42355897e-01 
 7.95000000e-06  7.00000000e+00  7.95000000e-06  6.70855172e+00  7.95000000e-06  9.41572191e-01 
 8.05000000e-06  7.00000000e+00  8.05000000e-06  6.70845989e+00  8.05000000e-06  9.41237125e-01 
 8.15000000e-06  7.00000000e+00  8.15000000e-06  6.70855441e+00  8.15000000e-06  9.40888570e-01 
 8.25000000e-06  7.00000000e+00  8.25000000e-06  6.70848725e+00  8.25000000e-06  9.40831046e-01 
 8.35000000e-06  7.00000000e+00  8.35000000e-06  6.70854883e+00  8.35000000e-06  9.40682229e-01 
 8.45000000e-06  7.00000000e+00  8.45000000e-06  6.70850058e+00  8.45000000e-06  9.40745250e-01 
 8.55000000e-06  7.00000000e+00  8.55000000e-06  6.70854079e+00  8.55000000e-06  9.40693457e-01 
 8.65000000e-06  7.00000000e+00  8.65000000e-06  6.70850634e+00  8.65000000e-06  9.40808060e-01 
 8.75000000e-06  7.00000000e+00  8.75000000e-06  6.70853243e+00  8.75000000e-06  9.40807150e-01 
 8.85000000e-06  7.00000000e+00  8.85000000e-06  6.70850780e+00  8.85000000e-06  9.40942428e-01 
 8.95000000e-06  7.00000000e+00  8.95000000e-06  6.70852443e+00  8.95000000e-06  9.40970728e-01 
 9.05000000e-06  7.00000000e+00  9.05000000e-06  6.70850669e+00  9.05000000e-06  9.41112546e-01 
 9.15000000e-06  7.00000000e+00  9.15000000e-06  6.70851694e+00  9.15000000e-06  9.41159217e-01 
 9.25000000e-06  7.00000000e+00  9.25000000e-06  6.70850399e+00  9.25000000e-06  9.41301018e-01 
 9.35000000e-06  7.00000000e+00  9.35000000e-06  6.70850993e+00  9.35000000e-06  9.41360178e-01 
 9.45000000e-06  7.00000000e+00  9.45000000e-06  6.70850028e+00  9.45000000e-06  9.41498943e-01 
 9.55000000e-06  7.00000000e+00  9.55000000e-06  6.70850332e+00  9.55000000e-06  9.41567086e-01 
 9.65000000e-06  7.00000000e+00  9.65000000e-06  6.70849595e+00  9.65000000e-06  9.41701503e-01 
 9.75000000e-06  7.00000000e+00  9.75000000e-06  6.70849703e+00  9.75000000e-06  9.41776341e-01 
 9.85000000e-06  7.00000000e+00  9.85000000e-06  6.70849121e+00  9.85000000e-06  9.41905946e-01 
 9.95000000e-06  7.00000000e+00  9.95000000e-06  6.70849098e+00  9.95000000e-06  9.41985862e-01 
 1.00500000e-05  7.00000000e+00  1.00500000e-05  6.70848624e+00  1.00500000e-05  9.42110625e-01 
 1.01500000e-05  7.00000000e+00  1.01500000e-05  6.70848513e+00  1.01500000e-05  9.42194406e-01 
 1.02500000e-05  7.00000000e+00  1.02500000e-05  6.70848112e+00  1.02500000e-05  9.42314515e-01 
 1.03500000e-05  7.00000000e+00  1.03500000e-05  6.70847943e+00  1.03500000e-05  9.42401216e-01 
 1.04500000e-05  7.00000000e+00  1.04500000e-05  6.70847593e+00  1.04500000e-05  9.42516968e-01 
 1.05500000e-05  7.00000000e+00  1.05500000e-05  6.70847387e+00  1.05500000e-05  9.42605830e-01 
 1.06500000e-05  7.00000000e+00  1.06500000e-05  6.70847072e+00  1.06500000e-05  9.42717565e-01 
 1.07500000e-05  7.00000000e+00  1.07500000e-05  6.70846843e+00  1.07500000e-05  9.42807971e-01 
 1.08500000e-05  7.00000000e+00  1.08500000e-05  6.70846551e+00  1.08500000e-05  9.42916041e-01 
 1.09500000e-05  7.00000000e+00  1.09500000e-05  6.70846309e+00  1.09500000e-05  9.43007485e-01 
 1.10500000e-05  7.00000000e+00  1.10500000e-05  6.70846033e+00  1.10500000e-05  9.43112229e-01 
 1.11500000e-05  7.00000000e+00  1.11500000e-05  6.70845783e+00  1.11500000e-05  9.43204294e-01 
 1.12500000e-05  7.00000000e+00  1.12500000e-05  6.70845519e+00  1.12500000e-05  9.43306035e-01 
 1.13500000e-05  7.00000000e+00  1.13500000e-05  6.70845266e+00  1.13500000e-05  9.43398376e-01 
 1.14500000e-05  7.00000000e+00  1.14500000e-05  6.70845010e+00  1.14500000e-05  9.43497409e-01 
 1.15500000e-05  7.00000000e+00  1.15500000e-05  6.70844757e+00  1.15500000e-05  9.43589745e-01 
 1.16500000e-05  7.00000000e+00  1.16500000e-05  6.70844507e+00  1.16500000e-05  9.43686338e-01 
 1.17500000e-05  7.00000000e+00  1.17500000e-05  6.70844255e+00  1.17500000e-05  9.43778437e-01 
 1.18500000e-05  7.00000000e+00  1.18500000e-05  6.70844010e+00  1.18500000e-05  9.43872832e-01 
 1.19500000e-05  7.00000000e+00  1.19500000e-05  6.70843759e+00  1.19500000e-05  9.43964508e-01 
 1.20500000e-05  7.00000000e+00  1.20500000e-05  6.70843518e+00  1.20500000e-05  9.44056919e-01 
 1.21500000e-05  7.00000000e+00  1.21500000e-05  6.70843271e+00  1.21500000e-05  9.44148022e-01 
 1.22500000e-05  7.00000000e+00  1.22500000e-05  6.70843033e+00  1.22500000e-05  9.44238640e-01 
 1.23500000e-05  7.00000000e+00  1.23500000e-05  6.70842789e+00  1.23500000e-05  9.44329052e-01 
 1.24500000e-05  7.00000000e+00  1.24500000e-05  6.70842554e+00  1.24500000e-05  9.44418044e-01 
 1.25500000e-05  7.00000000e+00  1.25500000e-05  6.70842313e+00  1.25500000e-05  9.44507676e-01 
 1.26500000e-05  7.00000000e+00  1.26500000e-05  6.70842081e+00  1.26500000e-05  9.44595190e-01 
 1.27500000e-05  7.00000000e+00  1.27500000e-05  6.70841844e+00  1.27500000e-05  9.44683974e-01 
 1.28500000e-05  7.00000000e+00  1.28500000e-05  6.70841613e+00  1.28500000e-05  9.44770141e-01 
 1.29500000e-05  7.00000000e+00  1.29500000e-05  6.70841379e+00  1.29500000e-05  9.44858029e-01 
 1.30500000e-05  7.00000000e+00  1.30500000e-05  6.70841151e+00  1.30500000e-05  9.44942964e-01 
 1.31500000e-05  7.00000000e+00  1.31500000e-05  6.70840921e+00  1.31500000e-05  9.45029927e-01 
 1.32500000e-05  7.00000000e+00  1.32500000e-05  6.70840695e+00  1.32500000e-05  9.45113730e-01 
 1.33500000e-05  7.00000000e+00  1.33500000e-05  6.70840468e+00  1.33500000e-05  9.45199751e-01 
 1.34500000e-05  7.00000000e+00  1.34500000e-05  6.70840244e+00  1.34500000e-05  9.45282512e-01 
 1.35500000e-05  7.00000000e+00  1.35500000e-05  6.70840019e+00  1.35500000e-05  9.45367588e-01 
 1.36500000e-05  7.00000000e+00  1.36500000e-05  6.70839798e+00  1.36500000e-05  9.45449388e-01 
 1.37500000e-05  7.00000000e+00  1.37500000e-05  6.70839576e+00  1.37500000e-05  9.45533526e-01 
 1.38500000e-05  7.00000000e+00  1.38500000e-05  6.70839357e+00  1.38500000e-05  9.45614437e-01 
 1.39500000e-05  7.00000000e+00  1.39500000e-05  6.70839138e+00  1.39500000e-05  9.45697651e-01 
 1.40500000e-05  7.00000000e+00  1.40500000e-05  6.70838920e+00  1.40500000e-05  9.45777738e-01 
 1.41500000e-05  7.00000000e+00  1.41500000e-05  6.70838703e+00  1.41500000e-05  9.45860052e-01 
 1.42500000e-05  7.00000000e+00  1.42500000e-05  6.70838488e+00  1.42500000e-05  9.45939375e-01 
 1.43500000e-05  7.00000000e+00  1.43500000e-05  6.70838273e+00  1.43500000e-05  9.46020819e-01 
 1.44500000e-05  7.00000000e+00  1.44500000e-05  6.70838060e+00  1.44500000e-05  9.46099434e-01 
 1.45500000e-05  7.00000000e+00  1.45500000e-05  6.70837847e+00  1.45500000e-05  9.46180042e-01 
 1.46500000e-05  7.00000000e+00  1.46500000e-05  6.70837636e+00  1.46500000e-05  9.46258002e-01 
 1.47500000e-05  7.00000000e+00  1.47500000e-05  6.70837425e+00  1.47500000e-05  9.46337814e-01 
 1.48500000e-05  7.00000000e+00  1.48500000e-05  6.70837215e+00  1.48500000e-05  9.46415169e-01 
 1.49500000e-05  7.00000000e+00  1.49500000e-05  6.70837007e+00  1.49500000e-05  9.46494228e-01 
 1.50500000e-05  7.00000000e+00  1.50500000e-05  6.70836798e+00  1.50500000e-05  9.46571028e-01 
 1.51500000e-05  7.00000000e+00  1.51500000e-05  6.70836591e+00  1.51500000e-05  9.46649382e-01 
 1.52500000e-05  7.00000000e+00  1.52500000e-05  6.70836384e+00  1.52500000e-05  9.46725674e-01 
 1.53500000e-05  7.00000000e+00  1.53500000e-05  6.70836178e+00  1.53500000e-05  9.46803373e-01 
 1.54500000e-05  7.00000000e+00  1.54500000e-05  6.70835973e+00  1.54500000e-05  9.46879206e-01 
 1.55500000e-05  7.00000000e+00  1.55500000e-05  6.70835769e+00  1.55500000e-05  9.46956303e-01 
 1.56500000e-05  7.00000000e+00  1.56500000e-05  6.70835564e+00  1.56500000e-05  9.47031725e-01 
 1.57500000e-05  7.00000000e+00  1.57500000e-05  6.70835361e+00  1.57500000e-05  9.47108277e-01 
 1.58500000e-05  7.00000000e+00  1.58500000e-05  6.70835158e+00  1.58500000e-05  9.47183337e-01 
 1.59500000e-05  7.00000000e+00  1.59500000e-05  6.70834956e+00  1.59500000e-05  9.47259402e-01 
 1.60500000e-05  7.00000000e+00  1.60500000e-05  6.70834754e+00  1.60500000e-05  9.47334151e-01 
 1.61500000e-05  7.00000000e+00  1.61500000e-05  6.70834553e+00  1.61500000e-05  9.47409790e-01 
 1.62500000e-05  7.00000000e+00  1.62500000e-05  6.70834351e+00  1.62500000e-05  9.47484281e-01 
 1.63500000e-05  7.00000000e+00  1.63500000e-05  6.70834151e+00  1.63500000e-05  9.47559558e-01 
 1.64500000e-05  7.00000000e+00  1.64500000e-05  6.70833950e+00  1.64500000e-05  9.47633846e-01 
 1.65500000e-05  7.00000000e+00  1.65500000e-05  6.70833750e+00  1.65500000e-05  9.47708827e-01 
 1.66500000e-05  7.00000000e+00  1.66500000e-05  6.70833550e+00  1.66500000e-05  9.47782969e-01 
 1.67500000e-05  7.00000000e+00  1.67500000e-05  6.70833350e+00  1.67500000e-05  9.47857723e-01 
 1.68500000e-05  7.00000000e+00  1.68500000e-05  6.70833150e+00  1.68500000e-05  9.47931780e-01 
 1.69500000e-05  7.00000000e+00  1.69500000e-05  6.70832951e+00  1.69500000e-05  9.48006380e-01 
 1.70500000e-05  7.00000000e+00  1.70500000e-05  6.70832751e+00  1.70500000e-05  9.48080416e-01 
 1.71500000e-05  7.00000000e+00  1.71500000e-05  6.70832552e+00  1.71500000e-05  9.48154937e-01 
 1.72500000e-05  7.00000000e+00  1.72500000e-05  6.70832352e+00  1.72500000e-05  9.48229019e-01 
 1.73500000e-05  7.00000000e+00  1.73500000e-05  6.70832152e+00  1.73500000e-05  9.48303540e-01 
