 time            v(bvdd)         time            v(pvdd)         time            v(gate)         time            v(ea_en)       
 5.00000000e-09  5.00000000e-04  5.00000000e-09  1.73504834e-03  5.00000000e-09  6.69757181e-04  5.00000000e-09  7.24812414e-02 
 5.13998475e-09  5.13998475e-04  5.13998475e-09  1.74130145e-03  5.13998475e-09  6.83503404e-04  5.13998475e-09  7.45269649e-02 
 5.41995425e-09  5.41995425e-04  5.41995425e-09  1.74279795e-03  5.41995425e-09  7.13826955e-04  5.41995425e-09  7.86147168e-02 
 5.97989326e-09  5.97989326e-04  5.97989326e-09  1.74108918e-03  5.97989326e-09  7.95881010e-04  5.97989326e-09  8.67923400e-02 
 7.09977127e-09  7.09977127e-04  7.09977127e-09  1.74151339e-03  7.09977127e-09  9.98592685e-04  7.09977127e-09  1.03146379e-01 
 9.33952728e-09  9.33952728e-04  9.33952728e-09  1.73896607e-03  9.33952728e-09  1.37177380e-03  9.33952728e-09  1.35711298e-01 
 1.38190393e-08  1.38190393e-03  1.38190393e-08  1.73755917e-03  1.38190393e-08  1.85751774e-03  1.38190393e-08  1.99535874e-01 
 2.27780634e-08  2.27780634e-03  2.27780634e-08  1.73253157e-03  2.27780634e-08  2.24167517e-03  2.27780634e-08  3.18212513e-01 
 3.78725722e-08  3.78725722e-03  3.78725722e-08  1.72802583e-03  3.78725722e-08  2.31555832e-03  3.78725722e-08  4.89168285e-01 
 5.63694213e-08  5.63694213e-03  5.63694213e-08  1.71589523e-03  5.63694213e-08  2.22855990e-03  5.63694213e-08  5.97218157e-01 
 7.31815486e-08  7.31815486e-03  7.31815486e-08  1.70191399e-03  7.31815486e-08  2.15251576e-03  7.31815486e-08  5.98867110e-01 
 9.03337644e-08  9.03337644e-03  9.03337644e-08  1.68495706e-03  9.03337644e-08  2.18114836e-03  9.03337644e-08  5.88346219e-01 
 1.11949755e-07  1.11949755e-02  1.11949755e-07  1.66654261e-03  1.11949755e-07  2.22206668e-03  1.11949755e-07  5.83107703e-01 
 1.53585816e-07  1.53585816e-02  1.53585816e-07  1.62845063e-03  1.53585816e-07  2.28195092e-03  1.53585816e-07  5.72501312e-01 
 2.16701245e-07  2.16701245e-02  2.16701245e-07  1.57434466e-03  2.16701245e-07  2.38249496e-03  2.16701245e-07  5.63526514e-01 
 3.34685319e-07  3.34685319e-02  3.34685319e-07  1.47151058e-03  3.34685319e-07  2.55644245e-03  3.34685319e-07  5.52307803e-01 
 5.00000000e-07  5.00000000e-02  5.00000000e-07  1.33098312e-03  5.00000000e-07  2.80491886e-03  5.00000000e-07  5.45057065e-01 
 5.18338665e-07  5.18338665e-02  5.18338665e-07  1.31478113e-03  5.18338665e-07  2.83068723e-03  5.18338665e-07  5.44314274e-01 
 5.55015994e-07  5.55015994e-02  5.55015994e-07  1.28342044e-03  5.55015994e-07  2.88404964e-03  5.55015994e-07  5.43214699e-01 
 6.28370653e-07  6.28370653e-02  6.28370653e-07  1.22072143e-03  6.28370653e-07  2.99186463e-03  6.28370653e-07  5.41540109e-01 
 7.75079970e-07  7.75079970e-02  7.75079970e-07  1.09533309e-03  7.75079970e-07  3.20461790e-03  7.75079970e-07  5.39006500e-01 
 1.06849860e-06  1.06849860e-01  1.06849860e-06  8.44569081e-04  1.06849860e-06  3.62473970e-03  1.06849860e-06  5.36227993e-01 
 1.56849860e-06  1.56849860e-01  1.56849860e-06  4.17145848e-04  1.56849860e-06  4.32296210e-03  1.56849860e-06  5.34293474e-01 
 2.06849860e-06  2.06849860e-01  2.06849860e-06 -1.03483063e-05  2.06849860e-06  5.00707845e-03  2.06849860e-06  5.33862424e-01 
 2.56849860e-06  2.56849860e-01  2.56849860e-06 -4.37728231e-04  2.56849860e-06  5.68524627e-03  2.56849860e-06  5.33801237e-01 
 3.06849860e-06  3.06849860e-01  3.06849860e-06 -8.64607985e-04  3.06849860e-06  6.37503123e-03  3.06849860e-06  5.33986368e-01 
 3.56849860e-06  3.56849860e-01  3.56849860e-06 -1.29027559e-03  3.56849860e-06  7.10434663e-03  3.56849860e-06  5.34188076e-01 
 4.06849860e-06  4.06849860e-01  4.06849860e-06 -1.71317052e-03  4.06849860e-06  7.93591566e-03  4.06849860e-06  5.34497132e-01 
 4.56849860e-06  4.56849860e-01  4.56849860e-06 -2.12973125e-03  4.56849860e-06  9.00309902e-03  4.56849860e-06  5.34769053e-01 
 5.06849860e-06  5.06849860e-01  5.06849860e-06 -2.53150075e-03  5.06849860e-06  1.06085343e-02  5.06849860e-06  5.35119726e-01 
 5.56849860e-06  5.56849860e-01  5.56849860e-06 -2.89892258e-03  5.56849860e-06  1.33966288e-02  5.56849860e-06  5.35463813e-01 
 6.06849860e-06  6.06849860e-01  6.06849860e-06 -3.19003860e-03  6.06849860e-06  1.86081692e-02  6.06849860e-06  5.35917191e-01 
 6.56849860e-06  6.56849860e-01  6.56849860e-06 -3.32863614e-03  6.56849860e-06  2.81130822e-02  6.56849860e-06  5.36388680e-01 
 7.06849860e-06  7.06849860e-01  7.06849860e-06 -3.20866871e-03  7.06849860e-06  4.37264561e-02  7.06849860e-06  5.37041376e-01 
 7.56849860e-06  7.56849860e-01  7.56849860e-06 -2.72658083e-03  7.56849860e-06  6.59955474e-02  7.56849860e-06  5.37836909e-01 
 8.06849860e-06  8.06849860e-01  8.06849860e-06 -1.81208517e-03  8.06849860e-06  9.38763351e-02  8.06849860e-06  5.38972497e-01 
 8.56849860e-06  8.56849860e-01  8.56849860e-06 -4.19217572e-04  8.56849860e-06  1.25630980e-01  8.56849860e-06  5.40550383e-01 
 9.06849860e-06  9.06849860e-01  9.06849860e-06  1.50906450e-03  9.06849860e-06  1.59763779e-01  9.06849860e-06  5.43083871e-01 
 9.56849860e-06  9.56849860e-01  9.56849860e-06  4.06759516e-03  9.56849860e-06  1.95317035e-01  9.56849860e-06  5.47364695e-01 
 1.00684986e-05  1.00684986e+00  1.00684986e-05  7.39888723e-03  1.00684986e-05  2.31775547e-01  1.00684986e-05  5.55306469e-01 
 1.05684986e-05  1.05684986e+00  1.05684986e-05  1.16954880e-02  1.05684986e-05  2.68874895e-01  1.05684986e-05  5.70637441e-01 
 1.10684986e-05  1.10684986e+00  1.10684986e-05  1.71966754e-02  1.10684986e-05  3.06572196e-01  1.10684986e-05  6.01928162e-01 
 1.15684986e-05  1.15684986e+00  1.15684986e-05  2.41873761e-02  1.15684986e-05  3.44808801e-01  1.15684986e-05  6.68963750e-01 
 1.20684986e-05  1.20684986e+00  1.20684986e-05  3.29896879e-02  1.20684986e-05  3.83624197e-01  1.20684986e-05  7.53588193e-01 
 1.25684986e-05  1.25684986e+00  1.25684986e-05  4.39639569e-02  1.25684986e-05  4.23080053e-01  1.25684986e-05  1.14322115e+00 
 1.30076351e-05  1.30076351e+00  1.30076351e-05  5.56560688e-02  1.30076351e-05  4.58175328e-01  1.30076351e-05  1.31120680e+00 
 1.34653403e-05  1.34653403e+00  1.34653403e-05  7.01833279e-02  1.34653403e-05  4.95305956e-01  1.34653403e-05  1.33703704e+00 
 1.39653403e-05  1.39653403e+00  1.39653403e-05  8.91247104e-02  1.39653403e-05  5.36412473e-01  1.39653403e-05  1.40132394e+00 
 1.44653403e-05  1.44653403e+00  1.44653403e-05  1.11629656e-01  1.44653403e-05  5.78019747e-01  1.44653403e-05  1.44229768e+00 
 1.49653403e-05  1.49653403e+00  1.49653403e-05  1.38130805e-01  1.49653403e-05  6.19861306e-01  1.49653403e-05  1.49877222e+00 
 1.54653403e-05  1.54653403e+00  1.54653403e-05  1.69213818e-01  1.54653403e-05  6.61605228e-01  1.54653403e-05  1.54404596e+00 
 1.59653403e-05  1.59653403e+00  1.59653403e-05  2.05840125e-01  1.59653403e-05  7.02611580e-01  1.59653403e-05  1.59797024e+00 
 1.64653403e-05  1.64653403e+00  1.64653403e-05  2.49748190e-01  1.64653403e-05  7.42037405e-01  1.64653403e-05  1.64486348e+00 
 1.69653403e-05  1.69653403e+00  1.69653403e-05  3.04316626e-01  1.69653403e-05  7.78474751e-01  1.69653403e-05  1.69759170e+00 
 1.74653403e-05  1.74653403e+00  1.74653403e-05  3.76265226e-01  1.74653403e-05  8.10404070e-01  1.74653403e-05  1.74533786e+00 
 1.79653403e-05  1.79653403e+00  1.79653403e-05  4.76855479e-01  1.79653403e-05  8.38248014e-01  1.79653403e-05  1.79743871e+00 
 1.84653403e-05  1.84653403e+00  1.84653403e-05  6.20676604e-01  1.84653403e-05  8.63964485e-01  1.84653403e-05  1.84570467e+00 
 1.89653403e-05  1.89653403e+00  1.89653403e-05  8.22589165e-01  1.89653403e-05  8.88953026e-01  1.89653403e-05  1.89740904e+00 
 1.94653403e-05  1.94653403e+00  1.94653403e-05  1.09488764e+00  1.94653403e-05  9.13387459e-01  1.94653403e-05  1.94596172e+00 
 1.99653403e-05  1.99653403e+00  1.99653403e-05  1.44283384e+00  1.99653403e-05  9.37092532e-01  1.99653403e-05  1.99730426e+00 
 2.04653403e-05  2.04653403e+00  2.04653403e-05  1.85333648e+00  2.04653403e-05  9.57097257e-01  2.04653403e-05  2.04572143e+00 
 2.07925657e-05  2.07925657e+00  2.07925657e-05  2.05077740e+00  2.07925657e-05  9.57820947e-01  2.07925657e-05  2.07892435e+00 
 2.11697525e-05  2.11697525e+00  2.11697525e-05  2.11586369e+00  2.11697525e-05  9.65335373e-01  2.11697525e-05  2.11521103e+00 
 2.14233102e-05  2.14233102e+00  2.14233102e-05  2.13416890e+00  2.14233102e-05  9.77342490e-01  2.14233102e-05  2.14118539e+00 
 2.17055119e-05  2.17055119e+00  2.17055119e-05  2.16552631e+00  2.17055119e-05  9.93220692e-01  2.17055119e-05  2.16805554e+00 
 2.20425481e-05  2.20425481e+00  2.20425481e-05  2.19847414e+00  2.20425481e-05  1.01182680e+00  2.20425481e-05  2.20179370e+00 
 2.25059778e-05  2.25059778e+00  2.25059778e-05  2.24591023e+00  2.25059778e-05  1.03785095e+00  2.25059778e-05  2.24573644e+00 
 2.30059778e-05  2.30059778e+00  2.30059778e-05  2.29593878e+00  2.30059778e-05  1.06647662e+00  2.30059778e-05  2.29370203e+00 
 2.35059778e-05  2.35059778e+00  2.35059778e-05  2.34652020e+00  2.35059778e-05  1.09519016e+00  2.35059778e-05  2.33877212e+00 
 2.40059778e-05  2.40059778e+00  2.40059778e-05  2.39663639e+00  2.40059778e-05  1.12439759e+00  2.40059778e-05  2.38340752e+00 
 2.45059778e-05  2.45059778e+00  2.45059778e-05  2.44699509e+00  2.45059778e-05  1.15354997e+00  2.45059778e-05  2.42465699e+00 
 2.50059778e-05  2.50059778e+00  2.50059778e-05  2.49712085e+00  2.50059778e-05  1.18315339e+00  2.50059778e-05  2.46505939e+00 
 2.55059778e-05  2.55059778e+00  2.55059778e-05  2.54736343e+00  2.55059778e-05  1.21280286e+00  2.55059778e-05  2.50215820e+00 
 2.60059778e-05  2.60059778e+00  2.60059778e-05  2.59747677e+00  2.60059778e-05  1.24311333e+00  2.60059778e-05  2.53841910e+00 
 2.65059778e-05  2.65059778e+00  2.65059778e-05  2.64765074e+00  2.65059778e-05  1.27346436e+00  2.65059778e-05  2.57122251e+00 
 2.70059778e-05  2.70059778e+00  2.70059778e-05  2.69774973e+00  2.70059778e-05  1.30420063e+00  2.70059778e-05  2.60323066e+00 
 2.75059778e-05  2.75059778e+00  2.75059778e-05  2.74788269e+00  2.75059778e-05  1.33485459e+00  2.75059778e-05  2.63205726e+00 
 2.80059778e-05  2.80059778e+00  2.80059778e-05  2.79796924e+00  2.80059778e-05  1.36583646e+00  2.80059778e-05  2.66029608e+00 
 2.85059778e-05  2.85059778e+00  2.85059778e-05  2.84807497e+00  2.85059778e-05  1.39672183e+00  2.85059778e-05  2.68554750e+00 
 2.90059778e-05  2.90059778e+00  2.90059778e-05  2.89815048e+00  2.90059778e-05  1.42790991e+00  2.90059778e-05  2.71044849e+00 
 2.95059778e-05  2.95059778e+00  2.95059778e-05  2.94823704e+00  2.95059778e-05  1.45899764e+00  2.95059778e-05  2.73264127e+00 
 3.00059778e-05  3.00059778e+00  3.00059778e-05  2.99830311e+00  3.00059778e-05  1.49037157e+00  3.00059778e-05  2.75495311e+00 
 3.05059778e-05  3.05059778e+00  3.05059778e-05  3.04837555e+00  3.05059778e-05  1.52164492e+00  3.05059778e-05  2.77509935e+00 
 3.10059778e-05  3.10059778e+00  3.10059778e-05  3.09843363e+00  3.10059778e-05  1.55319193e+00  3.10059778e-05  2.79627587e+00 
 3.15059778e-05  3.15059778e+00  3.15059778e-05  3.14849530e+00  3.15059778e-05  1.58463962e+00  3.15059778e-05  2.81639021e+00 
 3.20059778e-05  3.20059778e+00  3.20059778e-05  3.19854662e+00  3.20059778e-05  1.61635064e+00  3.20059778e-05  2.83919196e+00 
 3.25059778e-05  3.25059778e+00  3.25059778e-05  3.24859986e+00  3.25059778e-05  1.64796424e+00  3.25059778e-05  2.86289534e+00 
 3.30059778e-05  3.30059778e+00  3.30059778e-05  3.29864545e+00  3.30059778e-05  1.67983213e+00  3.30059778e-05  2.89180192e+00 
 3.35059778e-05  3.35059778e+00  3.35059778e-05  3.34869193e+00  3.35059778e-05  1.71160461e+00  3.35059778e-05  2.92428217e+00 
 3.40059778e-05  3.40059778e+00  3.40059778e-05  3.39873263e+00  3.40059778e-05  1.74362307e+00  3.40059778e-05  2.96459421e+00 
 3.45059778e-05  3.45059778e+00  3.45059778e-05  3.44877359e+00  3.45059778e-05  1.77554797e+00  3.45059778e-05  3.01069447e+00 
 3.50059778e-05  3.50059778e+00  3.50059778e-05  3.49881010e+00  3.50059778e-05  1.80771083e+00  3.50059778e-05  3.06582362e+00 
 3.55059778e-05  3.55059778e+00  3.55059778e-05  3.54884646e+00  3.55059778e-05  1.83978155e+00  3.55059778e-05  3.12727902e+00 
 3.60059778e-05  3.60059778e+00  3.60059778e-05  3.59887934e+00  3.60059778e-05  1.87208222e+00  3.60059778e-05  3.19702304e+00 
 3.65059778e-05  3.65059778e+00  3.65059778e-05  3.64891183e+00  3.65059778e-05  1.90429155e+00  3.65059778e-05  3.27220754e+00 
 3.70059778e-05  3.70059778e+00  3.70059778e-05  3.69894153e+00  3.70059778e-05  1.93672254e+00  3.70059778e-05  3.35393973e+00 
 3.75059778e-05  3.75059778e+00  3.75059778e-05  3.74897070e+00  3.75059778e-05  1.96906224e+00  3.75059778e-05  3.43966251e+00 
 3.80059778e-05  3.80059778e+00  3.80059778e-05  3.79899761e+00  3.80059778e-05  2.00161493e+00  3.80059778e-05  3.52994408e+00 
 3.85059778e-05  3.85059778e+00  3.85059778e-05  3.84902391e+00  3.85059778e-05  2.03407565e+00  3.85059778e-05  3.62249649e+00 
 3.90059778e-05  3.90059778e+00  3.90059778e-05  3.89904833e+00  3.90059778e-05  2.06674057e+00  3.90059778e-05  3.71735604e+00 
 3.95059778e-05  3.95059778e+00  3.95059778e-05  3.94907209e+00  3.95059778e-05  2.09931334e+00  3.95059778e-05  3.81208324e+00 
 4.00059778e-05  4.00059778e+00  4.00059778e-05  3.99909427e+00  4.00059778e-05  2.13208519e+00  4.00059778e-05  3.90598193e+00 
 4.05059778e-05  4.05059778e+00  4.05059778e-05  4.04911575e+00  4.05059778e-05  2.16478291e+00  4.05059778e-05  3.99572961e+00 
 4.10059778e-05  4.10059778e+00  4.10059778e-05  4.09913571e+00  4.10059778e-05  2.19816736e+00  4.10059778e-05  4.07803272e+00 
 4.15059778e-05  4.15059778e+00  4.15059778e-05  4.14915422e+00  4.15059778e-05  2.23214701e+00  4.15059778e-05  4.14661772e+00 
 4.20059778e-05  4.20059778e+00  4.20059778e-05  4.19917124e+00  4.20059778e-05  2.26534727e+00  4.20059778e-05  4.20047186e+00 
 4.25059778e-05  4.25059778e+00  4.25059778e-05  4.24918896e+00  4.25059778e-05  2.29815805e+00  4.25059778e-05  4.25047193e+00 
 4.30059778e-05  4.30059778e+00  4.30059778e-05  4.29920576e+00  4.30059778e-05  2.33111834e+00  4.30059778e-05  4.30062893e+00 
 4.35059778e-05  4.35059778e+00  4.35059778e-05  4.34922189e+00  4.35059778e-05  2.36397195e+00  4.35059778e-05  4.35051800e+00 
 4.38852541e-05  4.38852541e+00  4.38852541e-05  4.38716117e+00  4.38852541e-05  2.38902429e+00  4.38852541e-05  4.38856487e+00 
 4.41192619e-05  4.41192619e+00  4.41192619e-05  4.41056898e+00  4.41192619e-05  2.40438740e+00  4.41192619e-05  4.41185176e+00 
 4.42375805e-05  4.42375805e+00  4.42375805e-05  4.42240430e+00  4.42375805e-05  2.41224831e+00  4.42375805e-05  4.42379451e+00 
 4.43607236e-05  4.43607236e+00  4.43607236e-05  4.43472219e+00  4.43607236e-05  2.42031437e+00  4.43607236e-05  4.43600006e+00 
 4.44885921e-05  4.44885921e+00  4.44885921e-05  4.44751272e+00  4.44885921e-05  2.42880250e+00  4.44885921e-05  4.44889455e+00 
 4.46616651e-05  4.46616651e+00  4.46616651e-05  4.46482490e+00  4.46616651e-05  2.44017391e+00  4.46616651e-05  4.46609535e+00 
 4.50078111e-05  4.50078111e+00  4.50078111e-05  4.49944903e+00  4.50078111e-05  2.46307988e+00  4.50078111e-05  4.50081564e+00 
 4.55078111e-05  4.55078111e+00  4.55078111e-05  4.54946219e+00  4.55078111e-05  2.49609768e+00  4.55078111e-05  4.55071120e+00 
 4.60078111e-05  4.60078111e+00  4.60078111e-05  4.59947464e+00  4.60078111e-05  2.52929039e+00  4.60078111e-05  4.60081481e+00 
 4.65078111e-05  4.65078111e+00  4.65078111e-05  4.64948635e+00  4.65078111e-05  2.56252336e+00  4.65078111e-05  4.65071248e+00 
 4.70078111e-05  4.70078111e+00  4.70078111e-05  4.69949731e+00  4.70078111e-05  2.59606836e+00  4.70078111e-05  4.70081404e+00 
 4.75078111e-05  4.75078111e+00  4.75078111e-05  4.74950732e+00  4.75078111e-05  2.63047642e+00  4.75078111e-05  4.75071372e+00 
 4.80078111e-05  4.80078111e+00  4.80078111e-05  4.79951566e+00  4.80078111e-05  2.66697633e+00  4.80078111e-05  4.80081339e+00 
 4.85078111e-05  4.85078111e+00  4.85078111e-05  4.84952194e+00  4.85078111e-05  2.70301964e+00  4.85078111e-05  4.85071485e+00 
 4.90078111e-05  4.90078111e+00  4.90078111e-05  4.89952821e+00  4.90078111e-05  2.74018845e+00  4.90078111e-05  4.90081274e+00 
 4.95078111e-05  4.95078111e+00  4.95078111e-05  4.94953301e+00  4.95078111e-05  2.77765951e+00  4.95078111e-05  4.95071594e+00 
 5.00078111e-05  5.00078111e+00  5.00078111e-05  4.99953697e+00  5.00078111e-05  2.81580583e+00  5.00078111e-05  5.00081211e+00 
 5.05078111e-05  5.05078111e+00  5.05078111e-05  5.04954007e+00  5.05078111e-05  2.85420576e+00  5.05078111e-05  5.05071697e+00 
 5.10078111e-05  5.10078111e+00  5.10078111e-05  5.09954226e+00  5.10078111e-05  2.89303391e+00  5.10078111e-05  5.10081150e+00 
 5.15078111e-05  5.15078111e+00  5.15078111e-05  5.14954379e+00  5.15078111e-05  2.93202664e+00  5.15078111e-05  5.15071794e+00 
 5.20078111e-05  5.20078111e+00  5.20078111e-05  5.19954444e+00  5.20078111e-05  2.97130329e+00  5.20078111e-05  5.20081091e+00 
 5.25078111e-05  5.25078111e+00  5.25078111e-05  5.24954446e+00  5.25078111e-05  3.01068402e+00  5.25078111e-05  5.25071887e+00 
 5.30078111e-05  5.30078111e+00  5.30078111e-05  5.29954362e+00  5.30078111e-05  3.05026698e+00  5.30078111e-05  5.30081034e+00 
 5.35078111e-05  5.35078111e+00  5.35078111e-05  5.34954212e+00  5.35078111e-05  3.08992890e+00  5.35078111e-05  5.35071974e+00 
 5.40078111e-05  5.40078111e+00  5.40078111e-05  5.39953972e+00  5.40078111e-05  3.12975910e+00  5.40078111e-05  5.40080980e+00 
 5.45078111e-05  5.45078111e+00  5.45078111e-05  5.44953658e+00  5.45078111e-05  3.16967748e+00  5.45078111e-05  5.45072058e+00 
 5.50078111e-05  5.50078111e+00  5.50078111e-05  5.49953247e+00  5.50078111e-05  3.20977138e+00  5.50078111e-05  5.50080928e+00 
 5.55078111e-05  5.55078111e+00  5.55078111e-05  5.54952749e+00  5.55078111e-05  3.24999645e+00  5.55078111e-05  5.55072138e+00 
 5.60078111e-05  5.60078111e+00  5.60078111e-05  5.59952141e+00  5.60078111e-05  3.29044206e+00  5.60078111e-05  5.60080879e+00 
 5.65078111e-05  5.65078111e+00  5.65078111e-05  5.64951430e+00  5.65078111e-05  3.33109576e+00  5.65078111e-05  5.65072214e+00 
 5.70078111e-05  5.70078111e+00  5.70078111e-05  5.69950594e+00  5.70078111e-05  3.37205281e+00  5.70078111e-05  5.70080832e+00 
 5.75078111e-05  5.75078111e+00  5.75078111e-05  5.74949632e+00  5.75078111e-05  3.41333203e+00  5.75078111e-05  5.75072287e+00 
 5.80078111e-05  5.80078111e+00  5.80078111e-05  5.79948522e+00  5.80078111e-05  3.45503918e+00  5.80078111e-05  5.80080787e+00 
 5.85078111e-05  5.85078111e+00  5.85078111e-05  5.84947259e+00  5.85078111e-05  3.49722249e+00  5.85078111e-05  5.85072358e+00 
 5.90078111e-05  5.90078111e+00  5.90078111e-05  5.89945820e+00  5.90078111e-05  3.53999715e+00  5.90078111e-05  5.90080745e+00 
 5.95078111e-05  5.95078111e+00  5.95078111e-05  5.94944195e+00  5.95078111e-05  3.58343037e+00  5.95078111e-05  5.95072426e+00 
 6.00078111e-05  6.00078111e+00  6.00078111e-05  5.99942359e+00  6.00078111e-05  3.62763952e+00  6.00078111e-05  6.00080705e+00 
 6.05078111e-05  6.05078111e+00  6.05078111e-05  6.04940289e+00  6.05078111e-05  3.67269606e+00  6.05078111e-05  6.05072492e+00 
 6.10078111e-05  6.10078111e+00  6.10078111e-05  6.09937972e+00  6.10078111e-05  3.71871998e+00  6.10078111e-05  6.10080667e+00 
 6.15078111e-05  6.15078111e+00  6.15078111e-05  6.14935383e+00  6.15078111e-05  3.76574268e+00  6.15078111e-05  6.15072556e+00 
 6.20078111e-05  6.20078111e+00  6.20078111e-05  6.19932487e+00  6.20078111e-05  3.81386605e+00  6.20078111e-05  6.20080632e+00 
 6.25078111e-05  6.25078111e+00  6.25078111e-05  6.24929267e+00  6.25078111e-05  3.86314128e+00  6.25078111e-05  6.25072618e+00 
 6.30078111e-05  6.30078111e+00  6.30078111e-05  6.29925683e+00  6.30078111e-05  3.91368644e+00  6.30078111e-05  6.30080598e+00 
 6.35078111e-05  6.35078111e+00  6.35078111e-05  6.34921706e+00  6.35078111e-05  3.96558643e+00  6.35078111e-05  6.35072678e+00 
 6.40078111e-05  6.40078111e+00  6.40078111e-05  6.39917287e+00  6.40078111e-05  4.01897428e+00  6.40078111e-05  6.40080566e+00 
