 time            v(bvdd)         time            v(pvdd)         time            v(gate)         time            v(ea_out)       time            v(startup_done) time            v(ea_en)       
 1.00000000e-09  1.00000000e-04  1.00000000e-09  1.82205132e-04  1.00000000e-09  1.14632816e-04  1.00000000e-09 -2.30869172e-03  1.00000000e-09  6.60036839e-05  1.00000000e-09  7.11606286e-06 
 1.02794806e-09  1.02794806e-04  1.02794806e-09  1.84393748e-04  1.02794806e-09  1.17201004e-04  1.02794806e-09 -2.35493287e-03  1.02794806e-09  6.78530517e-05  1.02794806e-09  7.31641965e-06 
 1.08384417e-09  1.08384417e-04  1.08384417e-09  1.86291608e-04  1.08384417e-09  1.21832004e-04  1.08384417e-09 -2.41062192e-03  1.08384417e-09  7.15747565e-05  1.08384417e-09  7.71855005e-06 
 1.19563641e-09  1.19563641e-04  1.19563641e-09  1.85960938e-04  1.19563641e-09  1.30252038e-04  1.19563641e-09 -2.46884355e-03  1.19563641e-09  7.90483248e-05  1.19563641e-09  8.52513537e-06 
 1.41922087e-09  1.41922087e-04  1.41922087e-09  1.86093337e-04  1.41922087e-09  1.47359546e-04  1.41922087e-09 -2.43234213e-03  1.41922087e-09  9.41469577e-05  1.41922087e-09  1.01490986e-05 
 1.72904793e-09  1.72904793e-04  1.72904793e-09  1.85936732e-04  1.72904793e-09  1.71104096e-04  1.72904793e-09 -2.21250872e-03  1.72904793e-09  1.15232894e-04  1.72904793e-09  1.24157165e-05 
 2.34870206e-09  2.34870206e-04  2.34870206e-09  1.85950174e-04  2.34870206e-09  2.17631587e-04  2.34870206e-09 -1.67574653e-03  2.34870206e-09  1.57517399e-04  2.34870206e-09  1.69840676e-05 
 3.58801030e-09  3.58801030e-04  3.58801030e-09  1.85717372e-04  3.58801030e-09  3.10274216e-04  3.58801030e-09 -8.46192519e-04  3.58801030e-09  2.41897911e-04  3.58801030e-09  2.62185426e-05 
 6.06662679e-09  6.06662679e-04  6.06662679e-09  1.85519068e-04  6.06662679e-09  4.96236672e-04  6.06662679e-09 -1.11720224e-04  6.06662679e-09  4.09926683e-04  6.06662679e-09  4.49786284e-05 
 1.10238598e-08  1.10238598e-03  1.10238598e-08  1.84912103e-04  1.10238598e-08  8.72046196e-04  1.10238598e-08  1.14312513e-04  1.10238598e-08  7.45361637e-04  1.10238598e-08  8.32809583e-05 
 1.81734466e-08  1.81734466e-03  1.81734466e-08  1.84236484e-04  1.81734466e-08  1.42458820e-03  1.81734466e-08  8.36786363e-05  1.81734466e-08  1.23015133e-03  1.81734466e-08  1.39578238e-04 
 3.05764444e-08  3.05764444e-03  3.05764444e-08  1.82867660e-04  3.05764444e-08  2.41073003e-03  3.05764444e-08  9.31806100e-05  3.05764444e-08  2.07482449e-03  3.05764444e-08  2.38697713e-04 
 5.53824398e-08  5.53824398e-03  5.53824398e-08  1.80396336e-04  5.53824398e-08  4.47210206e-03  5.53824398e-08  8.69663194e-05  5.53824398e-08  3.77654842e-03  5.53824398e-08  4.39259370e-04 
 1.00000000e-07  1.00000000e-02  1.00000000e-07  1.75840777e-04  1.00000000e-07  8.40517239e-03  1.00000000e-07  9.24040425e-05  1.00000000e-07  6.87190785e-03  1.00000000e-07  7.98098609e-04 
 1.04961199e-07  1.04961199e-02  1.04961199e-07  1.75386905e-04  1.04961199e-07  8.85860924e-03  1.04961199e-07  8.99354145e-05  1.04961199e-07  7.21837998e-03  1.04961199e-07  8.37299956e-04 
 1.14883597e-07  1.14883597e-02  1.14883597e-07  1.74406780e-04  1.14883597e-07  9.76988966e-03  1.14883597e-07  8.90415932e-05  1.14883597e-07  7.91255472e-03  1.14883597e-07  9.15093934e-04 
 1.34728394e-07  1.34728394e-02  1.34728394e-07  1.72455287e-04  1.34728394e-07  1.16157327e-02  1.34728394e-07  8.85037047e-05  1.34728394e-07  9.30532091e-03  1.34728394e-07  1.06623932e-03 
 1.74417986e-07  1.74417986e-02  1.74417986e-07  1.68583168e-04  1.74417986e-07  1.53803484e-02  1.74417986e-07  8.61292654e-05  1.74417986e-07  1.21058850e-02  1.74417986e-07  1.34621110e-03 
 2.53797172e-07  2.53797172e-02  2.53797172e-07  1.60910420e-04  2.53797172e-07  2.30933901e-02  2.53797172e-07  8.08338840e-05  2.53797172e-07  1.77507672e-02  2.53797172e-07  1.80727896e-03 
 3.53797172e-07  3.53797172e-02  3.53797172e-07  1.51312019e-04  3.53797172e-07  3.29897641e-02  3.53797172e-07  7.25196781e-05  3.53797172e-07  2.49120335e-02  3.53797172e-07  2.21772126e-03 
 4.53797172e-07  4.53797172e-02  4.53797172e-07  1.41738115e-04  4.53797172e-07  4.29618070e-02  4.53797172e-07  6.41737207e-05  4.53797172e-07  3.21005394e-02  4.53797172e-07  2.48308137e-03 
 5.53797172e-07  5.53797172e-02  5.53797172e-07  1.32171216e-04  5.53797172e-07  5.29566268e-02  5.53797172e-07  5.53268130e-05  5.53797172e-07  3.92989412e-02  5.53797172e-07  2.65091369e-03 
 6.53797172e-07  6.53797172e-02  6.53797172e-07  1.22605127e-04  6.53797172e-07  6.29578567e-02  6.53797172e-07  4.68378923e-05  6.53797172e-07  4.64972937e-02  6.53797172e-07  2.75599519e-03 
 7.53797172e-07  7.53797172e-02  7.53797172e-07  1.13039865e-04  7.53797172e-07  7.29605821e-02  7.53797172e-07  3.79801431e-05  7.53797172e-07  5.36895874e-02  7.53797172e-07  2.82145170e-03 
 8.53797172e-07  8.53797172e-02  8.53797172e-07  1.03473874e-04  8.53797172e-07  8.29634219e-02  8.53797172e-07  2.94869926e-05  8.53797172e-07  6.08720152e-02  8.53797172e-07  2.86209937e-03 
 9.53797172e-07  9.53797172e-02  9.53797172e-07  9.39083733e-05  9.53797172e-07  9.29660516e-02  9.53797172e-07  2.06479430e-05  9.53797172e-07  6.80420496e-02  9.53797172e-07  2.88728642e-03 
 1.05379717e-06  1.05379717e-01  1.05379717e-06  8.43420475e-05  1.05379717e-06  1.02968439e-01  1.05379717e-06  1.20780720e-05  1.05379717e-06  7.51979333e-02  1.05379717e-06  2.90286452e-03 
 1.15379717e-06  1.15379717e-01  1.15379717e-06  7.47762361e-05  1.15379717e-06  1.12970621e-01  1.15379717e-06  3.29920989e-06  1.15379717e-06  8.23383777e-02  1.15379717e-06  2.91248019e-03 
 1.25379717e-06  1.25379717e-01  1.25379717e-06  6.52096975e-05  1.25379717e-06  1.22972638e-01  1.25379717e-06 -5.25390427e-06  1.25379717e-06  8.94623817e-02  1.25379717e-06  2.91839993e-03 
 1.35379717e-06  1.35379717e-01  1.35379717e-06  5.56436983e-05  1.35379717e-06  1.32974526e-01  1.35379717e-06 -1.40187996e-05  1.35379717e-06  9.65691117e-02  1.35379717e-06  2.92203025e-03 
 1.45379717e-06  1.45379717e-01  1.45379717e-06  4.60769943e-05  1.45379717e-06  1.42976309e-01  1.45379717e-06 -2.25545002e-05  1.45379717e-06  1.03657824e-01  1.45379717e-06  2.92424316e-03 
 1.55379717e-06  1.55379717e-01  1.55379717e-06  3.65108459e-05  1.55379717e-06  1.52978007e-01  1.55379717e-06 -3.13040489e-05  1.55379717e-06  1.10727804e-01  1.55379717e-06  2.92557897e-03 
 1.65379717e-06  1.65379717e-01  1.65379717e-06  2.69440083e-05  1.65379717e-06  1.62979632e-01  1.65379717e-06 -3.98220731e-05  1.65379717e-06  1.17778329e-01  1.65379717e-06  2.92637237e-03 
 1.75379717e-06  1.75379717e-01  1.75379717e-06  1.73777387e-05  1.75379717e-06  1.72981198e-01  1.75379717e-06 -4.85542891e-05  1.75379717e-06  1.24808625e-01  1.75379717e-06  2.92683057e-03 
 1.85379717e-06  1.85379717e-01  1.85379717e-06  7.81079330e-06  1.85379717e-06  1.82982710e-01  1.85379717e-06 -5.70533400e-05  1.85379717e-06  1.31817842e-01  1.85379717e-06  2.92708192e-03 
 1.95379717e-06  1.95379717e-01  1.95379717e-06 -1.75557263e-06  1.95379717e-06  1.92984177e-01  1.95379717e-06 -6.57656435e-05  1.95379717e-06  1.38805023e-01  1.95379717e-06  2.92720584e-03 
 2.05379717e-06  2.05379717e-01  2.05379717e-06 -1.13226010e-05  2.05379717e-06  2.02985603e-01  2.05379717e-06 -7.42437122e-05  2.05379717e-06  1.45769078e-01  2.05379717e-06  2.92725154e-03 
 2.15379717e-06  2.15379717e-01  2.15379717e-06 -2.08890386e-05  2.15379717e-06  2.12986994e-01  2.15379717e-06 -8.29329950e-05  2.15379717e-06  1.52708756e-01  2.15379717e-06  2.92724944e-03 
 2.25379717e-06  2.25379717e-01  2.25379717e-06 -3.04561250e-05  2.25379717e-06  2.22988353e-01  2.25379717e-06 -9.13874399e-05  2.25379717e-06  1.59622620e-01  2.25379717e-06  2.92721840e-03 
 2.35379717e-06  2.35379717e-01  2.35379717e-06 -4.00226086e-05  2.35379717e-06  2.32989684e-01  2.35379717e-06 -1.00050115e-04  2.35379717e-06  1.66509013e-01  2.35379717e-06  2.92717006e-03 
 2.45379717e-06  2.45379717e-01  2.45379717e-06 -4.95897271e-05  2.45379717e-06  2.42990989e-01  2.45379717e-06 -1.08477721e-04  2.45379717e-06  1.73366027e-01  2.45379717e-06  2.92711167e-03 
 2.55379717e-06  2.55379717e-01  2.55379717e-06 -5.91562305e-05  2.55379717e-06  2.52992271e-01  2.55379717e-06 -1.17109756e-04  2.55379717e-06  1.80191473e-01  2.55379717e-06  2.92704766e-03 
 2.65379717e-06  2.65379717e-01  2.65379717e-06 -6.87233542e-05  2.65379717e-06  2.62993533e-01  2.65379717e-06 -1.25506780e-04  2.65379717e-06  1.86982839e-01  2.65379717e-06  2.92698082e-03 
 2.75379717e-06  2.75379717e-01  2.75379717e-06 -7.82898501e-05  2.75379717e-06  2.72994777e-01  2.75379717e-06 -1.34103720e-04  2.75379717e-06  1.93737248e-01  2.75379717e-06  2.92691285e-03 
 2.85379717e-06  2.85379717e-01  2.85379717e-06 -8.78569514e-05  2.85379717e-06  2.82996004e-01  2.85379717e-06 -1.42465916e-04  2.85379717e-06  2.00451420e-01  2.85379717e-06  2.92684480e-03 
 2.95379717e-06  2.95379717e-01  2.95379717e-06 -9.74234119e-05  2.95379717e-06  2.92997216e-01  2.95379717e-06 -1.51022892e-04  2.95379717e-06  2.07121617e-01  2.95379717e-06  2.92677732e-03 
 3.05379717e-06  3.05379717e-01  3.05379717e-06 -1.06990463e-04  3.05379717e-06  3.02998414e-01  3.05379717e-06 -1.59345532e-04  3.05379717e-06  2.13743594e-01  3.05379717e-06  2.92671082e-03 
 3.15379717e-06  3.15379717e-01  3.15379717e-06 -1.16556859e-04  3.15379717e-06  3.12999599e-01  3.15379717e-06 -1.67857264e-04  3.15379717e-06  2.20312537e-01  3.15379717e-06  2.92664553e-03 
 3.25379717e-06  3.25379717e-01  3.25379717e-06 -1.26123831e-04  3.25379717e-06  3.23000771e-01  3.25379717e-06 -1.76135142e-04  3.25379717e-06  2.26823004e-01  3.25379717e-06  2.92658162e-03 
 3.35379717e-06  3.35379717e-01  3.35379717e-06 -1.35690136e-04  3.35379717e-06  3.33001932e-01  3.35379717e-06 -1.84595928e-04  3.35379717e-06  2.33268858e-01  3.35379717e-06  2.92651916e-03 
 3.45379717e-06  3.45379717e-01  3.45379717e-06 -1.45257000e-04  3.45379717e-06  3.43003079e-01  3.45379717e-06 -1.92823359e-04  3.45379717e-06  2.39643193e-01  3.45379717e-06  2.92645822e-03 
 3.55379717e-06  3.55379717e-01  3.55379717e-06 -1.54823184e-04  3.55379717e-06  3.53004214e-01  3.55379717e-06 -2.01227066e-04  3.55379717e-06  2.45938256e-01  3.55379717e-06  2.92639882e-03 
 3.65379717e-06  3.65379717e-01  3.65379717e-06 -1.64389913e-04  3.65379717e-06  3.63005333e-01  3.65379717e-06 -2.09397879e-04  3.65379717e-06  2.52145370e-01  3.65379717e-06  2.92634099e-03 
 3.75379717e-06  3.75379717e-01  3.75379717e-06 -1.73955949e-04  3.75379717e-06  3.73006437e-01  3.75379717e-06 -2.17737923e-04  3.75379717e-06  2.58254850e-01  3.75379717e-06  2.92628472e-03 
 3.85379717e-06  3.85379717e-01  3.85379717e-06 -1.83522516e-04  3.85379717e-06  3.83007522e-01  3.85379717e-06 -2.25845445e-04  3.85379717e-06  2.64255916e-01  3.85379717e-06  2.92623004e-03 
 3.95379717e-06  3.95379717e-01  3.95379717e-06 -1.93088377e-04  3.95379717e-06  3.93008586e-01  3.95379717e-06 -2.34114762e-04  3.95379717e-06  2.70136605e-01  3.95379717e-06  2.92617693e-03 
 4.05379717e-06  4.05379717e-01  4.05379717e-06 -2.02654756e-04  4.05379717e-06  4.03009625e-01  4.05379717e-06 -2.42151793e-04  4.05379717e-06  2.75883693e-01  4.05379717e-06  2.92612539e-03 
 4.15379717e-06  4.15379717e-01  4.15379717e-06 -2.12220419e-04  4.15379717e-06  4.13010635e-01  4.15379717e-06 -2.50342800e-04  4.15379717e-06  2.81482612e-01  4.15379717e-06  2.92607542e-03 
 4.25379717e-06  4.25379717e-01  4.25379717e-06 -2.21786587e-04  4.25379717e-06  4.23011610e-01  4.25379717e-06 -2.58301550e-04  4.25379717e-06  2.86917382e-01  4.25379717e-06  2.92602702e-03 
 4.35379717e-06  4.35379717e-01  4.35379717e-06 -2.31352031e-04  4.35379717e-06  4.33012546e-01  4.35379717e-06 -2.66406060e-04  4.35379717e-06  2.92170552e-01  4.35379717e-06  2.92598017e-03 
 4.45379717e-06  4.45379717e-01  4.45379717e-06 -2.40917970e-04  4.45379717e-06  4.43013434e-01  4.45379717e-06 -2.74278049e-04  4.45379717e-06  2.97223163e-01  4.45379717e-06  2.92593489e-03 
 4.55379717e-06  4.55379717e-01  4.55379717e-06 -2.50483178e-04  4.55379717e-06  4.53014267e-01  4.55379717e-06 -2.82287121e-04  4.55379717e-06  3.02054735e-01  4.55379717e-06  2.92589116e-03 
 4.65379717e-06  4.65379717e-01  4.65379717e-06 -2.60048874e-04  4.65379717e-06  4.63015035e-01  4.65379717e-06 -2.90062983e-04  4.65379717e-06  3.06643281e-01  4.65379717e-06  2.92584898e-03 
 4.75379717e-06  4.75379717e-01  4.75379717e-06 -2.69613837e-04  4.75379717e-06  4.73015728e-01  4.75379717e-06 -2.97966669e-04  4.75379717e-06  3.10965364e-01  4.75379717e-06  2.92580833e-03 
 4.85379717e-06  4.85379717e-01  4.85379717e-06 -2.79179286e-04  4.85379717e-06  4.83016333e-01  4.85379717e-06 -3.05635835e-04  4.85379717e-06  3.14996196e-01  4.85379717e-06  2.92576923e-03 
 4.95379717e-06  4.95379717e-01  4.95379717e-06 -2.88744004e-04  4.95379717e-06  4.93016837e-01  4.95379717e-06 -3.13422785e-04  4.95379717e-06  3.18709784e-01  4.95379717e-06  2.92573165e-03 
 5.05379717e-06  5.05379717e-01  5.05379717e-06 -2.98309210e-04  5.05379717e-06  5.03017223e-01  5.05379717e-06 -3.20973003e-04  5.05379717e-06  3.22079126e-01  5.05379717e-06  2.92569560e-03 
 5.15379717e-06  5.15379717e-01  5.15379717e-06 -3.07873695e-04  5.15379717e-06  5.13017474e-01  5.15379717e-06 -3.28629878e-04  5.15379717e-06  3.25076460e-01  5.15379717e-06  2.92566106e-03 
 5.25379717e-06  5.25379717e-01  5.25379717e-06 -3.17438679e-04  5.25379717e-06  5.23017567e-01  5.25379717e-06 -3.36046515e-04  5.25379717e-06  3.27673544e-01  5.25379717e-06  2.92562805e-03 
 5.35379717e-06  5.35379717e-01  5.35379717e-06 -3.27002958e-04  5.35379717e-06  5.33017479e-01  5.35379717e-06 -3.43557167e-04  5.35379717e-06  3.29841965e-01  5.35379717e-06  2.92559653e-03 
 5.45379717e-06  5.45379717e-01  5.45379717e-06 -3.36567757e-04  5.45379717e-06  5.43017181e-01  5.45379717e-06 -3.50822248e-04  5.45379717e-06  3.31553448e-01  5.45379717e-06  2.92556651e-03 
 5.55379717e-06  5.55379717e-01  5.55379717e-06 -3.46131879e-04  5.55379717e-06  5.53016641e-01  5.55379717e-06 -3.58166594e-04  5.55379717e-06  3.32780124e-01  5.55379717e-06  2.92553798e-03 
 5.65379717e-06  5.65379717e-01  5.65379717e-06 -3.55696554e-04  5.65379717e-06  5.63015821e-01  5.65379717e-06 -3.65257503e-04  5.65379717e-06  3.33494746e-01  5.65379717e-06  2.92551094e-03 
 5.75379717e-06  5.75379717e-01  5.75379717e-06 -3.65260591e-04  5.75379717e-06  5.73014679e-01  5.75379717e-06 -3.72410024e-04  5.75379717e-06  3.33670797e-01  5.75379717e-06  2.92548536e-03 
 5.85379717e-06  5.85379717e-01  5.85379717e-06 -3.74825224e-04  5.85379717e-06  5.83013160e-01  5.85379717e-06 -3.79297758e-04  5.85379717e-06  3.33282508e-01  5.85379717e-06  2.92546126e-03 
 5.95379717e-06  5.95379717e-01  5.95379717e-06 -3.84389271e-04  5.95379717e-06  5.93011208e-01  5.95379717e-06 -3.86225449e-04  5.95379717e-06  3.32304771e-01  5.95379717e-06  2.92543859e-03 
 6.05379717e-06  6.05379717e-01  6.05379717e-06 -3.93953963e-04  6.05379717e-06  6.03008750e-01  6.05379717e-06 -3.92865961e-04  6.05379717e-06  3.30713071e-01  6.05379717e-06  2.92541736e-03 
 6.15379717e-06  6.15379717e-01  6.15379717e-06 -4.03518119e-04  6.15379717e-06  6.13005711e-01  6.15379717e-06 -3.99517769e-04  6.15379717e-06  3.28483556e-01  6.15379717e-06  2.92539754e-03 
 6.25379717e-06  6.25379717e-01  6.25379717e-06 -4.13082971e-04  6.25379717e-06  6.23001996e-01  6.25379717e-06 -4.05870036e-04  6.25379717e-06  3.25593724e-01  6.25379717e-06  2.92537913e-03 
 6.35379717e-06  6.35379717e-01  6.35379717e-06 -4.22647325e-04  6.35379717e-06  6.32997513e-01  6.35379717e-06 -4.12194374e-04  6.35379717e-06  3.22025117e-01  6.35379717e-06  2.92536209e-03 
 6.45379717e-06  6.45379717e-01  6.45379717e-06 -4.32212364e-04  6.45379717e-06  6.42992163e-01  6.45379717e-06 -4.18179373e-04  6.45379717e-06  3.17773305e-01  6.45379717e-06  2.92534643e-03 
 6.55379717e-06  6.55379717e-01  6.55379717e-06 -4.41776805e-04  6.55379717e-06  6.52985898e-01  6.55379717e-06 -4.24072000e-04  6.55379717e-06  3.12884905e-01  6.55379717e-06  2.92533210e-03 
 6.65379717e-06  6.65379717e-01  6.65379717e-06 -4.51341603e-04  6.65379717e-06  6.62978835e-01  6.65379717e-06 -4.29549644e-04  6.65379717e-06  3.07581732e-01  6.65379717e-06  2.92531909e-03 
 6.75379717e-06  6.75379717e-01  6.75379717e-06 -4.60904965e-04  6.75379717e-06  6.72971607e-01  6.75379717e-06 -4.34779055e-04  6.75379717e-06  3.02610359e-01  6.75379717e-06  2.92530738e-03 
 6.85379717e-06  6.85379717e-01  6.85379717e-06 -4.70466732e-04  6.85379717e-06  6.82965966e-01  6.85379717e-06 -4.39303242e-04  6.85379717e-06  2.99969716e-01  6.85379717e-06  2.92529702e-03 
 6.95379717e-06  6.95379717e-01  6.95379717e-06 -4.80024213e-04  6.95379717e-06  6.92962971e-01  6.95379717e-06 -4.43298461e-04  6.95379717e-06  3.01944420e-01  6.95379717e-06  2.92528810e-03 
 7.05379717e-06  7.05379717e-01  7.05379717e-06 -4.89578975e-04  7.05379717e-06  7.02959353e-01  7.05379717e-06 -4.46685207e-04  7.05379717e-06  3.07722324e-01  7.05379717e-06  2.92528075e-03 
 7.15379717e-06  7.15379717e-01  7.15379717e-06 -4.99131166e-04  7.15379717e-06  7.12951755e-01  7.15379717e-06 -4.49663020e-04  7.15379717e-06  3.14656997e-01  7.15379717e-06  2.92527507e-03 
 7.25379717e-06  7.25379717e-01  7.25379717e-06 -5.08682266e-04  7.25379717e-06  7.22940741e-01  7.25379717e-06 -4.51828195e-04  7.25379717e-06  3.21646425e-01  7.25379717e-06  2.92527113e-03 
 7.35379717e-06  7.35379717e-01  7.35379717e-06 -5.18230814e-04  7.35379717e-06  7.32927368e-01  7.35379717e-06 -4.53340660e-04  7.35379717e-06  3.28252469e-01  7.35379717e-06  2.92526900e-03 
 7.45379717e-06  7.45379717e-01  7.45379717e-06 -5.27777714e-04  7.45379717e-06  7.42911828e-01  7.45379717e-06 -4.53820092e-04  7.45379717e-06  3.33537388e-01  7.45379717e-06  2.92526879e-03 
 7.55379717e-06  7.55379717e-01  7.55379717e-06 -5.37321442e-04  7.55379717e-06  7.52894016e-01  7.55379717e-06 -4.53387759e-04  7.55379717e-06  3.35586034e-01  7.55379717e-06  2.92527059e-03 
 7.65379717e-06  7.65379717e-01  7.65379717e-06 -5.46862806e-04  7.65379717e-06  7.62873705e-01  7.65379717e-06 -4.51623421e-04  7.65379717e-06  3.30598940e-01  7.65379717e-06  2.92527457e-03 
 7.75379717e-06  7.75379717e-01  7.75379717e-06 -5.56400170e-04  7.75379717e-06  7.72850614e-01  7.75379717e-06 -4.48596008e-04  7.75379717e-06  3.11293464e-01  7.75379717e-06  2.92528089e-03 
 7.85379717e-06  7.85379717e-01  7.85379717e-06 -5.65934200e-04  7.85379717e-06  7.82824413e-01  7.85379717e-06 -4.43829843e-04  7.85379717e-06  2.64673160e-01  7.85379717e-06  2.92528981e-03 
 7.95379717e-06  7.95379717e-01  7.95379717e-06 -5.75463104e-04  7.95379717e-06  7.92794737e-01  7.95379717e-06 -4.37322647e-04  7.95379717e-06  1.72933300e-01  7.95379717e-06  2.92530160e-03 
 8.05379717e-06  8.05379717e-01  8.05379717e-06 -5.84987355e-04  8.05379717e-06  8.02761158e-01  8.05379717e-06 -4.28521322e-04  8.05379717e-06  5.83724226e-02  8.05379717e-06  2.92531666e-03 
 8.15379717e-06  8.15379717e-01  8.15379717e-06 -5.94504929e-04  8.15379717e-06  8.12723126e-01  8.15379717e-06 -4.17324742e-04  8.15379717e-06  8.05390301e-03  8.15379717e-06  2.92533545e-03 
 8.25379717e-06  8.25379717e-01  8.25379717e-06 -6.04016060e-04  8.25379717e-06  8.22680027e-01  8.25379717e-06 -4.03079479e-04  8.25379717e-06  2.60107195e-03  8.25379717e-06  2.92535861e-03 
 8.35379717e-06  8.35379717e-01  8.35379717e-06 -6.13518430e-04  8.35379717e-06  8.32631354e-01  8.35379717e-06 -3.85545003e-04  8.35379717e-06  9.02248943e-04  8.35379717e-06  2.92538690e-03 
 8.45379717e-06  8.45379717e-01  8.45379717e-06 -6.23011883e-04  8.45379717e-06  8.42576357e-01  8.45379717e-06 -3.63918132e-04  8.45379717e-06  2.19662563e-04  8.45379717e-06  2.92542135e-03 
 8.55379717e-06  8.55379717e-01  8.55379717e-06 -6.32493718e-04  8.55379717e-06  8.52514560e-01  8.55379717e-06 -3.37788131e-04  8.55379717e-06  4.40245145e-05  8.55379717e-06  2.92546328e-03 
