 time            v(bvdd)         time            v(pvdd)         time            v(gate)         time            v(ea_out)       time            ibvdd           time            p_pass         
 1.00000000e-09  1.00000000e-03  1.00000000e-09  1.82232955e-04  1.00000000e-09  7.75755857e-04  1.00000000e-09 -2.31020346e-03  1.00000000e-09  6.36214754e-07  1.00000000e-09  5.20275459e-10 
 1.02794806e-09  1.02794806e-03  1.02794806e-09  1.84422381e-04  1.02794806e-09  7.96763714e-04  1.02794806e-09 -2.35642608e-03  1.02794806e-09  6.68363135e-07  1.02794806e-09  5.63781466e-10 
 1.08384417e-09  1.08384417e-03  1.08384417e-09  1.86321888e-04  1.08384417e-09  8.38240300e-04  1.08384417e-09 -2.41190566e-03  1.08384417e-09  6.96844082e-07  1.08384417e-09  6.25433094e-10 
 1.19563641e-09  1.19563641e-03  1.19563641e-09  1.85994561e-04  1.19563641e-09  9.20325355e-04  1.19563641e-09 -2.46956576e-03  1.19563641e-09  6.92203388e-07  1.19563641e-09  6.98877507e-10 
 1.41922087e-09  1.41922087e-03  1.41922087e-09  1.86133640e-04  1.41922087e-09  1.08483900e-03  1.41922087e-09 -2.43175461e-03  1.41922087e-09  6.94211470e-07  1.41922087e-09  8.56023301e-10 
 1.72904793e-09  1.72904793e-03  1.72904793e-09  1.85986299e-04  1.72904793e-09  1.31307324e-03  1.72904793e-09 -2.21046046e-03  1.72904793e-09  6.92766474e-07  1.72904793e-09  1.06898136e-09 
 2.34870203e-09  2.34870203e-03  2.34870203e-09  1.86017706e-04  2.34870203e-09  1.77070019e-03  2.34870203e-09 -1.67249536e-03  2.34870203e-09  6.94145821e-07  2.34870203e-09  1.50121829e-09 
 3.58801024e-09  3.58801024e-03  3.58801024e-09  1.85820489e-04  3.58801024e-09  2.68998510e-03  3.58801024e-09 -8.42864167e-04  3.58801024e-09  6.93972882e-07  3.58801024e-09  2.36102743e-09 
 6.06662667e-09  6.06662667e-03  6.06662667e-09  1.85693200e-04  6.06662667e-09  4.54389340e-03  6.06662667e-09 -1.08673146e-04  6.06662667e-09  6.96872693e-07  6.06662667e-09  4.09826194e-09 
 1.10238595e-08  1.10238595e-02  1.10238595e-08  1.85228010e-04  1.10238595e-08  8.30675151e-03  1.10238595e-08  1.17260761e-04  1.10238595e-08  7.01055429e-07  1.10238595e-08  7.59848146e-09 
 1.81735323e-08  1.81735323e-02  1.81735323e-08  1.84757198e-04  1.81735323e-08  1.38471860e-02  1.81735323e-08  8.74557957e-05  1.81735323e-08  7.10791585e-07  1.81735323e-08  1.27862700e-08 
 3.05825803e-08  3.05825803e-02  3.05825803e-08  1.83745628e-04  3.05825803e-08  2.37338622e-02  3.05825803e-08  9.72878971e-05  3.05825803e-08  7.26265043e-07  3.05825803e-08  2.20776110e-08 
 5.54006764e-08  5.54006764e-02  5.54006764e-08  1.82000089e-04  5.54006764e-08  4.43501511e-02  5.54006764e-08  9.26186901e-05  5.54006764e-08  7.59848347e-07  5.54006764e-08  4.19578199e-08 
 1.00000000e-07  1.00000000e-01  1.00000000e-07  1.78784998e-04  1.00000000e-07  8.35258211e-02  1.00000000e-07  1.00120092e-04  1.00000000e-07  8.12592320e-07  1.00000000e-07  8.11139527e-08 
 1.04963619e-07  1.04963619e-01  1.04963619e-07  1.78482267e-04  1.04963619e-07  8.80406747e-02  1.04963619e-07  9.78758986e-05  1.04963619e-07  8.19030751e-07  1.04963619e-07  8.58222494e-08 
 1.14890858e-07  1.14890858e-01  1.14890858e-07  1.77804908e-04  1.14890858e-07  9.71126320e-02  1.14890858e-07  9.75012296e-05  1.14890858e-07  8.29225443e-07  1.14890858e-07  9.51229820e-08 
 1.34745335e-07  1.34745335e-01  1.34745335e-07  1.76462004e-04  1.34745335e-07  1.15486026e-01  1.34745335e-07  9.78628032e-05  1.34745335e-07  8.50960601e-07  1.34745335e-07  1.14512809e-07 
 1.74454288e-07  1.74454288e-01  1.74454288e-07  1.73815574e-04  1.74454288e-07  1.52963081e-01  1.74454288e-07  9.72350411e-05  1.74454288e-07  8.89426027e-07  1.74454288e-07  1.55009588e-07 
 2.53872196e-07  2.53872196e-01  2.53872196e-07  1.68608484e-04  2.53872196e-07  2.29810497e-01  2.53872196e-07  9.53004572e-05  2.53872196e-07  9.58857729e-07  2.53872196e-07  2.43265645e-07 
 3.53872196e-07  3.53872196e-01  3.53872196e-07  1.62116320e-04  3.53872196e-07  3.28497148e-01  3.53872196e-07  9.11146780e-05  3.53872196e-07  1.03090032e-06  3.53872196e-07  3.64639834e-07 
 4.53872196e-07  4.53872196e-01  4.53872196e-07  1.55624225e-04  4.53872196e-07  4.28029796e-01  4.53872196e-07  8.69069138e-05  4.53872196e-07  1.09350154e-06  4.53872196e-07  4.96139771e-07 
 5.53872196e-07  5.53872196e-01  5.53872196e-07  1.49107582e-04  5.53872196e-07  5.27806602e-01  5.53872196e-07  8.22996867e-05  5.53872196e-07  1.14740507e-06  5.53872196e-07  6.35344679e-07 
 6.53872196e-07  6.53872196e-01  6.53872196e-07  1.42559888e-04  6.53872196e-07  6.27612111e-01  6.53872196e-07  7.83083497e-05  6.53872196e-07  1.19822660e-06  6.53872196e-07  7.83316240e-07 
 7.53872196e-07  7.53872196e-01  7.53872196e-07  1.35985184e-04  7.53872196e-07  7.27480245e-01  7.53872196e-07  7.43453729e-05  7.53872196e-07  1.24670264e-06  7.53872196e-07  9.39684920e-07 
 8.53872196e-07  8.53872196e-01  8.53872196e-07  1.29409678e-04  8.53872196e-07  8.28617158e-01  8.53872196e-07  7.13612959e-05  8.53872196e-07  1.30465612e-06  8.53872196e-07  1.11384075e-06 
 9.53872196e-07  9.53872196e-01  9.53872196e-07  1.22966851e-04  9.53872196e-07  9.37296804e-01  9.53872196e-07  6.88105718e-05  9.53872196e-07  1.39951197e-06  9.53872196e-07  1.33478346e-06 
 1.05387220e-06  1.05387220e+00  1.05387220e-06  1.16581124e-04  1.05387220e-06  1.05032210e+00  1.05387220e-06  6.68300562e-05  1.05387220e-06  1.46016874e-06  1.05387220e-06  1.53866101e-06 
 1.15387220e-06  1.15387220e+00  1.15387220e-06  1.09919346e-04  1.15387220e-06  1.15321129e+00  1.15387220e-06  6.17263714e-05  1.15387220e-06  1.50933572e-06  1.15387220e-06  1.74141461e-06 
 1.25387220e-06  1.25387220e+00  1.25387220e-06  1.03186111e-04  1.25387220e-06  1.25360125e+00  1.25387220e-06  6.46803296e-05  1.25387220e-06  2.39338337e-06  1.25387220e-06  3.00074989e-06 
 1.32924488e-06  1.32924488e+00  1.32924488e-06  9.81288830e-05  1.32924488e-06  1.32887442e+00  1.32924488e-06  7.77045327e-05  1.32924488e-06  8.25100549e-07  1.32924488e-06  1.09667972e-06 
 1.40971784e-06  1.40971784e+00  1.40971784e-06  9.27486636e-05  1.40971784e-06  1.40953698e+00  1.40971784e-06  1.05602366e-04  1.40971784e-06  2.35421243e-06  1.40971784e-06  3.31855691e-06 
 1.50971784e-06  1.50971784e+00  1.50971784e-06  8.61422524e-05  1.50971784e-06  1.50949008e+00  1.50971784e-06  2.40989427e-04  1.50971784e-06  9.69073608e-07  1.50971784e-06  1.46294423e-06 
 1.60971784e-06  1.60971784e+00  1.60971784e-06  7.98460827e-05  1.60971784e-06  1.60956190e+00  1.60971784e-06  6.45108294e-04  1.60971784e-06  2.43556061e-06  1.60971784e-06  3.92037089e-06 
 1.70971784e-06  1.70971784e+00  1.70971784e-06  7.42639197e-05  1.70971784e-06  1.70950235e+00  1.70971784e-06  1.55834797e-03  1.70971784e-06  1.20165543e-06  1.70971784e-06  2.05440249e-06 
 1.80971784e-06  1.80971784e+00  1.80971784e-06  6.99224712e-05  1.80971784e-06  1.80951251e+00  1.80971784e-06  3.17341111e-03  1.80971784e-06  2.70562670e-06  1.80971784e-06  4.89623171e-06 
 1.90971784e-06  1.90971784e+00  1.90971784e-06  6.73536531e-05  1.90971784e-06  1.90944354e+00  1.90971784e-06  5.66736763e-03  1.90971784e-06  1.62844421e-06  1.90971784e-06  3.10975927e-06 
 2.00971784e-06  2.00971784e+00  2.00971784e-06  6.70646609e-05  2.00971784e-06  2.00942527e+00  2.00971784e-06  9.18545958e-03  2.00971784e-06  3.18539219e-06  2.00971784e-06  6.40152587e-06 
 2.10971784e-06  2.10971784e+00  2.10971784e-06  6.95230986e-05  2.10971784e-06  2.10935423e+00  2.10971784e-06  1.38748671e-02  2.10971784e-06  2.24100007e-06  2.10971784e-06  4.72772202e-06 
 2.20971784e-06  2.20971784e+00  2.20971784e-06  7.51616949e-05  2.20971784e-06  2.20932194e+00  2.20971784e-06  1.98552243e-02  2.20971784e-06  3.84706836e-06  2.20971784e-06  8.50064643e-06 
 2.30971784e-06  2.30971784e+00  2.30971784e-06  8.43721402e-05  2.30971784e-06  2.30925191e+00  2.30971784e-06  2.72452563e-02  2.30971784e-06  3.01329870e-06  2.30971784e-06  6.95961551e-06 
 2.40971784e-06  2.40971784e+00  2.40971784e-06  9.75064275e-05  2.40971784e-06  2.40921270e+00  2.40971784e-06  3.61361383e-02  2.40971784e-06  4.65948707e-06  2.40971784e-06  1.12275948e-05 
 2.50971784e-06  2.50971784e+00  2.50971784e-06  1.14873768e-04  2.50971784e-06  2.50914543e+00  2.50971784e-06  4.66169556e-02  2.50971784e-06  3.91497813e-06  2.50971784e-06  9.82504073e-06 
 2.60971784e-06  2.60971784e+00  2.60971784e-06  1.36741619e-04  2.60971784e-06  2.60910344e+00  2.60971784e-06  5.87505609e-02  2.60971784e-06  5.58920048e-06  2.60971784e-06  1.45854719e-05 
 2.70971784e-06  2.70971784e+00  2.70971784e-06  1.63335675e-04  2.70971784e-06  2.70904010e+00  2.70971784e-06  7.25977729e-02  2.70971784e-06  4.91354285e-06  2.70971784e-06  1.33135122e-05 
 2.80971784e-06  2.80971784e+00  2.80971784e-06  1.94840990e-04  2.80971784e-06  2.80899793e+00  2.80971784e-06  8.81950924e-02  2.80971784e-06  6.60272119e-06  2.80971784e-06  1.85504970e-05 
 2.90971784e-06  2.90971784e+00  2.90971784e-06  2.31404124e-04  2.90971784e-06  2.90893925e+00  2.90971784e-06  1.05577715e-01  2.90971784e-06  5.97721097e-06  2.90971784e-06  1.73906142e-05 
 3.00971784e-06  3.00971784e+00  3.00971784e-06  2.73134236e-04  3.00971784e-06  3.00889857e+00  3.00971784e-06  1.24758739e-01  3.00971784e-06  7.66874727e-06  3.00971784e-06  2.30786709e-05 
 3.10971784e-06  3.10971784e+00  3.10971784e-06  3.20106673e-04  3.10971784e-06  3.10884496e+00  3.10971784e-06  1.45751022e-01  3.10971784e-06  7.07693223e-06  3.10971784e-06  2.20049970e-05 
 3.20971784e-06  3.20971784e+00  3.20971784e-06  3.72363779e-04  3.20971784e-06  3.20880679e+00  3.20971784e-06  1.68547460e-01  3.20971784e-06  8.75957702e-06  3.20971784e-06  2.81125089e-05 
 3.30971784e-06  3.30971784e+00  3.30971784e-06  4.29919505e-04  3.30971784e-06  3.30875840e+00  3.30971784e-06  1.93141814e-01  3.30971784e-06  8.18753753e-06  3.30971784e-06  2.70949190e-05 
 3.40971784e-06  3.40971784e+00  3.40971784e-06  4.92759785e-04  3.40971784e-06  3.40872329e+00  3.40971784e-06  2.19508864e-01  3.40971784e-06  9.85200428e-06  3.40971784e-06  3.35877001e-05 
 3.50971784e-06  3.50971784e+00  3.50971784e-06  5.60846933e-04  3.50971784e-06  3.50868007e+00  3.50971784e-06  2.47620220e-01  3.50971784e-06  9.28869885e-06  3.50971784e-06  3.25955025e-05 
 3.60971784e-06  3.60971784e+00  3.60971784e-06  6.34118369e-04  3.60971784e-06  3.60864817e+00  3.60971784e-06  2.77391919e-01  3.60971784e-06  1.09285837e-05  3.60971784e-06  3.94421735e-05 
 3.70971784e-06  3.70971784e+00  3.70971784e-06  7.12470572e-04  3.70971784e-06  3.70860974e+00  3.70971784e-06  3.08806096e-01  3.70971784e-06  1.03666800e-05  3.70971784e-06  3.84500716e-05 
 3.80971784e-06  3.80971784e+00  3.80971784e-06  7.95865329e-04  3.80971784e-06  3.80858136e+00  3.80971784e-06  3.41990464e-01  3.80971784e-06  1.19744087e-05  3.80971784e-06  4.56095884e-05 
 3.90971784e-06  3.90971784e+00  3.90971784e-06  8.84229972e-04  3.90971784e-06  3.90854730e+00  3.90971784e-06  3.76478293e-01  3.90971784e-06  1.14087366e-05  3.90971784e-06  4.45948529e-05 
 4.00971784e-06  4.00971784e+00  4.00971784e-06  9.77387082e-04  4.00971784e-06  4.00852180e+00  4.00971784e-06  4.12610197e-01  4.00971784e-06  1.29853925e-05  4.00971784e-06  5.20550684e-05 
 4.10971784e-06  4.10971784e+00  4.10971784e-06  1.07521270e-03  4.10971784e-06  4.10849145e+00  4.10971784e-06  4.49829626e-01  4.10971784e-06  1.24143189e-05  4.10971784e-06  5.10059997e-05 
 4.20971784e-06  4.20971784e+00  4.20971784e-06  1.17758819e-03  4.20971784e-06  4.20846750e+00  4.20971784e-06  4.88086908e-01  4.20971784e-06  1.39688382e-05  4.20971784e-06  5.87884176e-05 
 4.30971784e-06  4.30971784e+00  4.30971784e-06  1.28446492e-03  4.30971784e-06  4.30843772e+00  4.30971784e-06  5.26268972e-01  4.30971784e-06  1.34166522e-05  4.30971784e-06  5.78047523e-05 
 4.40971784e-06  4.40971784e+00  4.40971784e-06  1.39600357e-03  4.40971784e-06  4.40840839e+00  4.40971784e-06  5.62631620e-01  4.40971784e-06  1.50150954e-05  4.40971784e-06  6.61913730e-05 
 4.50971784e-06  4.50971784e+00  4.50971784e-06  1.51283624e-03  4.50971784e-06  4.50836544e+00  4.50971784e-06  5.93955603e-01  4.50971784e-06  1.46165571e-05  4.50971784e-06  6.58944356e-05 
 4.60971784e-06  4.60971784e+00  4.60971784e-06  1.63619150e-03  4.60971784e-06  4.60831235e+00  4.60971784e-06  6.17940414e-01  4.60971784e-06  1.64510629e-05  4.60971784e-06  7.58078409e-05 
 4.70971784e-06  4.70971784e+00  4.70971784e-06  1.76761635e-03  4.70971784e-06  4.70824250e+00  4.70971784e-06  6.34821084e-01  4.70971784e-06  1.63598537e-05  4.70971784e-06  7.70213770e-05 
 4.80971784e-06  4.80971784e+00  4.80971784e-06  1.90858393e-03  4.80971784e-06  4.80816506e+00  4.80971784e-06  6.46492653e-01  4.80971784e-06  1.84595063e-05  4.80971784e-06  8.87497854e-05 
 4.90971784e-06  4.90971784e+00  4.90971784e-06  2.06045905e-03  4.90971784e-06  4.90807772e+00  4.90971784e-06  6.54781151e-01  4.90971784e-06  1.85988741e-05  4.90971784e-06  9.12769016e-05 
 5.00971784e-06  5.00971784e+00  5.00971784e-06  2.22458930e-03  5.00971784e-06  5.00798735e+00  5.00971784e-06  6.60946811e-01  5.00971784e-06  2.08611397e-05  5.00971784e-06  1.04462016e-04 
 5.10971784e-06  5.10971784e+00  5.10971784e-06  2.40171095e-03  5.10971784e-06  5.10789129e+00  5.10971784e-06  6.65804757e-01  5.10971784e-06  2.11474059e-05  5.10971784e-06  1.08006487e-04 
 5.20971784e-06  5.20971784e+00  5.20971784e-06  2.59210286e-03  5.20971784e-06  5.20779389e+00  5.20971784e-06  6.69820285e-01  5.20971784e-06  2.35154850e-05  5.20971784e-06  1.22448087e-04 
 5.30971784e-06  5.30971784e+00  5.30971784e-06  2.79609627e-03  5.30971784e-06  5.30769282e+00  5.30971784e-06  6.73313337e-01  5.30971784e-06  2.39106557e-05  5.30971784e-06  1.26891978e-04 
 5.40971784e-06  5.40971784e+00  5.40971784e-06  3.01408269e-03  5.40971784e-06  5.40759081e+00  5.40971784e-06  6.76442312e-01  5.40971784e-06  2.63600037e-05  5.40971784e-06  1.42520731e-04 
 5.50971784e-06  5.50971784e+00  5.50971784e-06  3.24644374e-03  5.50971784e-06  5.50748623e+00  5.50971784e-06  6.79336606e-01  5.50971784e-06  2.68470222e-05  5.50971784e-06  1.47832360e-04 
 5.60971784e-06  5.60971784e+00  5.60971784e-06  3.49354602e-03  5.60971784e-06  5.60738066e+00  5.60971784e-06  6.82052904e-01  5.60971784e-06  2.93662115e-05  5.60971784e-06  1.64633568e-04 
 5.70971784e-06  5.70971784e+00  5.70971784e-06  3.75574510e-03  5.70971784e-06  5.70727326e+00  5.70971784e-06  6.84645314e-01  5.70971784e-06  2.99360900e-05  5.70971784e-06  1.70814195e-04 
 5.80971784e-06  5.80971784e+00  5.80971784e-06  4.03338306e-03  5.80971784e-06  5.80716463e+00  5.80971784e-06  6.87131171e-01  5.80971784e-06  3.25189324e-05  5.80971784e-06  1.88794660e-04 
 5.90971784e-06  5.90971784e+00  5.90971784e-06  4.32679186e-03  5.90971784e-06  5.90705476e+00  5.90971784e-06  6.89538427e-01  5.90971784e-06  3.31661349e-05  5.90971784e-06  1.95858996e-04 
 6.00971784e-06  6.00971784e+00  6.00971784e-06  4.63629127e-03  6.00971784e-06  6.00694338e+00  6.00971784e-06  6.91870786e-01  6.00971784e-06  3.58084810e-05  6.00971784e-06  2.15032849e-04 
 6.10971784e-06  6.10971784e+00  6.10971784e-06  4.96219220e-03  6.10971784e-06  6.10683126e+00  6.10971784e-06  6.94145755e-01  6.10971784e-06  3.65287984e-05  6.10971784e-06  2.22999388e-04 
 6.20971784e-06  6.20971784e+00  6.20971784e-06  5.30479401e-03  6.20971784e-06  6.20671735e+00  6.20971784e-06  6.96362513e-01  6.20971784e-06  3.92272944e-05  6.20971784e-06  2.43382337e-04 
 6.30971784e-06  6.30971784e+00  6.30971784e-06  5.66438781e-03  6.30971784e-06  6.30660317e+00  6.30971784e-06  6.98533905e-01  6.30971784e-06  4.00170642e-05  6.30971784e-06  2.52269712e-04 
 6.40971784e-06  6.40971784e+00  6.40971784e-06  6.04125333e-03  6.40971784e-06  6.40648693e+00  6.40971784e-06  7.00657744e-01  6.40971784e-06  4.27686876e-05  6.40971784e-06  2.73876843e-04 
 6.50971784e-06  6.50971784e+00  6.50971784e-06  6.43566248e-03  6.50971784e-06  6.50637084e+00  6.50971784e-06  7.02744389e-01  6.50971784e-06  4.36245260e-05  6.50971784e-06  2.83702603e-04 
 6.60971784e-06  6.60971784e+00  6.60971784e-06  6.84787576e-03  6.60971784e-06  6.60625246e+00  6.60971784e-06  7.04791335e-01  6.60971784e-06  4.64264279e-05  6.60971784e-06  3.06547666e-04 
 6.70971784e-06  6.70971784e+00  6.70971784e-06  7.27814585e-03  6.70971784e-06  6.70613464e+00  6.70971784e-06  7.06807312e-01  6.70971784e-06  4.73450836e-05  6.70971784e-06  3.17327567e-04 
 6.80971784e-06  6.80971784e+00  6.80971784e-06  7.72671354e-03  6.80971784e-06  6.80601431e+00  6.80971784e-06  7.08789793e-01  6.80971784e-06  5.01944022e-05  6.80971784e-06  3.41421878e-04 
 6.90971784e-06  6.90971784e+00  6.90971784e-06  8.19381099e-03  6.90971784e-06  6.90589493e+00  6.90971784e-06  7.10746251e-01  6.90971784e-06  5.11725004e-05  6.90971784e-06  3.53168241e-04 
 7.00000000e-06  7.00000000e+00  7.00000000e-06  8.63161210e-03  7.00000000e-06  6.99606684e+00  7.00000000e-06  7.12487809e-01  7.00000000e-06  5.38753128e-05  7.00000000e-06  3.76662159e-04 
 7.01000000e-06  7.00000000e+00  7.01000000e-06  8.68087726e-03  7.01000000e-06  6.99608089e+00  7.01000000e-06  7.12676807e-01  7.01000000e-06  5.27503711e-05  7.01000000e-06  3.68794679e-04 
 7.03000000e-06  7.00000000e+00  7.03000000e-06  8.77976825e-03  7.03000000e-06  6.99605376e+00  7.03000000e-06  7.13049566e-01  7.03000000e-06  5.30773930e-05  7.03000000e-06  3.71075743e-04 
 7.07000000e-06  7.00000000e+00  7.07000000e-06  8.97965729e-03  7.07000000e-06  6.99600117e+00  7.07000000e-06  7.13769719e-01  7.07000000e-06  5.37329707e-05  7.07000000e-06  3.75648291e-04 
 7.15000000e-06  7.00000000e+00  7.15000000e-06  9.38724327e-03  7.15000000e-06  6.99590600e+00  7.15000000e-06  7.15116329e-01  7.15000000e-06  5.49003820e-05  7.15000000e-06  3.83787311e-04 
 7.25000000e-06  7.00000000e+00  7.25000000e-06  9.90986261e-03  7.25000000e-06  6.99580219e+00  7.25000000e-06  7.16642265e-01  7.25000000e-06  5.61903047e-05  7.25000000e-06  3.92775295e-04 
 7.35000000e-06  7.00000000e+00  7.35000000e-06  1.04451298e-02  7.35000000e-06  6.99571435e+00  7.35000000e-06  7.18017994e-01  7.35000000e-06  5.72706475e-05  7.35000000e-06  4.00296333e-04 
 7.45000000e-06  7.00000000e+00  7.45000000e-06  1.09911431e-02  7.45000000e-06  6.99563933e+00  7.45000000e-06  7.19267564e-01  7.45000000e-06  5.82077094e-05  7.45000000e-06  4.06814197e-04 
 7.55000000e-06  7.00000000e+00  7.55000000e-06  1.15462643e-02  7.55000000e-06  6.99557633e+00  7.55000000e-06  7.20411819e-01  7.55000000e-06  5.89831311e-05  7.55000000e-06  4.12200883e-04 
 7.65000000e-06  7.00000000e+00  7.65000000e-06  1.21090869e-02  7.65000000e-06  6.99552267e+00  7.65000000e-06  7.21467959e-01  7.65000000e-06  5.96574772e-05  7.65000000e-06  4.16879943e-04 
 7.75000000e-06  7.00000000e+00  7.75000000e-06  1.26784071e-02  7.75000000e-06  6.99547798e+00  7.75000000e-06  7.22450608e-01  7.75000000e-06  6.02076519e-05  7.75000000e-06  4.20690226e-04 
 7.85000000e-06  7.00000000e+00  7.85000000e-06  1.32531974e-02  7.85000000e-06  6.99543996e+00  7.85000000e-06  7.23371672e-01  7.85000000e-06  6.06891491e-05  7.85000000e-06  4.24019719e-04 
 7.95000000e-06  7.00000000e+00  7.95000000e-06  1.38325826e-02  7.95000000e-06  6.99540860e+00  7.95000000e-06  7.24241297e-01  7.95000000e-06  6.10749422e-05  7.95000000e-06  4.26679771e-04 
 8.05000000e-06  7.00000000e+00  8.05000000e-06  1.44158186e-02  8.05000000e-06  6.99538191e+00  8.05000000e-06  7.25067671e-01  8.05000000e-06  6.14163444e-05  8.05000000e-06  4.29029044e-04 
 8.15000000e-06  7.00000000e+00  8.15000000e-06  1.50022743e-02  8.15000000e-06  6.99536017e+00  8.15000000e-06  7.25857848e-01  8.15000000e-06  6.16832726e-05  8.15000000e-06  4.30857519e-04 
 8.25000000e-06  7.00000000e+00  8.25000000e-06  1.55914146e-02  8.25000000e-06  6.99534165e+00  8.25000000e-06  7.26617474e-01  8.25000000e-06  6.19237026e-05  8.25000000e-06  4.32500440e-04 
