 time            v(bvdd)         time            v(pvdd)         time            v(gate)        
 1.00000000e-09  1.00000000e-03  1.00000000e-09  1.69372423e-03  1.00000000e-09  6.95723988e-04 
 1.02794897e-09  1.02794897e-03  1.02794897e-09  1.71363517e-03  1.02794897e-09  7.12486376e-04 
 1.08384692e-09  1.08384692e-03  1.08384692e-09  1.73037182e-03  1.08384692e-09  7.44592145e-04 
 1.19564281e-09  1.19564281e-03  1.19564281e-09  1.72558364e-03  1.19564281e-09  8.05323805e-04 
 1.41923459e-09  1.41923459e-03  1.41923459e-09  1.72342932e-03  1.41923459e-09  9.32710197e-04 
 1.72917605e-09  1.72917605e-03  1.72917605e-09  1.71726606e-03  1.72917605e-09  1.11785083e-03 
 2.34905898e-09  2.34905898e-03  2.34905898e-09  1.70809643e-03  2.34905898e-09  1.50155147e-03 
 3.58882483e-09  3.58882483e-03  3.58882483e-09  1.68745793e-03  3.58882483e-09  2.29922048e-03 
 6.06835654e-09  6.06835654e-03  6.06835654e-09  1.64951772e-03  6.06835654e-09  3.74939810e-03 
 1.10274200e-08  1.10274200e-02  1.10274200e-08  1.57553183e-03  1.10274200e-08  5.93597939e-03 
 1.94993889e-08  1.94993889e-02  1.94993889e-08  1.46178177e-03  1.94993889e-08  8.20629770e-03 
 3.02371283e-08  3.02371283e-02  3.02371283e-08  1.33155632e-03  3.02371283e-08  9.67241723e-03 
 4.88115208e-08  4.88115208e-02  4.88115208e-08  1.13748508e-03  4.88115208e-08  1.09597353e-02 
 6.75275249e-08  6.75275249e-02  6.75275249e-08  9.67218692e-04  6.75275249e-08  1.17509451e-02 
 8.54782657e-08  8.54782657e-02  8.54782657e-08  8.28503083e-04  8.54782657e-08  1.25400798e-02 
 1.00000000e-07  1.00000000e-01  1.00000000e-07  7.31727479e-04  1.00000000e-07  1.32523316e-02 
 1.02490225e-07  1.02490225e-01  1.02490225e-07  7.17024685e-04  1.02490225e-07  1.33734369e-02 
 1.07470676e-07  1.07470676e-01  1.07470676e-07  6.87645388e-04  1.07470676e-07  1.36197471e-02 
 1.17431577e-07  1.17431577e-01  1.17431577e-07  6.32881878e-04  1.17431577e-07  1.41219722e-02 
 1.37353380e-07  1.37353380e-01  1.37353380e-07  5.37577894e-04  1.37353380e-07  1.51573978e-02 
 1.77196985e-07  1.77196985e-01  1.77196985e-07  3.92698106e-04  1.77196985e-07  1.73549030e-02 
 2.56884196e-07  2.56884196e-01  2.56884196e-07  2.25279505e-04  2.56884196e-07  2.23329634e-02 
 3.52161020e-07  3.52161020e-01  3.52161020e-07  1.50671403e-04  3.52161020e-07  2.97275047e-02 
 4.41778295e-07  4.41778295e-01  4.41778295e-07  1.44823983e-04  4.41778295e-07  3.88230445e-02 
 5.41778295e-07  5.41778295e-01  5.41778295e-07  1.87033154e-04  5.41778295e-07  5.35607588e-02 
 6.41778295e-07  6.41778295e-01  6.41778295e-07  2.97181575e-04  6.41778295e-07  7.83777225e-02 
 7.41778295e-07  7.41778295e-01  7.41778295e-07  5.12077981e-04  7.41778295e-07  1.18676574e-01 
 8.41778295e-07  8.41778295e-01  8.41778295e-07  8.32530208e-04  8.41778295e-07  1.72807409e-01 
 9.41778295e-07  9.41778295e-01  9.41778295e-07  1.20965506e-03  9.41778295e-07  2.35234273e-01 
 1.04177830e-06  1.04177830e+00  1.04177830e-06  1.60859913e-03  1.04177830e-06  3.02453545e-01 
 1.14177830e-06  1.14177830e+00  1.14177830e-06  2.04767689e-03  1.14177830e-06  3.72776743e-01 
 1.21497245e-06  1.21497245e+00  1.21497245e-06  2.42270396e-03  1.21497245e-06  4.25409961e-01 
 1.28971262e-06  1.28971262e+00  1.28971262e-06  2.89491986e-03  1.28971262e-06  4.79973707e-01 
 1.38971262e-06  1.38971262e+00  1.38971262e-06  3.82414556e-03  1.38971262e-06  5.53356299e-01 
 1.48964882e-06  1.48964882e+00  1.48964882e-06  5.48600214e-03  1.48964882e-06  6.23763612e-01 
 1.58964882e-06  1.58964882e+00  1.58964882e-06  9.41808301e-03  1.58964882e-06  6.83982175e-01 
 1.68964882e-06  1.68964882e+00  1.68964882e-06  1.97589807e-02  1.68964882e-06  7.34982609e-01 
 1.78964882e-06  1.78964882e+00  1.78964882e-06  4.27108078e-02  1.78964882e-06  7.87302724e-01 
 1.88964882e-06  1.88964882e+00  1.88964882e-06  8.18386895e-02  1.88964882e-06  8.46427391e-01 
 1.98964882e-06  1.98964882e+00  1.98964882e-06  1.34845252e-01  1.98964882e-06  9.12219397e-01 
 2.08964882e-06  2.08964882e+00  2.08964882e-06  1.96810260e-01  2.08964882e-06  9.82390074e-01 
 2.18964882e-06  2.18964882e+00  2.18964882e-06  2.64171188e-01  2.18964882e-06  1.05517543e+00 
 2.28964882e-06  2.28964882e+00  2.28964882e-06  3.35193151e-01  2.28964882e-06  1.12966729e+00 
 2.38964882e-06  2.38964882e+00  2.38964882e-06  4.08919814e-01  2.38964882e-06  1.20541982e+00 
 2.48964882e-06  2.48964882e+00  2.48964882e-06  4.84695597e-01  2.48964882e-06  1.28211279e+00 
 2.58964882e-06  2.58964882e+00  2.58964882e-06  5.62168757e-01  2.58964882e-06  1.35958285e+00 
 2.68964882e-06  2.68964882e+00  2.68964882e-06  6.41095062e-01  2.68964882e-06  1.43770459e+00 
 2.78964882e-06  2.78964882e+00  2.78964882e-06  7.21314373e-01  2.78964882e-06  1.51640185e+00 
 2.88964882e-06  2.88964882e+00  2.88964882e-06  8.02723771e-01  2.88964882e-06  1.59559512e+00 
 2.98964882e-06  2.98964882e+00  2.98964882e-06  8.85272921e-01  2.98964882e-06  1.67522048e+00 
 3.08964882e-06  3.08964882e+00  3.08964882e-06  9.68955778e-01  3.08964882e-06  1.75520393e+00 
 3.18964882e-06  3.18964882e+00  3.18964882e-06  1.05380609e+00  3.18964882e-06  1.83548803e+00 
 3.28964882e-06  3.28964882e+00  3.28964882e-06  1.13989754e+00  3.28964882e-06  1.91601088e+00 
 3.38964882e-06  3.38964882e+00  3.38964882e-06  1.22734747e+00  3.38964882e-06  1.99672406e+00 
 3.48964882e-06  3.48964882e+00  3.48964882e-06  1.31631151e+00  3.48964882e-06  2.07757322e+00 
 3.58964882e-06  3.58964882e+00  3.58964882e-06  1.40697296e+00  3.58964882e-06  2.15851680e+00 
 3.68964882e-06  3.68964882e+00  3.68964882e-06  1.49950932e+00  3.68964882e-06  2.23951679e+00 
 3.78964882e-06  3.78964882e+00  3.78964882e-06  1.59403820e+00  3.78964882e-06  2.32056069e+00 
 3.88964882e-06  3.88964882e+00  3.88964882e-06  1.69053901e+00  3.88964882e-06  2.40165454e+00 
 3.98964882e-06  3.98964882e+00  3.98964882e-06  1.78877446e+00  3.98964882e-06  2.48283139e+00 
 4.08964882e-06  4.08964882e+00  4.08964882e-06  1.88823364e+00  4.08964882e-06  2.56413155e+00 
 4.18964882e-06  4.18964882e+00  4.18964882e-06  1.98814378e+00  4.18964882e-06  2.64563684e+00 
 4.28964882e-06  4.28964882e+00  4.28964882e-06  2.08761614e+00  4.28964882e-06  2.72748864e+00 
 4.38964882e-06  4.38964882e+00  4.38964882e-06  2.18590122e+00  4.38964882e-06  2.80985026e+00 
 4.46809995e-06  4.46809995e+00  4.46809995e-06  2.26040922e+00  4.46809995e-06  2.87595086e+00 
 4.55169927e-06  4.55169927e+00  4.55169927e-06  2.33733151e+00  4.55169927e-06  2.94627995e+00 
 4.64384945e-06  4.64384945e+00  4.64384945e-06  2.42185882e+00  4.64384945e-06  3.02385678e+00 
 4.73162615e-06  4.73162615e+00  4.73162615e-06  2.50196453e+00  4.73162615e-06  3.09829710e+00 
 4.83162615e-06  4.83162615e+00  4.83162615e-06  2.59284997e+00  4.83162615e-06  3.18303394e+00 
 4.93162615e-06  4.93162615e+00  4.93162615e-06  2.68362309e+00  4.93162615e-06  3.26819705e+00 
 5.03162615e-06  5.03162615e+00  5.03162615e-06  2.77437806e+00  5.03162615e-06  3.35330971e+00 
 5.13162615e-06  5.13162615e+00  5.13162615e-06  2.86517566e+00  5.13162615e-06  3.43878990e+00 
 5.23162615e-06  5.23162615e+00  5.23162615e-06  2.95593496e+00  5.23162615e-06  3.52426280e+00 
 5.33162615e-06  5.33162615e+00  5.33162615e-06  3.04669386e+00  5.33162615e-06  3.61004549e+00 
 5.43162615e-06  5.43162615e+00  5.43162615e-06  3.13738784e+00  5.43162615e-06  3.69585415e+00 
 5.53162615e-06  5.53162615e+00  5.53162615e-06  3.22805888e+00  5.53162615e-06  3.78192182e+00 
 5.63162615e-06  5.63162615e+00  5.63162615e-06  3.31865625e+00  5.63162615e-06  3.86804136e+00 
 5.73162615e-06  5.73162615e+00  5.73162615e-06  3.40922279e+00  5.73162615e-06  3.95437469e+00 
 5.83162615e-06  5.83162615e+00  5.83162615e-06  3.49971590e+00  5.83162615e-06  4.04078093e+00 
 5.93162615e-06  5.93162615e+00  5.93162615e-06  3.59017134e+00  5.93162615e-06  4.12736398e+00 
 6.03162615e-06  6.03162615e+00  6.03162615e-06  3.68056047e+00  6.03162615e-06  4.21403211e+00 
 6.13162615e-06  6.13162615e+00  6.13162615e-06  3.77091298e+00  6.13162615e-06  4.30084748e+00 
 6.23162615e-06  6.23162615e+00  6.23162615e-06  3.86120922e+00  6.23162615e-06  4.38775456e+00 
 6.33162615e-06  6.33162615e+00  6.33162615e-06  3.95147538e+00  6.33162615e-06  4.47478408e+00 
 6.43162615e-06  6.43162615e+00  6.43162615e-06  4.04170047e+00  6.43162615e-06  4.56190706e+00 
 6.53162615e-06  6.53162615e+00  6.53162615e-06  4.13190835e+00  6.53162615e-06  4.64913132e+00 
 6.63162615e-06  6.63162615e+00  6.63162615e-06  4.22209598e+00  6.63162615e-06  4.73644661e+00 
 6.73162615e-06  6.73162615e+00  6.73162615e-06  4.31228598e+00  6.73162615e-06  4.82384460e+00 
 6.83162615e-06  6.83162615e+00  6.83162615e-06  4.40248258e+00  6.83162615e-06  4.91132759e+00 
 6.93162615e-06  6.93162615e+00  6.93162615e-06  4.49270822e+00  6.93162615e-06  4.99887639e+00 
 7.00000000e-06  7.00000000e+00  7.00000000e-06  4.55441990e+00  7.00000000e-06  5.05878358e+00 
 7.01000000e-06  7.00000000e+00  7.01000000e-06  4.56219562e+00  7.01000000e-06  5.05895131e+00 
 7.03000000e-06  7.00000000e+00  7.03000000e-06  4.57559195e+00  7.03000000e-06  5.05924755e+00 
 7.07000000e-06  7.00000000e+00  7.07000000e-06  4.59246777e+00  7.07000000e-06  5.05971342e+00 
 7.15000000e-06  7.00000000e+00  7.15000000e-06  4.60533766e+00  7.15000000e-06  5.06039365e+00 
 7.25000000e-06  7.00000000e+00  7.25000000e-06  4.60618252e+00  7.25000000e-06  5.06099888e+00 
 7.35000000e-06  7.00000000e+00  7.35000000e-06  4.60363459e+00  7.35000000e-06  5.06149882e+00 
 7.45000000e-06  7.00000000e+00  7.45000000e-06  4.60095910e+00  7.45000000e-06  5.06194926e+00 
 7.55000000e-06  7.00000000e+00  7.55000000e-06  4.59850879e+00  7.55000000e-06  5.06236408e+00 
 7.65000000e-06  7.00000000e+00  7.65000000e-06  4.59626382e+00  7.65000000e-06  5.06275598e+00 
 7.75000000e-06  7.00000000e+00  7.75000000e-06  4.59419395e+00  7.75000000e-06  5.06311951e+00 
 7.85000000e-06  7.00000000e+00  7.85000000e-06  4.59226877e+00  7.85000000e-06  5.06346856e+00 
 7.95000000e-06  7.00000000e+00  7.95000000e-06  4.59046872e+00  7.95000000e-06  5.06379333e+00 
 8.05000000e-06  7.00000000e+00  8.05000000e-06  4.58877628e+00  8.05000000e-06  5.06410832e+00 
 8.15000000e-06  7.00000000e+00  8.15000000e-06  4.58717840e+00  8.15000000e-06  5.06440234e+00 
 8.25000000e-06  7.00000000e+00  8.25000000e-06  4.58566504e+00  8.25000000e-06  5.06468901e+00 
 8.35000000e-06  7.00000000e+00  8.35000000e-06  4.58422639e+00  8.35000000e-06  5.06495780e+00 
 8.45000000e-06  7.00000000e+00  8.45000000e-06  4.58285689e+00  8.45000000e-06  5.06522021e+00 
 8.55000000e-06  7.00000000e+00  8.55000000e-06  4.58154868e+00  8.55000000e-06  5.06546768e+00 
 8.65000000e-06  7.00000000e+00  8.65000000e-06  4.58029878e+00  8.65000000e-06  5.06570892e+00 
 8.75000000e-06  7.00000000e+00  8.75000000e-06  4.57910084e+00  8.75000000e-06  5.06593784e+00 
 8.85000000e-06  7.00000000e+00  8.85000000e-06  4.57795326e+00  8.85000000e-06  5.06616035e+00 
 8.95000000e-06  7.00000000e+00  8.95000000e-06  4.57685099e+00  8.95000000e-06  5.06637277e+00 
 9.05000000e-06  7.00000000e+00  9.05000000e-06  4.57579276e+00  9.05000000e-06  5.06657865e+00 
 9.15000000e-06  7.00000000e+00  9.15000000e-06  4.57477428e+00  9.15000000e-06  5.06677634e+00 
 9.25000000e-06  7.00000000e+00  9.25000000e-06  4.57379399e+00  9.25000000e-06  5.06696764e+00 
 9.35000000e-06  7.00000000e+00  9.35000000e-06  4.57284859e+00  9.35000000e-06  5.06715214e+00 
 9.45000000e-06  7.00000000e+00  9.45000000e-06  4.57193657e+00  9.45000000e-06  5.06733055e+00 
 9.55000000e-06  7.00000000e+00  9.55000000e-06  4.57105562e+00  9.55000000e-06  5.06750311e+00 
 9.65000000e-06  7.00000000e+00  9.65000000e-06  4.57020427e+00  9.65000000e-06  5.06767000e+00 
 9.75000000e-06  7.00000000e+00  9.75000000e-06  4.56938085e+00  9.75000000e-06  5.06783168e+00 
 9.85000000e-06  7.00000000e+00  9.85000000e-06  4.56858391e+00  9.85000000e-06  5.06798820e+00 
 9.95000000e-06  7.00000000e+00  9.95000000e-06  4.56781214e+00  9.95000000e-06  5.06813997e+00 
 1.00072216e-05  7.00000000e+00  1.00072216e-05  4.56738136e+00  1.00072216e-05  5.06822469e+00 
 1.00515522e-05  7.00000000e+00  1.00515522e-05  4.56705292e+00  1.00515522e-05  5.06828930e+00 
 1.01077747e-05  7.00000000e+00  1.01077747e-05  4.56664273e+00  1.01077747e-05  5.06837005e+00 
 1.02077747e-05  7.00000000e+00  1.02077747e-05  4.56593017e+00  1.02077747e-05  5.06851032e+00 
 1.03077747e-05  7.00000000e+00  1.03077747e-05  4.56523856e+00  1.03077747e-05  5.06864656e+00 
 1.04077747e-05  7.00000000e+00  1.04077747e-05  4.56456694e+00  1.04077747e-05  5.06877884e+00 
 1.05077747e-05  7.00000000e+00  1.05077747e-05  4.56391437e+00  1.05077747e-05  5.06890743e+00 
 1.06077747e-05  7.00000000e+00  1.06077747e-05  4.56327998e+00  1.06077747e-05  5.06903240e+00 
 1.07077747e-05  7.00000000e+00  1.07077747e-05  4.56266296e+00  1.07077747e-05  5.06915398e+00 
 1.08077747e-05  7.00000000e+00  1.08077747e-05  4.56206251e+00  1.08077747e-05  5.06927225e+00 
 1.09077747e-05  7.00000000e+00  1.09077747e-05  4.56147791e+00  1.09077747e-05  5.06938740e+00 
 1.10077747e-05  7.00000000e+00  1.10077747e-05  4.56090845e+00  1.10077747e-05  5.06949951e+00 
 1.11077747e-05  7.00000000e+00  1.11077747e-05  4.56035350e+00  1.11077747e-05  5.06960874e+00 
 1.12077747e-05  7.00000000e+00  1.12077747e-05  4.55981242e+00  1.12077747e-05  5.06971519e+00 
 1.13077747e-05  7.00000000e+00  1.13077747e-05  4.55928462e+00  1.13077747e-05  5.06981897e+00 
 1.14077747e-05  7.00000000e+00  1.14077747e-05  4.55876955e+00  1.14077747e-05  5.06992019e+00 
 1.15077747e-05  7.00000000e+00  1.15077747e-05  4.55826667e+00  1.15077747e-05  5.07001894e+00 
 1.16077747e-05  7.00000000e+00  1.16077747e-05  4.55777548e+00  1.16077747e-05  5.07011535e+00 
 1.17077747e-05  7.00000000e+00  1.17077747e-05  4.55729550e+00  1.17077747e-05  5.07020945e+00 
 1.18077747e-05  7.00000000e+00  1.18077747e-05  4.55682627e+00  1.18077747e-05  5.07030140e+00 
 1.19077747e-05  7.00000000e+00  1.19077747e-05  4.55636736e+00  1.19077747e-05  5.07039120e+00 
 1.20077747e-05  7.00000000e+00  1.20077747e-05  4.55591834e+00  1.20077747e-05  5.07047903e+00 
 1.21077747e-05  7.00000000e+00  1.21077747e-05  4.55547883e+00  1.21077747e-05  5.07056485e+00 
 1.22077747e-05  7.00000000e+00  1.22077747e-05  4.55504844e+00  1.22077747e-05  5.07064887e+00 
 1.23077747e-05  7.00000000e+00  1.23077747e-05  4.55462682e+00  1.23077747e-05  5.07073100e+00 
 1.24077747e-05  7.00000000e+00  1.24077747e-05  4.55421361e+00  1.24077747e-05  5.07081148e+00 
 1.25077747e-05  7.00000000e+00  1.25077747e-05  4.55380850e+00  1.25077747e-05  5.07089019e+00 
 1.26077747e-05  7.00000000e+00  1.26077747e-05  4.55341116e+00  1.26077747e-05  5.07096739e+00 
 1.27077747e-05  7.00000000e+00  1.27077747e-05  4.55302130e+00  1.27077747e-05  5.07104293e+00 
 1.28077747e-05  7.00000000e+00  1.28077747e-05  4.55263861e+00  1.28077747e-05  5.07111707e+00 
 1.29077747e-05  7.00000000e+00  1.29077747e-05  4.55226283e+00  1.29077747e-05  5.07118966e+00 
 1.30077747e-05  7.00000000e+00  1.30077747e-05  4.55189369e+00  1.30077747e-05  5.07126097e+00 
 1.31077747e-05  7.00000000e+00  1.31077747e-05  4.55153095e+00  1.31077747e-05  5.07133082e+00 
 1.32077747e-05  7.00000000e+00  1.32077747e-05  4.55117435e+00  1.32077747e-05  5.07139949e+00 
 1.33077747e-05  7.00000000e+00  1.33077747e-05  4.55082366e+00  1.33077747e-05  5.07146678e+00 
 1.34077747e-05  7.00000000e+00  1.34077747e-05  4.55047866e+00  1.34077747e-05  5.07153300e+00 
 1.35077747e-05  7.00000000e+00  1.35077747e-05  4.55013915e+00  1.35077747e-05  5.07159792e+00 
 1.36077747e-05  7.00000000e+00  1.36077747e-05  4.54980490e+00  1.36077747e-05  5.07166185e+00 
 1.37077747e-05  7.00000000e+00  1.37077747e-05  4.54947573e+00  1.37077747e-05  5.07172455e+00 
 1.38077747e-05  7.00000000e+00  1.38077747e-05  4.54915144e+00  1.38077747e-05  5.07178636e+00 
 1.39077747e-05  7.00000000e+00  1.39077747e-05  4.54883187e+00  1.39077747e-05  5.07184699e+00 
 1.40077747e-05  7.00000000e+00  1.40077747e-05  4.54851682e+00  1.40077747e-05  5.07190681e+00 
 1.41077747e-05  7.00000000e+00  1.41077747e-05  4.54820614e+00  1.41077747e-05  5.07196551e+00 
 1.42077747e-05  7.00000000e+00  1.42077747e-05  4.54789967e+00  1.42077747e-05  5.07202348e+00 
 1.43077747e-05  7.00000000e+00  1.43077747e-05  4.54759726e+00  1.43077747e-05  5.07208038e+00 
 1.44077747e-05  7.00000000e+00  1.44077747e-05  4.54729874e+00  1.44077747e-05  5.07213661e+00 
 1.45077747e-05  7.00000000e+00  1.45077747e-05  4.54700400e+00  1.45077747e-05  5.07219182e+00 
 1.46077747e-05  7.00000000e+00  1.46077747e-05  4.54671289e+00  1.46077747e-05  5.07224643e+00 
 1.47077747e-05  7.00000000e+00  1.47077747e-05  4.54642529e+00  1.47077747e-05  5.07230007e+00 
 1.48077747e-05  7.00000000e+00  1.48077747e-05  4.54614105e+00  1.48077747e-05  5.07235316e+00 
 1.49077747e-05  7.00000000e+00  1.49077747e-05  4.54586008e+00  1.49077747e-05  5.07240533e+00 
 1.50077747e-05  7.00000000e+00  1.50077747e-05  4.54558226e+00  1.50077747e-05  5.07245699e+00 
 1.51077747e-05  7.00000000e+00  1.51077747e-05  4.54530747e+00  1.51077747e-05  5.07250778e+00 
 1.52077747e-05  7.00000000e+00  1.52077747e-05  4.54503560e+00  1.52077747e-05  5.07255811e+00 
 1.53077747e-05  7.00000000e+00  1.53077747e-05  4.54476657e+00  1.53077747e-05  5.07260760e+00 
 1.54077747e-05  7.00000000e+00  1.54077747e-05  4.54450027e+00  1.54077747e-05  5.07265668e+00 
 1.55077747e-05  7.00000000e+00  1.55077747e-05  4.54423662e+00  1.55077747e-05  5.07270495e+00 
 1.56077747e-05  7.00000000e+00  1.56077747e-05  4.54397551e+00  1.56077747e-05  5.07275285e+00 
 1.57077747e-05  7.00000000e+00  1.57077747e-05  4.54371688e+00  1.57077747e-05  5.07279997e+00 
 1.58077747e-05  7.00000000e+00  1.58077747e-05  4.54346063e+00  1.58077747e-05  5.07284677e+00 
 1.59077747e-05  7.00000000e+00  1.59077747e-05  4.54320669e+00  1.59077747e-05  5.07289282e+00 
 1.60077747e-05  7.00000000e+00  1.60077747e-05  4.54295499e+00  1.60077747e-05  5.07293857e+00 
 1.61077747e-05  7.00000000e+00  1.61077747e-05  4.54270546e+00  1.61077747e-05  5.07298360e+00 
 1.62077747e-05  7.00000000e+00  1.62077747e-05  4.54245802e+00  1.62077747e-05  5.07302837e+00 
 1.63077747e-05  7.00000000e+00  1.63077747e-05  4.54221262e+00  1.63077747e-05  5.07307244e+00 
 1.64077747e-05  7.00000000e+00  1.64077747e-05  4.54196919e+00  1.64077747e-05  5.07311628e+00 
 1.65077747e-05  7.00000000e+00  1.65077747e-05  4.54172768e+00  1.65077747e-05  5.07315945e+00 
 1.66077747e-05  7.00000000e+00  1.66077747e-05  4.54148803e+00  1.66077747e-05  5.07320241e+00 
 1.67077747e-05  7.00000000e+00  1.67077747e-05  4.54125018e+00  1.67077747e-05  5.07324472e+00 
 1.68077747e-05  7.00000000e+00  1.68077747e-05  4.54101409e+00  1.68077747e-05  5.07328685e+00 
 1.69077747e-05  7.00000000e+00  1.69077747e-05  4.54077972e+00  1.69077747e-05  5.07332834e+00 
 1.70077747e-05  7.00000000e+00  1.70077747e-05  4.54054701e+00  1.70077747e-05  5.07336968e+00 
 1.71077747e-05  7.00000000e+00  1.71077747e-05  4.54031592e+00  1.71077747e-05  5.07341040e+00 
 1.72077747e-05  7.00000000e+00  1.72077747e-05  4.54008641e+00  1.72077747e-05  5.07345098e+00 
 1.73077747e-05  7.00000000e+00  1.73077747e-05  4.53985846e+00  1.73077747e-05  5.07349097e+00 
 1.74077747e-05  7.00000000e+00  1.74077747e-05  4.53963201e+00  1.74077747e-05  5.07353083e+00 
 1.75077747e-05  7.00000000e+00  1.75077747e-05  4.53940704e+00  1.75077747e-05  5.07357011e+00 
 1.76077747e-05  7.00000000e+00  1.76077747e-05  4.53918353e+00  1.76077747e-05  5.07360929e+00 
 1.77077747e-05  7.00000000e+00  1.77077747e-05  4.53896143e+00  1.77077747e-05  5.07364790e+00 
 1.78077747e-05  7.00000000e+00  1.78077747e-05  4.53874072e+00  1.78077747e-05  5.07368642e+00 
 1.79077747e-05  7.00000000e+00  1.79077747e-05  4.53852138e+00  1.79077747e-05  5.07372438e+00 
 1.80077747e-05  7.00000000e+00  1.80077747e-05  4.53830340e+00  1.80077747e-05  5.07376227e+00 
