 time            v(bvdd)         time            v(pvdd)         time            v(gate)         time            v(ea_out)       time            v(startup_done) time            v(ea_en)       
 1.00000000e-09  1.00000000e-03  1.00000000e-09  1.59256472e-04  1.00000000e-09  6.72423229e-04  1.00000000e-09 -1.16191885e-03  1.00000000e-09  5.89484289e-04  1.00000000e-09  7.14957605e-06 
 1.02795849e-09  1.02795849e-03  1.02795849e-09  1.61113966e-04  1.02795849e-09  6.90341702e-04  1.02795849e-09 -1.20022669e-03  1.02795849e-09  6.05850054e-04  1.02795849e-09  7.34543549e-06 
 1.08387548e-09  1.08387548e-03  1.08387548e-09  1.62688735e-04  1.08387548e-09  7.25447774e-04  1.08387548e-09 -1.25051338e-03  1.08387548e-09  6.38640160e-04  1.08387548e-09  7.74029020e-06 
 1.19570944e-09  1.19570944e-03  1.19570944e-09  1.62382213e-04  1.19570944e-09  7.94565901e-04  1.19570944e-09 -1.33524848e-03  1.19570944e-09  7.04172201e-04  1.19570944e-09  8.53191841e-06 
 1.41937738e-09  1.41937738e-03  1.41937738e-09  1.62518294e-04  1.41937738e-09  9.33520222e-04  1.41937738e-09 -1.45117002e-03  1.41937738e-09  8.35563031e-04  1.41937738e-09  1.01244501e-05 
 1.71205956e-09  1.71205956e-03  1.71205956e-09  1.62378133e-04  1.71205956e-09  1.11614255e-03  1.71205956e-09 -1.51114493e-03  1.71205956e-09  1.00799680e-03  1.71205956e-09  1.22251050e-05 
 2.29742392e-09  2.29742392e-03  2.29742392e-09  1.62411019e-04  2.29742392e-09  1.48449154e-03  2.29742392e-09 -1.46389586e-03  2.29742392e-09  1.35379119e-03  2.29742392e-09  1.64690739e-05 
 3.46815264e-09  3.46815264e-03  3.46815264e-09  1.62217775e-04  3.46815264e-09  2.23251838e-03  3.46815264e-09 -1.12473147e-03  3.46815264e-09  2.04682794e-03  3.46815264e-09  2.50770534e-05 
 5.80961008e-09  5.80961008e-03  5.80961008e-09  1.62084882e-04  5.80961008e-09  3.77020480e-03  5.80961008e-09 -5.11643033e-04  5.80961008e-09  3.43569549e-03  5.80961008e-09  4.25998594e-05 
 1.04925250e-08  1.04925250e-02  1.04925250e-08  1.61629839e-04  1.04925250e-08  6.98565586e-03  1.04925250e-08 -4.18182423e-05  1.04925250e-08  6.22341103e-03  1.04925250e-08  7.84064773e-05 
 1.92275526e-08  1.92275526e-02  1.92275526e-08  1.61032871e-04  1.92275526e-08  1.33576854e-02  1.92275526e-08  2.18802942e-05  1.92275526e-08  1.14747513e-02  1.92275526e-08  1.46710979e-04 
 3.00291314e-08  3.00291314e-02  3.00291314e-08  1.60148530e-04  3.00291314e-08  2.17087549e-02  3.00291314e-08  1.72790121e-05  3.00291314e-08  1.80729823e-02  3.00291314e-08  2.32573648e-04 
 5.12874074e-08  5.12874074e-02  5.12874074e-08  1.58679089e-04  5.12874074e-08  3.91308606e-02  5.12874074e-08  2.97155757e-05  5.12874074e-08  3.13334295e-02  5.12874074e-08  4.03456362e-04 
 9.38039595e-08  9.38039595e-02  9.38039595e-08  1.55717197e-04  9.38039595e-08  7.64137829e-02  9.38039595e-08  4.37387508e-05  9.38039595e-08  5.82453983e-02  9.38039595e-08  7.42435402e-04 
 1.00000000e-07  1.00000000e-01  1.00000000e-07  1.55386774e-04  1.00000000e-07  8.20582846e-02  1.00000000e-07  4.41033899e-05  1.00000000e-07  6.21557134e-02  1.00000000e-07  7.90903108e-04 
 1.08323244e-07  1.08323244e-01  1.08323244e-07  1.54818786e-04  1.08323244e-07  8.97286740e-02  1.08323244e-07  4.70981904e-05  1.08323244e-07  6.73752878e-02  1.08323244e-07  8.54558546e-04 
 1.24969731e-07  1.24969731e-01  1.24969731e-07  1.53762758e-04  1.24969731e-07  1.05188678e-01  1.24969731e-07  5.05446748e-05  1.24969731e-07  7.77790455e-02  1.24969731e-07  9.79149288e-04 
 1.58262705e-07  1.58262705e-01  1.58262705e-07  1.51696951e-04  1.58262705e-07  1.36686229e-01  1.58262705e-07  5.50736058e-05  1.58262705e-07  9.82198080e-02  1.58262705e-07  1.20827609e-03 
 2.24848653e-07  2.24848653e-01  2.24848653e-07  1.47672804e-04  2.24848653e-07  2.01196296e-01  2.24848653e-07  6.30908796e-05  2.24848653e-07  1.36982984e-01  2.24848653e-07  1.57162812e-03 
 3.24848653e-07  3.24848653e-01  3.24848653e-07  1.41738877e-04  3.24848653e-07  3.00041386e-01  3.24848653e-07  7.11866173e-05  3.24848653e-07  1.86715512e-01  3.24848653e-07  1.90235519e-03 
 4.24848653e-07  4.24848653e-01  4.24848653e-07  1.35823200e-04  4.24848653e-07  3.99812238e-01  4.24848653e-07  7.90322025e-05  4.24848653e-07  2.19786302e-01  4.24848653e-07  2.05604198e-03 
 5.24848653e-07  5.24848653e-01  5.24848653e-07  1.29883252e-04  5.24848653e-07  4.99823590e-01  5.24848653e-07  8.73285900e-05  5.24848653e-07  2.26110347e-01  5.24848653e-07  2.12146997e-03 
 6.24848653e-07  6.24848653e-01  6.24848653e-07  1.23909659e-04  6.24848653e-07  5.99893571e-01  6.24848653e-07  9.64538747e-05  6.24848653e-07  1.93400557e-01  6.24848653e-07  2.14838908e-03 
 7.24848653e-07  7.24848653e-01  7.24848653e-07  1.17896814e-04  7.24848653e-07  7.00003722e-01  7.24848653e-07  1.04992244e-04  7.24848653e-07  9.94944622e-02  7.24848653e-07  2.15942902e-03 
 8.24848653e-07  8.24848653e-01  8.24848653e-07  1.11829165e-04  8.24848653e-07  8.00279647e-01  8.24848653e-07  1.09851443e-04  8.24848653e-07  9.84069274e-03  8.24848653e-07  2.16408129e-03 
 9.24848653e-07  9.24848653e-01  9.24848653e-07  1.05671376e-04  9.24848653e-07  9.01683964e-01  9.24848653e-07  1.00662304e-04  9.24848653e-07  5.14066664e-04  9.24848653e-07  2.16620521e-03 
 1.02484865e-06  1.02484865e+00  1.02484865e-06  9.93305499e-05  1.02484865e-06  1.00403311e+00  1.02484865e-06  7.42305572e-05  1.02484865e-06 -7.59288901e-05  1.02484865e-06  2.16725935e-03 
 1.12484865e-06  1.12484865e+00  1.12484865e-06  9.29812607e-05  1.12484865e-06  1.10189252e+00  1.12484865e-06  9.42273915e-05  1.12484865e-06  2.25815103e-04  1.12484865e-06  2.16781621e-03 
 1.22484865e-06  1.22484865e+00  1.22484865e-06  8.67610910e-05  1.22484865e-06  1.20073326e+00  1.22484865e-06  8.57802265e-05  1.22484865e-06 -3.99464129e-05  1.22484865e-06  2.16819772e-03 
 1.32484865e-06  1.32484865e+00  1.32484865e-06  8.05285187e-05  1.32484865e-06  1.30058196e+00  1.32484865e-06  9.50282277e-05  1.32484865e-06  1.49518625e-04  1.32484865e-06  2.16851973e-03 
 1.42484865e-06  1.42484865e+00  1.42484865e-06  7.42824513e-05  1.42484865e-06  1.40031936e+00  1.42484865e-06  8.95282164e-05  1.42484865e-06 -2.61725657e-05  1.42484865e-06  2.16881266e-03 
 1.52484865e-06  1.52484865e+00  1.52484865e-06  6.80210887e-05  1.52484865e-06  1.50034022e+00  1.52484865e-06  9.69710634e-05  1.52484865e-06  1.12468359e-04  1.52484865e-06  2.16909714e-03 
 1.62484865e-06  1.62484865e+00  1.62484865e-06  6.17424296e-05  1.62484865e-06  1.60018940e+00  1.62484865e-06  9.23889543e-05  1.62484865e-06 -1.90882699e-05  1.62484865e-06  2.16937599e-03 
 1.72484865e-06  1.72484865e+00  1.72484865e-06  5.54554815e-05  1.72484865e-06  1.70017258e+00  1.72484865e-06  9.91398587e-05  1.72484865e-06  9.06894810e-05  1.72484865e-06  2.16965410e-03 
 1.82484865e-06  1.82484865e+00  1.82484865e-06  4.91690021e-05  1.82484865e-06  1.79995923e+00  1.82484865e-06  9.50280605e-05  1.82484865e-06 -1.48211678e-05  1.82484865e-06  2.16993065e-03 
 1.92484865e-06  1.92484865e+00  1.92484865e-06  4.29104747e-05  1.92484865e-06  1.89970715e+00  1.92484865e-06  1.01405329e-04  1.92484865e-06  7.63893177e-05  1.92484865e-06  2.17020747e-03 
 2.02484865e-06  2.02484865e+00  2.02484865e-06  3.67116909e-05  2.02484865e-06  1.99905461e+00  2.02484865e-06  9.76282963e-05  2.02484865e-06 -1.21459651e-05  2.02484865e-06  2.17048359e-03 
 2.12484865e-06  2.12484865e+00  2.12484865e-06  3.06297154e-05  2.12484865e-06  2.09799589e+00  2.12484865e-06  1.03880994e-04  2.12484865e-06  6.61807804e-05  2.12484865e-06  2.17076003e-03 
 2.22484865e-06  2.22484865e+00  2.22484865e-06  2.47408730e-05  2.22484865e-06  2.19612911e+00  2.22484865e-06  1.00551779e-04  2.22484865e-06 -1.00752846e-05  2.22484865e-06  2.17103610e-03 
 2.32484865e-06  2.32484865e+00  2.32484865e-06  1.91569412e-05  2.32484865e-06  2.29336606e+00  2.32484865e-06  1.07057863e-04  2.32484865e-06  5.87272180e-05  2.32484865e-06  2.17131253e-03 
 2.42484865e-06  2.42484865e+00  2.42484865e-06  1.40114024e-05  2.42484865e-06  2.38930199e+00  2.42484865e-06  1.04546282e-04  2.42484865e-06 -8.54391070e-06  2.42484865e-06  2.17158878e-03 
 2.52484865e-06  2.52484865e+00  2.52484865e-06  9.46819079e-06  2.52484865e-06  2.48383529e+00  2.52484865e-06  1.11870064e-04  2.52484865e-06  5.29694171e-05  2.52484865e-06  2.17186546e-03 
 2.62484865e-06  2.62484865e+00  2.62484865e-06  5.70411704e-06  2.62484865e-06  2.57665333e+00  2.62484865e-06  1.10768462e-04  2.62484865e-06 -7.36576060e-06  2.62484865e-06  2.17214215e-03 
 2.72484865e-06  2.72484865e+00  2.72484865e-06  2.91535188e-06  2.72484865e-06  2.66773539e+00  2.72484865e-06  1.19630982e-04  2.72484865e-06  4.83919083e-05  2.72484865e-06  2.17241939e-03 
 2.82484865e-06  2.82484865e+00  2.82484865e-06  1.30204732e-06  2.82484865e-06  2.75687715e+00  2.82484865e-06  1.20675663e-04  2.82484865e-06 -6.43112266e-06  2.82484865e-06  2.17269686e-03 
 2.92484865e-06  2.92484865e+00  2.92484865e-06  1.07660408e-06  2.92484865e-06  2.84411939e+00  2.92484865e-06  1.31887268e-04  2.92484865e-06  4.46681177e-05  2.92484865e-06  2.17297502e-03 
 3.02484865e-06  3.02484865e+00  3.02484865e-06  2.45134936e-06  3.02484865e-06  2.92932470e+00  3.02484865e-06  1.35890478e-04  3.02484865e-06 -5.67115758e-06  3.02484865e-06  2.17325361e-03 
 3.12484865e-06  3.12484865e+00  3.12484865e-06  5.64829419e-06  3.12484865e-06  3.01256431e+00  3.12484865e-06  1.50308720e-04  3.12484865e-06  4.15814102e-05  3.12484865e-06  2.17353308e-03 
 3.22484865e-06  3.22484865e+00  3.22484865e-06  1.08893069e-05  3.22484865e-06  3.09374151e+00  3.22484865e-06  1.58128268e-04  3.22484865e-06 -5.04054429e-06  3.22484865e-06  2.17381319e-03 
 3.32484865e-06  3.32484865e+00  3.32484865e-06  1.84078943e-05  3.32484865e-06  3.17294511e+00  3.32484865e-06  1.76648850e-04  3.32484865e-06  3.89825325e-05  3.32484865e-06  2.17409435e-03 
 3.42484865e-06  3.42484865e+00  3.42484865e-06  2.84436243e-05  3.42484865e-06  3.25010861e+00  3.42484865e-06  1.89195022e-04  3.42484865e-06 -4.50826484e-06  3.42484865e-06  2.17437638e-03 
 3.52484865e-06  3.52484865e+00  3.52484865e-06  4.12601550e-05  3.52484865e-06  3.32533464e+00  3.52484865e-06  2.12788269e-04  3.52484865e-06  3.67653631e-05  3.52484865e-06  2.17465967e-03 
 3.62484865e-06  3.62484865e+00  3.62484865e-06  5.71521017e-05  3.62484865e-06  3.39858322e+00  3.62484865e-06  2.31103691e-04  3.62484865e-06 -4.05239891e-06  3.62484865e-06  2.17494407e-03 
 3.72484865e-06  3.72484865e+00  3.72484865e-06  7.64853686e-05  3.72484865e-06  3.46997137e+00  3.72484865e-06  2.60976758e-04  3.72484865e-06  3.48524151e-05  3.72484865e-06  2.17523000e-03 
 3.82484865e-06  3.82484865e+00  3.82484865e-06  9.97477666e-05  3.82484865e-06  3.53948689e+00  3.82484865e-06  2.86548613e-04  3.82484865e-06 -3.65703093e-06  3.82484865e-06  2.17551740e-03 
 3.92484865e-06  3.92484865e+00  3.92484865e-06  1.27672696e-04  3.92484865e-06  3.60726694e+00  3.92484865e-06  3.24746177e-04  3.92484865e-06  3.31858086e-05  3.92484865e-06  2.17580679e-03 
 4.02484865e-06  4.02484865e+00  4.02484865e-06  1.61453800e-04  4.02484865e-06  3.67333600e+00  4.02484865e-06  3.60661697e-04  4.02484865e-06 -3.31033230e-06  4.02484865e-06  2.17609839e-03 
 4.12484865e-06  4.12484865e+00  4.12484865e-06  2.03185291e-04  4.12484865e-06  3.73786808e+00  4.12484865e-06  4.12300611e-04  4.12484865e-06  3.17214560e-05  4.12484865e-06  2.17639321e-03 
 4.22484865e-06  4.22484865e+00  4.22484865e-06  2.56690834e-04  4.22484865e-06  3.80095248e+00  4.22484865e-06  4.67574712e-04  4.22484865e-06 -3.00332634e-06  4.22484865e-06  2.17669242e-03 
 4.32484865e-06  4.32484865e+00  4.32484865e-06  3.29111207e-04  4.32484865e-06  3.86285109e+00  4.32484865e-06  5.49188128e-04  4.32484865e-06  3.04252052e-05  4.32484865e-06  2.17699886e-03 
 4.42484865e-06  4.42484865e+00  4.42484865e-06  4.33798326e-04  4.42484865e-06  3.92381436e+00  4.42484865e-06  6.54613327e-04  4.42484865e-06 -2.72906286e-06  4.42484865e-06  2.17731717e-03 
 4.52484865e-06  4.52484865e+00  4.52484865e-06  5.95228566e-04  4.52484865e-06  3.98437928e+00  4.52484865e-06  8.23307175e-04  4.52484865e-06  2.92702210e-05  4.52484865e-06  2.17765652e-03 
 4.62484865e-06  4.62484865e+00  4.62484865e-06  8.56323013e-04  4.62484865e-06  4.04526509e+00  4.62484865e-06  1.08196261e-03  4.62484865e-06 -2.48204386e-06  4.62484865e-06  2.17803251e-03 
 4.72484865e-06  4.72484865e+00  4.72484865e-06  1.28823937e-03  4.72484865e-06  4.10717424e+00  4.72484865e-06  1.51565582e-03  4.72484865e-06  2.82351754e-05  4.72484865e-06  2.17847124e-03 
 4.82484865e-06  4.82484865e+00  4.82484865e-06  2.01043715e-03  4.82484865e-06  4.16919315e+00  4.82484865e-06  2.22638804e-03  4.82484865e-06 -2.25780370e-06  4.82484865e-06  2.17901622e-03 
 4.92484865e-06  4.92484865e+00  4.92484865e-06  3.23928677e-03  4.92484865e-06  4.22945280e+00  4.92484865e-06  3.44133534e-03  4.92484865e-06  2.73029843e-05  4.92484865e-06  2.17974661e-03 
 5.02484865e-06  5.02484865e+00  5.02484865e-06  5.38009448e-03  5.02484865e-06  4.28693845e+00  5.02484865e-06  5.54350454e-03  5.02484865e-06 -2.04868459e-06  5.02484865e-06  2.18080858e-03 
 5.12484865e-06  5.12484865e+00  5.12484865e-06  9.15809596e-03  5.12484865e-06  4.34177668e+00  5.12484865e-06  9.26130940e-03  5.12484865e-06  2.64599299e-05  5.12484865e-06  2.18246483e-03 
 5.22484865e-06  5.22484865e+00  5.22484865e-06  1.57782975e-02  5.22484865e-06  4.39425066e+00  5.22484865e-06  1.57729517e-02  5.22484865e-06 -1.86307666e-06  5.22484865e-06  2.18515486e-03 
 5.32484865e-06  5.32484865e+00  5.32484865e-06  2.70578668e-02  5.32484865e-06  4.44452538e+00  5.32484865e-06  2.69096376e-02  5.32484865e-06  2.56950045e-05  5.32484865e-06  2.18953524e-03 
 5.42484865e-06  5.42484865e+00  5.42484865e-06  4.54987424e-02  5.42484865e-06  4.49199781e+00  5.42484865e-06  4.51658645e-02  5.42484865e-06 -1.68312902e-06  5.42484865e-06  2.19653380e-03 
 5.52484865e-06  5.52484865e+00  5.52484865e-06  7.46506271e-02  5.52484865e-06  4.53262777e+00  5.52484865e-06  7.40896245e-02  5.52484865e-06  2.50009666e-05  5.52484865e-06  2.20742534e-03 
 5.62484865e-06  5.62484865e+00  5.62484865e-06  1.20135154e-01  5.62484865e-06  4.55920409e+00  5.62484865e-06  1.19206225e-01  5.62484865e-06 -1.51596417e-06  5.62484865e-06  2.22412219e-03 
 5.72484865e-06  5.72484865e+00  5.72484865e-06  1.87511498e-01  5.72484865e-06  4.58395954e+00  5.72484865e-06  1.86013484e-01  5.72484865e-06  2.43681589e-05  5.72484865e-06  2.24859924e-03 
 5.82484865e-06  5.82484865e+00  5.82484865e-06  2.77670581e-01  5.82484865e-06  4.62252267e+00  5.82484865e-06  2.75270306e-01  5.82484865e-06 -1.35481175e-06  5.82484865e-06  2.28152732e-03 
 5.92484865e-06  5.92484865e+00  5.92484865e-06  3.87750480e-01  5.92484865e-06  4.67336160e+00  5.92484865e-06  3.83370161e-01  5.92484865e-06  2.37935817e-05  5.92484865e-06  2.32248741e-03 
 6.02484865e-06  6.02484865e+00  6.02484865e-06  5.14520182e-01  6.02484865e-06  4.73346392e+00  6.02484865e-06  5.07051259e-01  6.02484865e-06 -1.19584249e-06  6.02484865e-06  2.37128504e-03 
 6.12484865e-06  6.12484865e+00  6.12484865e-06  6.55157741e-01  6.12484865e-06  4.80050980e+00  6.12484865e-06  6.35109174e-01  6.12484865e-06  2.32743169e-05  6.12484865e-06  2.42710662e-03 
 6.22484865e-06  6.22484865e+00  6.22484865e-06  8.07094142e-01  6.22484865e-06  4.87391421e+00  6.22484865e-06  7.46851992e-01  6.22484865e-06 -1.03454683e-06  6.22484865e-06  2.48835140e-03 
 6.32484865e-06  6.32484865e+00  6.32484865e-06  9.66269263e-01  6.32484865e-06  4.96048198e+00  6.32484865e-06  8.36109532e-01  6.32484865e-06  2.28092388e-05  6.32484865e-06  2.55679530e-03 
 6.42484865e-06  6.42484865e+00  6.42484865e-06  1.12490490e+00  6.42484865e-06  5.07089331e+00  6.42484865e-06  9.18905233e-01  6.42484865e-06 -8.65562990e-07  6.42484865e-06  2.63468530e-03 
 6.52484865e-06  6.52484865e+00  6.52484865e-06  1.27326808e+00  6.52484865e-06  5.20510039e+00  6.52484865e-06  9.86289158e-01  6.52484865e-06  2.23990295e-05  6.52484865e-06  2.71727705e-03 
 6.62137763e-06  6.62137763e+00  6.62137763e-06  1.40046884e+00  6.62137763e-06  5.34600235e+00  6.62137763e-06  1.03168490e+00  6.62137763e-06 -6.83651835e-07  6.62137763e-06  2.79576987e-03 
 6.72137763e-06  6.72137763e+00  6.72137763e-06  1.51442573e+00  6.72137763e-06  5.49137560e+00  6.72137763e-06  1.07409738e+00  6.72137763e-06  2.20496856e-05  6.72137763e-06  2.87282832e-03 
 6.82137763e-06  6.82137763e+00  6.82137763e-06  1.61282121e+00  6.82137763e-06  5.62897625e+00  6.82137763e-06  1.11419086e+00  6.82137763e-06 -4.79302766e-07  6.82137763e-06  2.94368169e-03 
 6.92137763e-06  6.92137763e+00  6.92137763e-06  1.69957602e+00  6.92137763e-06  5.75672355e+00  6.92137763e-06  1.15335801e+00  6.92137763e-06  2.17572568e-05  6.92137763e-06  3.00810464e-03 
 7.00000000e-06  7.00000000e+00  7.00000000e-06  1.76198719e+00  7.00000000e-06  5.85074217e+00  7.00000000e-06  1.17956467e+00  7.00000000e-06 -2.58666077e-07  7.00000000e-06  3.05439157e-03 
 7.01000000e-06  7.00000000e+00  7.01000000e-06  1.76955191e+00  7.01000000e-06  5.85403625e+00  7.01000000e-06  1.18375155e+00  7.01000000e-06  1.79506131e-06  7.01000000e-06  3.06006515e-03 
 7.03000000e-06  7.00000000e+00  7.03000000e-06  1.78446007e+00  7.03000000e-06  5.86023921e+00  7.03000000e-06  1.19060016e+00  7.03000000e-06  1.85622849e-06  7.03000000e-06  3.07117100e-03 
 7.07000000e-06  7.00000000e+00  7.07000000e-06  1.81308746e+00  7.07000000e-06  5.87073333e+00  7.07000000e-06  1.20337501e+00  7.07000000e-06  1.79911788e-06  7.07000000e-06  3.09256241e-03 
 7.15000000e-06  7.00000000e+00  7.15000000e-06  1.86655644e+00  7.15000000e-06  5.88697298e+00  7.15000000e-06  1.22787372e+00  7.15000000e-06  1.85607793e-06  7.15000000e-06  3.13263315e-03 
 7.25000000e-06  7.00000000e+00  7.25000000e-06  1.92769570e+00  7.25000000e-06  5.90336579e+00  7.25000000e-06  1.25599976e+00  7.25000000e-06  1.79922283e-06  7.25000000e-06  3.17825803e-03 
 7.35000000e-06  7.00000000e+00  7.35000000e-06  1.98336440e+00  7.35000000e-06  5.91938884e+00  7.35000000e-06  1.28211858e+00  7.35000000e-06  1.85598413e-06  7.35000000e-06  3.21955877e-03 
 7.45000000e-06  7.00000000e+00  7.45000000e-06  2.03373059e+00  7.45000000e-06  5.93649689e+00  7.45000000e-06  1.30567500e+00  7.45000000e-06  1.79931689e-06  7.45000000e-06  3.25683492e-03 
 7.55000000e-06  7.00000000e+00  7.55000000e-06  2.07879326e+00  7.55000000e-06  5.95454141e+00  7.55000000e-06  1.32705113e+00  7.55000000e-06  1.85588979e-06  7.55000000e-06  3.29032624e-03 
 7.65000000e-06  7.00000000e+00  7.65000000e-06  2.11869489e+00  7.65000000e-06  5.97286685e+00  7.65000000e-06  1.34580764e+00  7.65000000e-06  1.79941151e-06  7.65000000e-06  3.32020617e-03 
 7.75000000e-06  7.00000000e+00  7.75000000e-06  2.15376151e+00  7.75000000e-06  5.99082069e+00  7.75000000e-06  1.36252086e+00  7.75000000e-06  1.85579492e-06  7.75000000e-06  3.34675962e-03 
 7.85000000e-06  7.00000000e+00  7.85000000e-06  2.18444614e+00  7.85000000e-06  6.00793232e+00  7.85000000e-06  1.37696189e+00  7.85000000e-06  1.79950662e-06  7.85000000e-06  3.37024750e-03 
 7.95000000e-06  7.00000000e+00  7.95000000e-06  2.21125561e+00  7.95000000e-06  6.02393420e+00  7.95000000e-06  1.38978355e+00  7.95000000e-06  1.85569957e-06  7.95000000e-06  3.39101622e-03 
 8.05000000e-06  7.00000000e+00  8.05000000e-06  2.23469361e+00  8.05000000e-06  6.03871644e+00  8.05000000e-06  1.40081494e+00  8.05000000e-06  1.79960219e-06  8.05000000e-06  3.40935026e-03 
 8.15000000e-06  7.00000000e+00  8.15000000e-06  2.25522656e+00  8.15000000e-06  6.05227442e+00  8.15000000e-06  1.41066594e+00  8.15000000e-06  1.85560380e-06  8.15000000e-06  3.42557849e-03 
 8.25000000e-06  7.00000000e+00  8.25000000e-06  2.27326827e+00  8.25000000e-06  6.06466177e+00  8.25000000e-06  1.41915081e+00  8.25000000e-06  1.79969816e-06  8.25000000e-06  3.43994566e-03 
