 time            v(bvdd)         time            v(pvdd)         time            v(gate)         time            v(ea_out)       time            v(startup_done) time            v(ea_en)       
 1.00000000e-09  1.00000000e-03  1.00000000e-09  1.82052192e-04  1.00000000e-09  7.86538095e-04  1.00000000e-09 -2.31157951e-03  1.00000000e-09  6.73254120e-04  1.00000000e-09  7.11591839e-06 
 1.02794806e-09  1.02794806e-03  1.02794806e-09  1.84236504e-04  1.02794806e-09  8.07818414e-04  1.02794806e-09 -2.35783968e-03  1.02794806e-09  6.92122575e-04  1.02794806e-09  7.31627356e-06 
 1.08384417e-09  1.08384417e-03  1.08384417e-09  1.86125732e-04  1.08384417e-09  8.49817839e-04  1.08384417e-09 -2.41339013e-03  1.08384417e-09  7.29890498e-04  1.08384417e-09  7.71840750e-06 
 1.19563640e-09  1.19563640e-03  1.19563640e-09  1.85777761e-04  1.19563640e-09  9.32912678e-04  1.19563640e-09 -2.47116946e-03  1.19563640e-09  8.05487113e-04  1.19563640e-09  8.52500606e-06 
 1.41922086e-09  1.41922086e-03  1.41922086e-09  1.85875577e-04  1.41922086e-09  1.09945398e-03  1.41922086e-09 -2.43353737e-03  1.41922086e-09  9.56951371e-04  1.41922086e-09  1.01490052e-05 
 1.72904794e-09  1.72904794e-03  1.72904794e-09  1.85671072e-04  1.72904794e-09  1.33049843e-03  1.72904794e-09 -2.21241678e-03  1.72904794e-09  1.16726073e-03  1.72904794e-09  1.24156626e-05 
 2.34870212e-09  2.34870212e-03  2.34870212e-09  1.85588240e-04  2.34870212e-09  1.79376256e-03  2.34870212e-09 -1.67470547e-03  2.34870212e-09  1.58886356e-03  2.34870212e-09  1.69840304e-05 
 3.58801047e-09  3.58801047e-03  3.58801047e-09  1.85162853e-04  3.58801047e-09  2.72437557e-03  3.58801047e-09 -8.45475060e-04  3.58801047e-09  2.43522036e-03  3.58801047e-09  2.62184537e-05 
 6.06662718e-09  6.06662718e-03  6.06662718e-09  1.84580453e-04  6.06662718e-09  4.60113975e-03  6.06662718e-09 -1.11928756e-04  6.06662718e-09  4.13934624e-03  6.06662718e-09  4.49784276e-05 
 1.10238606e-08  1.10238606e-02  1.10238606e-08  1.83209853e-04  1.10238606e-08  8.41028759e-03  1.10238606e-08  1.13267859e-04  1.10238606e-08  7.58731627e-03  1.10238606e-08  8.32805847e-05 
 1.81746852e-08  1.81746852e-02  1.81746852e-08  1.81443969e-04  1.81746852e-08  1.40191366e-02  1.81746852e-08  8.14621375e-05  1.81746852e-08  1.26319424e-02  1.81746852e-08  1.39587456e-04 
 3.05808829e-08  3.05808829e-02  3.05808829e-08  1.78216671e-04  3.05808829e-08  2.40207644e-02  3.05808829e-08  8.96129294e-05  3.05808829e-08  2.15090375e-02  3.05808829e-08  2.38732494e-04 
 5.53932784e-08  5.53932784e-02  5.53932784e-08  1.72153872e-04  5.53932784e-08  4.48596226e-02  5.53932784e-08  7.97581985e-05  5.53932784e-08  3.94981478e-02  5.53932784e-08  4.39346087e-04 
 1.00000000e-07  1.00000000e-01  1.00000000e-07  1.61544415e-04  1.00000000e-07  8.44088045e-02  1.00000000e-07  7.95499914e-05  1.00000000e-07  7.21629135e-02  1.00000000e-07  7.98098720e-04 
 1.04962479e-07  1.04962479e-01  1.04962479e-07  1.60450666e-04  1.04962479e-07  8.89592033e-02  1.04962479e-07  7.64383823e-05  1.04962479e-07  7.58124106e-02  1.04962479e-07  8.37310233e-04 
 1.14887437e-07  1.14887437e-01  1.14887437e-07  1.58202329e-04  1.14887437e-07  9.81007246e-02  1.14887437e-07  7.43042595e-05  1.14887437e-07  8.31199218e-02  1.14887437e-07  9.15124225e-04 
 1.34737354e-07  1.34737354e-01  1.34737354e-07  1.53783106e-04  1.34737354e-07  1.16603772e-01  1.34737354e-07  7.14194001e-05  1.34737354e-07  9.77665050e-02  1.34737354e-07  1.06630721e-03 
 1.74437186e-07  1.74437186e-01  1.74437186e-07  1.45239494e-04  1.74437186e-07  1.54305033e-01  1.74437186e-07  6.45957386e-05  1.74437186e-07  1.27187415e-01  1.74437186e-07  1.34634204e-03 
 2.53836852e-07  2.53836852e-01  2.53836852e-07  1.29207559e-04  2.53836852e-07  2.31485256e-01  2.53836852e-07  5.14226185e-05  2.53836852e-07  1.86596944e-01  2.53836852e-07  1.80748853e-03 
 3.53836852e-07  3.53836852e-01  3.53836852e-07  1.10793076e-04  3.53836852e-07  3.30459977e-01  3.53836852e-07  3.49605052e-05  3.53836852e-07  2.62705374e-01  3.53836852e-07  2.21787807e-03 
 4.53836852e-07  4.53836852e-01  4.53836852e-07  9.41234387e-05  4.53836852e-07  4.30193652e-01  4.53836852e-07  2.02909094e-05  4.53836852e-07  3.40225978e-01  4.53836852e-07  2.48321278e-03 
 5.53836852e-07  5.53836852e-01  5.53836852e-07  7.90099952e-05  5.53836852e-07  5.30158450e-01  5.53836852e-07  6.76498591e-06  5.53836852e-07  4.17544731e-01  5.53836852e-07  2.65104288e-03 
 6.53836852e-07  6.53836852e-01  6.53836852e-07  6.52992224e-05  6.53836852e-07  6.30188234e-01  6.53836852e-07 -4.54424199e-06  6.53836852e-07  4.88326161e-01  6.53836852e-07  2.75614033e-03 
 7.53836852e-07  7.53836852e-01  7.53836852e-07  5.28597236e-05  7.53836852e-07  7.30231780e-01  7.53836852e-07 -1.46579827e-05  7.53836852e-07  5.35890340e-01  7.53836852e-07  2.82162719e-03 
 8.53836852e-07  8.53836852e-01  8.53836852e-07  4.15710888e-05  8.53836852e-07  8.30273437e-01  8.53836852e-07 -2.25370002e-05  8.53836852e-07  5.29825783e-01  8.53836852e-07  2.86231316e-03 
 9.53836852e-07  9.53836852e-01  9.53836852e-07  3.13253782e-05  9.53836852e-07  9.30307017e-01  9.53836852e-07 -2.92502861e-05  9.53836852e-07  4.45161533e-01  9.53836852e-07  2.88754918e-03 
 1.05383685e-06  1.05383685e+00  1.05383685e-06  2.20157969e-05  1.05383685e-06  1.03032856e+00  1.05383685e-06 -3.44630071e-05  1.05383685e-06  2.99058269e-01  1.05383685e-06  2.90319307e-03 
 1.15383685e-06  1.15383685e+00  1.15383685e-06  1.35276351e-05  1.15383685e-06  1.13040744e+00  1.15383685e-06 -4.17621089e-05  1.15383685e-06  1.17778157e-01  1.15383685e-06  2.91289734e-03 
 1.25383685e-06  1.25383685e+00  1.25383685e-06  5.90915187e-06  1.25383685e-06  1.23722057e+00  1.25383685e-06 -1.10727344e-04  1.25383685e-06  4.87411677e-04  1.25383685e-06  2.91886989e-03 
 1.32521373e-06  1.32521373e+00  1.32521373e-06  8.08159069e-07  1.32521373e-06  1.30605923e+00  1.32521373e-06 -2.95251767e-05  1.32521373e-06 -3.33450198e-04  1.32521373e-06  2.92160815e-03 
 1.39152995e-06  1.39152995e+00  1.39152995e-06 -3.61767828e-06  1.39152995e-06  1.37018831e+00  1.39152995e-06 -1.13123468e-04  1.39152995e-06  3.57551814e-04  1.39152995e-06  2.92340932e-03 
 1.48617944e-06  1.48617944e+00  1.48617944e-06 -9.41807675e-06  1.48617944e-06  1.46432271e+00  1.48617944e-06 -4.35095441e-05  1.48617944e-06 -2.48517538e-04  1.48617944e-06  2.92515871e-03 
 1.58430047e-06  1.58430047e+00  1.58430047e-06 -1.49014282e-05  1.58430047e-06  1.56171942e+00  1.58430047e-06 -1.20075465e-04  1.58430047e-06  2.65989809e-04  1.58430047e-06  2.92625605e-03 
 1.68430047e-06  1.68430047e+00  1.68430047e-06 -1.99663686e-05  1.68430047e-06  1.66190883e+00  1.68430047e-06 -5.58578143e-05  1.68430047e-06 -1.91719794e-04  1.68430047e-06  2.92691460e-03 
 1.78430047e-06  1.78430047e+00  1.78430047e-06 -2.45770372e-05  1.78430047e-06  1.76162484e+00  1.78430047e-06 -1.26064278e-04  1.78430047e-06  2.12048187e-04  1.78430047e-06  2.92727340e-03 
 1.88430047e-06  1.88430047e+00  1.88430047e-06 -2.87587291e-05  1.88430047e-06  1.86183485e+00  1.88430047e-06 -6.60029753e-05  1.88430047e-06 -1.56819627e-04  1.88430047e-06  2.92745644e-03 
 1.98430047e-06  1.98430047e+00  1.98430047e-06 -3.25671710e-05  1.98430047e-06  1.96164791e+00  1.98430047e-06 -1.30759571e-04  1.98430047e-06  1.77544652e-04  1.98430047e-06  2.92752155e-03 
 2.08430047e-06  2.08430047e+00  2.08430047e-06 -3.60237146e-05  2.08430047e-06  2.06181905e+00  2.08430047e-06 -7.43223360e-05  2.08430047e-06 -1.33447158e-04  2.08430047e-06  2.92752231e-03 
 2.18430047e-06  2.18430047e+00  2.18430047e-06 -3.91730500e-05  2.18430047e-06  2.16167295e+00  2.18430047e-06 -1.34378340e-04  2.18430047e-06  1.53630280e-04  2.18430047e-06  2.92747505e-03 
 2.28430047e-06  2.28430047e+00  2.28430047e-06 -4.20329751e-05  2.28430047e-06  2.26181295e+00  2.28430047e-06 -8.11519249e-05  2.28430047e-06 -1.16743730e-04  2.28430047e-06  2.92740591e-03 
 2.38430047e-06  2.38430047e+00  2.38430047e-06 -4.46401221e-05  2.38430047e-06  2.36169178e+00  2.38430047e-06 -1.37110795e-04  2.38430047e-06  1.36116536e-04  2.38430047e-06  2.92731574e-03 
 2.48430047e-06  2.48430047e+00  2.48430047e-06 -4.70089593e-05  2.48430047e-06  2.46180943e+00  2.48430047e-06 -8.67587283e-05  2.48430047e-06 -1.04238672e-04  2.48430047e-06  2.92721978e-03 
 2.58430047e-06  2.58430047e+00  2.58430047e-06 -4.91698702e-05  2.58430047e-06  2.56170563e+00  2.58430047e-06 -1.39118062e-04  2.58430047e-06  1.22764489e-04  2.58430047e-06  2.92711330e-03 
 2.68430047e-06  2.68430047e+00  2.68430047e-06 -5.11343581e-05  2.68430047e-06  2.66180683e+00  2.68430047e-06 -9.13587014e-05  2.68430047e-06 -9.45448548e-05  2.68430047e-06  2.92700703e-03 
 2.78430047e-06  2.78430047e+00  2.78430047e-06 -5.29278467e-05  2.78430047e-06  2.76171585e+00  2.78430047e-06 -1.40534481e-04  2.78430047e-06  1.12269237e-04  2.78430047e-06  2.92689442e-03 
 2.88430047e-06  2.88430047e+00  2.88430047e-06 -5.45592843e-05  2.88430047e-06  2.86180451e+00  2.88430047e-06 -9.51279412e-05  2.88430047e-06 -8.68242479e-05  2.88430047e-06  2.92678416e-03 
 2.98430047e-06  2.98430047e+00  2.98430047e-06 -5.60501075e-05  2.98430047e-06  2.96172338e+00  2.98430047e-06 -1.41471128e-04  2.98430047e-06  1.03819135e-04  2.98430047e-06  2.92666930e-03 
 3.08430047e-06  3.08430047e+00  3.08430047e-06 -5.74071048e-05  3.08430047e-06  3.06180218e+00  3.08430047e-06 -9.82106843e-05  3.08430047e-06 -8.05410635e-05  3.08430047e-06  2.92655750e-03 
 3.18430047e-06  3.18430047e+00  3.18430047e-06 -5.86484814e-05  3.18430047e-06  3.16172882e+00  3.18430047e-06 -1.42019400e-04  3.18430047e-06  9.68830117e-05  3.18430047e-06  2.92644186e-03 
 3.28430047e-06  3.28430047e+00  3.28430047e-06 -5.97792220e-05  3.28430047e-06  3.26179967e+00  3.28430047e-06 -1.00725402e-04  3.28430047e-06 -7.53369529e-05  3.28430047e-06  2.92632944e-03 
 3.38430047e-06  3.38430047e+00  3.38430047e-06 -6.08148976e-05  3.38430047e-06  3.36173260e+00  3.38430047e-06 -1.42254260e-04  3.38430047e-06  9.10987443e-05  3.38430047e-06  2.92621358e-03 
 3.48430047e-06  3.48430047e+00  3.48430047e-06 -6.17589989e-05  3.48430047e-06  3.46179693e+00  3.48430047e-06 -1.02769590e-04  3.48430047e-06 -7.09632658e-05  3.48430047e-06  2.92610089e-03 
 3.58430047e-06  3.58430047e+00  3.58430047e-06 -6.26249393e-05  3.58430047e-06  3.56173505e+00  3.58430047e-06 -1.42237044e-04  3.58430047e-06  8.62110137e-05  3.58430047e-06  2.92598502e-03 
 3.68430047e-06  3.68430047e+00  3.68430047e-06 -6.34149799e-05  3.68430047e-06  3.66179393e+00  3.68430047e-06 -1.04423595e-04  3.68430047e-06 -6.72421112e-05  3.68430047e-06  2.92587221e-03 
 3.78430047e-06  3.78430047e+00  3.78430047e-06 -6.41407600e-05  3.78430047e-06  3.76173640e+00  3.78430047e-06 -1.42017884e-04  3.78430047e-06  8.20346665e-05  3.78430047e-06  2.92575640e-03 
 3.88430047e-06  3.88430047e+00  3.88430047e-06 -6.48035330e-05  3.88430047e-06  3.86179065e+00  3.88430047e-06 -1.05753713e-04  3.88430047e-06 -6.40428874e-05  3.88430047e-06  2.92564352e-03 
 3.98430047e-06  3.98430047e+00  3.98430047e-06 -6.54134731e-05  3.98430047e-06  3.96173682e+00  3.98430047e-06 -1.41637642e-04  3.98430047e-06  7.84321833e-05  3.98430047e-06  2.92552778e-03 
 4.08430047e-06  4.08430047e+00  4.08430047e-06 -6.59710097e-05  4.08430047e-06  4.06178711e+00  4.08430047e-06 -1.06814680e-04  4.08430047e-06 -6.12675610e-05  4.08430047e-06  2.92541485e-03 
 4.18430047e-06  4.18430047e+00  4.18430047e-06 -6.64851007e-05  4.18430047e-06  4.16173646e+00  4.18430047e-06 -1.41129579e-04  4.18430047e-06  7.52993055e-05  4.18430047e-06  2.92529919e-03 
 4.28430047e-06  4.28430047e+00  4.28430047e-06 -6.69554997e-05  4.28430047e-06  4.26178331e+00  4.28430047e-06 -1.07651688e-04  4.28430047e-06 -5.88411095e-05  4.28430047e-06  2.92518623e-03 
 4.38430047e-06  4.38430047e+00  4.38430047e-06 -6.73901454e-05  4.38430047e-06  4.36173542e+00  4.38430047e-06 -1.40520677e-04  4.38430047e-06  7.25555778e-05  4.38430047e-06  2.92507064e-03 
 4.48430047e-06  4.48430047e+00  4.48430047e-06 -6.77882310e-05  4.48430047e-06  4.46177926e+00  4.48430047e-06 -1.08302006e-04  4.48430047e-06 -5.67051278e-05  4.48430047e-06  2.92495765e-03 
 4.58430047e-06  4.58430047e+00  4.58430047e-06 -6.81568271e-05  4.58430047e-06  4.56173380e+00  4.58430047e-06 -1.39832674e-04  4.58430047e-06  7.01379580e-05  4.58430047e-06  2.92484213e-03 
 4.68430047e-06  4.68430047e+00  4.68430047e-06 -6.84946483e-05  4.68430047e-06  4.66177499e+00  4.68430047e-06 -1.08796224e-04  4.68430047e-06 -5.48134322e-05  4.68430047e-06  2.92472910e-03 
 4.78430047e-06  4.78430047e+00  4.78430047e-06 -6.88080048e-05  4.78430047e-06  4.76173167e+00  4.78430047e-06 -1.39082826e-04  4.78430047e-06  6.79964033e-05  4.78430047e-06  2.92461365e-03 
 4.88430047e-06  4.88430047e+00  4.88430047e-06 -6.90951798e-05  4.88430047e-06  4.86177050e+00  4.88430047e-06 -1.09159164e-04  4.88430047e-06 -5.31289582e-05  4.88430047e-06  2.92450060e-03 
 4.98430047e-06  4.98430047e+00  4.98430047e-06 -6.93617863e-05  4.98430047e-06  4.96172909e+00  4.98430047e-06 -1.38284384e-04  4.98430047e-06  6.60907692e-05  4.98430047e-06  2.92438521e-03 
 5.08430047e-06  5.08430047e+00  5.08430047e-06 -6.96056844e-05  5.08430047e-06  5.06176581e+00  5.08430047e-06 -1.09410443e-04  5.08430047e-06 -5.16215175e-05  5.08430047e-06  2.92427212e-03 
 5.18430047e-06  5.18430047e+00  5.18430047e-06 -6.98318073e-05  5.18430047e-06  5.16172612e+00  5.18430047e-06 -1.37446766e-04  5.18430047e-06  6.43885996e-05  5.18430047e-06  2.92415679e-03 
 5.28430047e-06  5.28430047e+00  5.28430047e-06 -7.00375577e-05  5.28430047e-06  5.26176094e+00  5.28430047e-06 -1.09564682e-04  5.28430047e-06 -5.02661321e-05  5.28430047e-06  2.92404368e-03 
 5.38430047e-06  5.38430047e+00  5.38430047e-06 -7.02271562e-05  5.38430047e-06  5.36172279e+00  5.38430047e-06 -1.36575389e-04  5.38430047e-06  6.28635401e-05  5.38430047e-06  2.92392841e-03 
 5.48430047e-06  5.48430047e+00  5.48430047e-06 -7.03974653e-05  5.48430047e-06  5.46175590e+00  5.48430047e-06 -1.09631316e-04  5.48430047e-06 -4.90417677e-05  5.48430047e-06  2.92381527e-03 
 5.58430047e-06  5.58430047e+00  5.58430047e-06 -7.05519063e-05  5.58430047e-06  5.56171915e+00  5.58430047e-06 -1.35671126e-04  5.58430047e-06  6.14941927e-05  5.58430047e-06  2.92370005e-03 
 5.68430047e-06  5.68430047e+00  5.68430047e-06 -7.06866674e-05  5.68430047e-06  5.66175070e+00  5.68430047e-06 -1.09613999e-04  5.68430047e-06 -4.79303425e-05  5.68430047e-06  2.92358690e-03 
 5.78430047e-06  5.78430047e+00  5.78430047e-06 -7.08042258e-05  5.78430047e-06  5.76171523e+00  5.78430047e-06 -1.34729359e-04  5.78430047e-06  6.02632911e-05  5.78430047e-06  2.92347173e-03 
 5.88430047e-06  5.88430047e+00  5.88430047e-06 -7.08999050e-05  5.88430047e-06  5.86174535e+00  5.88430047e-06 -1.09509548e-04  5.88430047e-06 -4.69159346e-05  5.88430047e-06  2.92335855e-03 
 5.98430047e-06  5.98430047e+00  5.98430047e-06 -7.09750350e-05  5.98430047e-06  5.96171105e+00  5.98430047e-06 -1.33738582e-04  5.98430047e-06  5.91571094e-05  5.98430047e-06  2.92324343e-03 
 6.08430047e-06  6.08430047e+00  6.08430047e-06 -7.10238261e-05  6.08430047e-06  6.06173986e+00  6.08430047e-06 -1.09306425e-04  6.08430047e-06 -4.59841329e-05  6.08430047e-06  2.92313025e-03 
 6.18430047e-06  6.18430047e+00  6.18430047e-06 -7.10461986e-05  6.18430047e-06  6.16170664e+00  6.18430047e-06 -1.32678556e-04  6.18430047e-06  5.81650420e-05  6.18430047e-06  2.92301518e-03 
 6.28430047e-06  6.28430047e+00  6.28430047e-06 -7.10349453e-05  6.28430047e-06  6.26173425e+00  6.28430047e-06 -1.08982752e-04  6.28430047e-06 -4.51214961e-05  6.28430047e-06  2.92290198e-03 
 6.38430047e-06  6.38430047e+00  6.38430047e-06 -7.09882572e-05  6.38430047e-06  6.36170202e+00  6.38430047e-06 -1.31518010e-04  6.38430047e-06  5.72793087e-05  6.38430047e-06  2.92278698e-03 
 6.48430047e-06  6.48430047e+00  6.48430047e-06 -7.08971523e-05  6.48430047e-06  6.46172852e+00  6.48430047e-06 -1.08503855e-04  6.48430047e-06 -4.43150965e-05  6.48430047e-06  2.92267378e-03 
 6.58430047e-06  6.58430047e+00  6.58430047e-06 -7.07577216e-05  6.58430047e-06  6.56169721e+00  6.58430047e-06 -1.30211906e-04  6.58430047e-06  5.64947507e-05  6.58430047e-06  2.92255883e-03 
 6.68430047e-06  6.68430047e+00  6.68430047e-06 -7.05588050e-05  6.68430047e-06  6.66172268e+00  6.68430047e-06 -1.07819406e-04  6.68430047e-06 -4.35521330e-05  6.68430047e-06  2.92244564e-03 
 6.78430047e-06  6.78430047e+00  6.78430047e-06 -7.02939795e-05  6.78430047e-06  6.76169223e+00  6.78430047e-06 -1.28698333e-04  6.78430047e-06  5.58086894e-05  6.78430047e-06  2.92233076e-03 
 6.88430047e-06  6.88430047e+00  6.88430047e-06 -6.99494658e-05  6.88430047e-06  6.86171674e+00  6.88430047e-06 -1.06860191e-04  6.88430047e-06 -4.28196034e-05  6.88430047e-06  2.92221759e-03 
 6.98430047e-06  6.98430047e+00  6.98430047e-06 -6.95158806e-05  6.98430047e-06  6.96168708e+00  6.98430047e-06 -1.26895075e-04  6.98430047e-06  5.52208272e-05  6.98430047e-06  2.92210279e-03 
 7.00000000e-06  7.00000000e+00  7.00000000e-06 -6.94380598e-05  7.00000000e-06  6.97741206e+00  7.00000000e-06 -1.07114402e-04  7.00000000e-06 -4.20230246e-05  7.00000000e-06  2.92208568e-03 
 7.01000000e-06  7.00000000e+00  7.01000000e-06 -6.96043859e-05  7.01000000e-06  6.97948052e+00  7.01000000e-06 -1.16216898e-04  7.01000000e-06  1.08841588e-06  7.01000000e-06  2.92207386e-03 
 7.03000000e-06  7.00000000e+00  7.03000000e-06 -6.99407548e-05  7.03000000e-06  6.98324619e+00  7.03000000e-06 -1.17153833e-04  7.03000000e-06  1.35355649e-06  7.03000000e-06  2.92205089e-03 
 7.04800161e-06  7.00000000e+00  7.04800161e-06 -7.02496205e-05  7.04800161e-06  6.98602903e+00  7.04800161e-06 -1.16783243e-04  7.04800161e-06  1.09046252e-06  7.04800161e-06  2.92203027e-03 
 7.08400482e-06  7.00000000e+00  7.08400482e-06 -7.08761129e-05  7.08400482e-06  6.99029127e+00  7.08400482e-06 -1.17862160e-04  7.08400482e-06  1.35195282e-06  7.08400482e-06  2.92198895e-03 
 7.15601124e-06  7.00000000e+00  7.15601124e-06 -7.21291158e-05  7.15601124e-06  6.99537732e+00  7.15601124e-06 -1.18306625e-04  7.15601124e-06  1.09125858e-06  7.15601124e-06  2.92190638e-03 
 7.25601124e-06  7.00000000e+00  7.25601124e-06 -7.38039822e-05  7.25601124e-06  6.99834366e+00  7.25601124e-06 -1.20187716e-04  7.25601124e-06  1.35149813e-06  7.25601124e-06  2.92179167e-03 
 7.35601124e-06  7.00000000e+00  7.35601124e-06 -7.53577726e-05  7.35601124e-06  6.99931119e+00  7.35601124e-06 -1.20859982e-04  7.35601124e-06  1.09163862e-06  7.35601124e-06  2.92167705e-03 
 7.45601124e-06  7.00000000e+00  7.45601124e-06 -7.67769469e-05  7.45601124e-06  6.99962447e+00  7.45601124e-06 -1.22474650e-04  7.45601124e-06  1.35111907e-06  7.45601124e-06  2.92156242e-03 
 7.55601124e-06  7.00000000e+00  7.55601124e-06 -7.80659806e-05  7.55601124e-06  6.99972691e+00  7.55601124e-06 -1.22903422e-04  7.55601124e-06  1.09201699e-06  7.55601124e-06  2.92144787e-03 
 7.65601124e-06  7.00000000e+00  7.65601124e-06 -7.92345207e-05  7.65601124e-06  6.99975991e+00  7.65601124e-06 -1.24256851e-04  7.65601124e-06  1.35074144e-06  7.65601124e-06  2.92133332e-03 
 7.75601124e-06  7.00000000e+00  7.75601124e-06 -8.02930590e-05  7.75601124e-06  6.99977123e+00  7.75601124e-06 -1.24475520e-04  7.75601124e-06  1.09239389e-06  7.75601124e-06  2.92121884e-03 
 7.85601124e-06  7.00000000e+00  7.85601124e-06 -8.12517202e-05  7.85601124e-06  6.99977446e+00  7.85601124e-06 -1.25608756e-04  7.85601124e-06  1.35036528e-06  7.85601124e-06  2.92110435e-03 
 7.95601124e-06  7.00000000e+00  7.95601124e-06 -8.21198212e-05  7.95601124e-06  6.99977602e+00  7.95601124e-06 -1.25656636e-04  7.95601124e-06  1.09276932e-06  7.95601124e-06  2.92098992e-03 
 8.05601124e-06  7.00000000e+00  8.05601124e-06 -8.29059047e-05  8.05601124e-06  6.99977606e+00  8.05601124e-06 -1.26607288e-04  8.05601124e-06  1.34999058e-06  8.05601124e-06  2.92087549e-03 
