 time            v(bvdd)         time            v(pvdd)         time            v(gate)         time            v(ea_en)       
 1.00000000e-10  1.20000000e-03  1.00000000e-10  1.44323810e-03  1.00000000e-10  1.03742254e-03  1.00000000e-10  2.12503656e-03 
 1.02724264e-10  1.23269117e-03  1.02724264e-10  1.47771666e-03  1.02724264e-10  1.05468890e-03  1.02724264e-10  2.17769183e-03 
 1.08172792e-10  1.29807350e-03  1.08172792e-10  1.53850654e-03  1.08172792e-10  1.10684429e-03  1.08172792e-10  2.28466524e-03 
 1.19069848e-10  1.42883817e-03  1.19069848e-10  1.62250116e-03  1.19069848e-10  1.21230483e-03  1.19069848e-10  2.48077048e-03 
 1.40863960e-10  1.69036752e-03  1.40863960e-10  1.70570902e-03  1.40863960e-10  1.39508017e-03  1.40863960e-10  2.83479314e-03 
 1.76806623e-10  2.12167948e-03  1.76806623e-10  1.74265728e-03  1.76806623e-10  1.66514284e-03  1.76806623e-10  3.37197379e-03 
 2.32547647e-10  2.79057177e-03  2.32547647e-10  1.74696101e-03  2.32547647e-10  2.07978542e-03  2.32547647e-10  4.17806966e-03 
 3.11876363e-10  3.74251636e-03  3.11876363e-10  1.74660398e-03  3.11876363e-10  2.66710498e-03  3.11876363e-10  5.32185560e-03 
 4.70533795e-10  5.64640554e-03  4.70533795e-10  1.74738038e-03  4.70533795e-10  3.82031070e-03  4.70533795e-10  7.61479722e-03 
 7.87848658e-10  9.45418390e-03  7.87848658e-10  1.74838121e-03  7.87848658e-10  6.04414757e-03  7.87848658e-10  1.22209175e-02 
 1.42247838e-09  1.70697406e-02  1.42247838e-09  1.75107828e-03  1.42247838e-09  1.01814734e-02  1.42247838e-09  2.15011078e-02 
 2.69173784e-09  3.23008541e-02  2.69173784e-09  1.75680249e-03  2.69173784e-09  1.72272805e-02  2.69173784e-09  4.02245527e-02 
 5.23025674e-09  6.27630809e-02  5.23025674e-09  1.77155065e-03  5.23025674e-09  2.76248399e-02  5.23025674e-09  7.79215795e-02 
 9.21200365e-09  1.10544044e-01  9.21200365e-09  1.79955628e-03  9.21200365e-09  3.74276047e-02  9.21200365e-09  1.36694324e-01 
 1.00000000e-08  1.20000000e-01  1.00000000e-08  1.80574493e-03  1.00000000e-08  3.86425810e-02  1.00000000e-08  1.48176273e-01 
 1.06394211e-08  1.27673053e-01  1.06394211e-08  1.81073599e-03  1.06394211e-08  3.94750453e-02  1.06394211e-08  1.57443086e-01 
 1.19182633e-08  1.43019159e-01  1.19182633e-08  1.82090228e-03  1.19182633e-08  4.09596843e-02  1.19182633e-08  1.75840507e-01 
 1.44759476e-08  1.73711371e-01  1.44759476e-08  1.84166882e-03  1.44759476e-08  4.31372411e-02  1.44759476e-08  2.11984064e-01 
 1.95913163e-08  2.35095795e-01  1.95913163e-08  1.88395417e-03  1.95913163e-08  4.56257981e-02  1.95913163e-08  2.81149211e-01 
 2.95913163e-08  3.55095795e-01  2.95913163e-08  1.96663198e-03  2.95913163e-08  4.80289091e-02  2.95913163e-08  4.03872910e-01 
 3.95913163e-08  4.75095795e-01  3.95913163e-08  2.04814854e-03  3.95913163e-08  5.05504393e-02  3.95913163e-08  5.13911051e-01 
 4.95913163e-08  5.95095795e-01  4.95913163e-08  2.12845351e-03  4.95913163e-08  5.43192870e-02  4.95913163e-08  5.94654235e-01 
 5.95913163e-08  7.15095795e-01  5.95913163e-08  2.21105935e-03  5.95913163e-08  6.04115958e-02  5.95913163e-08  6.23380385e-01 
 6.95913163e-08  8.35095795e-01  6.95913163e-08  2.32814050e-03  6.95913163e-08  7.62907264e-02  6.95913163e-08  6.23922287e-01 
 7.95913163e-08  9.55095795e-01  7.95913163e-08  2.60445790e-03  7.95913163e-08  1.17071733e-01  7.95913163e-08  6.27767280e-01 
 8.95913163e-08  1.07509580e+00  8.95913163e-08  3.29585877e-03  8.95913163e-08  1.81185637e-01  8.95913163e-08  6.52881340e-01 
 9.95913163e-08  1.19509580e+00  9.95913163e-08  4.83513607e-03  9.95913163e-08  2.54559983e-01  9.95913163e-08  7.45201744e-01 
 1.09591316e-07  1.31509580e+00  1.09591316e-07  7.94403555e-03  1.09591316e-07  3.32251572e-01  1.09591316e-07  8.68703607e-01 
 1.19591316e-07  1.43509580e+00  1.19591316e-07  1.36651526e-02  1.19591316e-07  4.13701354e-01  1.19591316e-07  1.35991274e+00 
 1.29345725e-07  1.55214870e+00  1.29345725e-07  2.29418897e-02  1.29345725e-07  4.94902288e-01  1.29345725e-07  1.55081811e+00 
 1.38669606e-07  1.66403527e+00  1.38669606e-07  3.63816831e-02  1.38669606e-07  5.74596811e-01  1.38669606e-07  1.64244853e+00 
 1.48669606e-07  1.78403527e+00  1.48669606e-07  5.70217078e-02  1.48669606e-07  6.60948186e-01  1.48669606e-07  1.77633057e+00 
 1.58669606e-07  1.90403527e+00  1.58669606e-07  8.56428025e-02  1.58669606e-07  7.45750706e-01  1.58669606e-07  1.89173656e+00 
 1.68669606e-07  2.02403527e+00  1.68669606e-07  1.24632356e-01  1.68669606e-07  8.25541117e-01  1.68669606e-07  2.01724057e+00 
 1.78669606e-07  2.14403527e+00  1.78669606e-07  1.76769230e-01  1.78669606e-07  9.02236608e-01  1.78669606e-07  2.13577591e+00 
 1.88669606e-07  2.26403527e+00  1.88669606e-07  2.43643717e-01  1.88669606e-07  9.81242448e-01  1.88669606e-07  2.25876169e+00 
 1.98669606e-07  2.38403527e+00  1.98669606e-07  3.25097683e-01  1.98669606e-07  1.06481252e+00  1.98669606e-07  2.37808590e+00 
 2.08669606e-07  2.50403527e+00  2.08669606e-07  4.20203857e-01  2.08669606e-07  1.15195544e+00  2.08669606e-07  2.49992445e+00 
 2.18669606e-07  2.62403527e+00  2.18669606e-07  5.28636437e-01  2.18669606e-07  1.23908261e+00  2.18669606e-07  2.61954293e+00 
 2.28669606e-07  2.74403527e+00  2.28669606e-07  6.51806363e-01  2.28669606e-07  1.32148626e+00  2.28669606e-07  2.74095855e+00 
 2.38669606e-07  2.86403527e+00  2.38669606e-07  7.92294408e-01  2.38669606e-07  1.39919491e+00  2.38669606e-07  2.86087155e+00 
 2.48669606e-07  2.98403527e+00  2.48669606e-07  9.51635288e-01  2.48669606e-07  1.47694728e+00  2.48669606e-07  2.98206005e+00 
 2.58669606e-07  3.10403527e+00  2.58669606e-07  1.12973116e+00  2.58669606e-07  1.55623802e+00  2.58669606e-07  3.10199088e+00 
 2.68669606e-07  3.22403527e+00  2.68669606e-07  1.32595262e+00  2.68669606e-07  1.63648740e+00  2.68669606e-07  3.22292865e+00 
 2.78669606e-07  3.34403527e+00  2.78669606e-07  1.53943673e+00  2.78669606e-07  1.71809304e+00  2.78669606e-07  3.34284029e+00 
 2.88669606e-07  3.46403527e+00  2.88669606e-07  1.76865980e+00  2.88669606e-07  1.80197985e+00  2.88669606e-07  3.46360360e+00 
 2.98669606e-07  3.58403527e+00  2.98669606e-07  2.01168153e+00  2.98669606e-07  1.88766466e+00  2.98669606e-07  3.58346833e+00 
 3.08669606e-07  3.70403527e+00  3.08669606e-07  2.26593440e+00  3.08669606e-07  1.97761400e+00  3.08669606e-07  3.70406215e+00 
 3.18669606e-07  3.82403527e+00  3.18669606e-07  2.53389180e+00  3.18669606e-07  2.04845674e+00  3.18669606e-07  3.82393413e+00 
 3.28669606e-07  3.94403527e+00  3.28669606e-07  2.81951788e+00  3.28669606e-07  2.11398162e+00  3.28669606e-07  3.94461585e+00 
 3.38669606e-07  4.06403527e+00  3.38669606e-07  3.11927735e+00  3.38669606e-07  2.18316855e+00  3.38669606e-07  4.06441307e+00 
 3.46969831e-07  4.16363797e+00  3.46969831e-07  3.35737675e+00  3.46969831e-07  2.33076315e+00  3.46969831e-07  4.16406715e+00 
 3.55753598e-07  4.26904318e+00  3.55753598e-07  3.57643141e+00  3.55753598e-07  2.49592427e+00  3.55753598e-07  4.26832246e+00 
 3.65369711e-07  4.38443654e+00  3.65369711e-07  3.79598159e+00  3.65369711e-07  2.58712409e+00  3.65369711e-07  4.38392763e+00 
 3.75369711e-07  4.50443654e+00  3.75369711e-07  4.01974232e+00  3.75369711e-07  2.66555162e+00  3.75369711e-07  4.50353829e+00 
 3.85369711e-07  4.62443654e+00  3.85369711e-07  4.23380688e+00  3.85369711e-07  2.73894958e+00  3.85369711e-07  4.62357217e+00 
 3.95369711e-07  4.74443654e+00  3.95369711e-07  4.43048110e+00  3.95369711e-07  2.81716482e+00  3.95369711e-07  4.74294100e+00 
 4.05369711e-07  4.86443654e+00  4.05369711e-07  4.60737910e+00  4.05369711e-07  2.88886891e+00  4.05369711e-07  4.86295875e+00 
 4.15369711e-07  4.98443654e+00  4.15369711e-07  4.76716121e+00  4.15369711e-07  2.96274658e+00  4.15369711e-07  4.98254769e+00 
 4.25369711e-07  5.10443654e+00  4.25369711e-07  4.91403524e+00  4.25369711e-07  3.03290761e+00  4.25369711e-07  5.10272513e+00 
 4.35369711e-07  5.22443654e+00  4.35369711e-07  5.05213795e+00  4.35369711e-07  3.10725552e+00  4.35369711e-07  5.22243561e+00 
 4.45369711e-07  5.34443654e+00  4.45369711e-07  5.18456432e+00  4.45369711e-07  3.18045400e+00  4.45369711e-07  5.34267456e+00 
 4.55369711e-07  5.46443654e+00  4.55369711e-07  5.31351520e+00  4.55369711e-07  3.25796648e+00  4.55369711e-07  5.46243118e+00 
 4.65369711e-07  5.58443654e+00  4.65369711e-07  5.44028516e+00  4.65369711e-07  3.33495444e+00  4.65369711e-07  5.58269022e+00 
 4.75369711e-07  5.70443654e+00  4.75369711e-07  5.56569371e+00  4.75369711e-07  3.41552599e+00  4.75369711e-07  5.70245994e+00 
 4.85369711e-07  5.82443654e+00  4.85369711e-07  5.69017752e+00  4.85369711e-07  3.49645395e+00  4.85369711e-07  5.82272494e+00 
 4.95369711e-07  5.94443654e+00  4.95369711e-07  5.81403428e+00  4.95369711e-07  3.57935751e+00  4.95369711e-07  5.94249426e+00 
 5.05369711e-07  6.06443654e+00  5.05369711e-07  5.93746813e+00  5.05369711e-07  3.66101773e+00  5.05369711e-07  6.06276007e+00 
 5.15369711e-07  6.18443654e+00  5.15369711e-07  6.06058411e+00  5.15369711e-07  3.74491129e+00  5.15369711e-07  6.18253086e+00 
 5.25369711e-07  6.30443654e+00  5.25369711e-07  6.18342088e+00  5.25369711e-07  3.82832112e+00  5.25369711e-07  6.30279483e+00 
 5.35369711e-07  6.42443654e+00  5.35369711e-07  6.30600080e+00  5.35369711e-07  3.91478270e+00  5.35369711e-07  6.42256516e+00 
 5.45369711e-07  6.54443654e+00  5.45369711e-07  6.42832982e+00  5.45369711e-07  4.00156521e+00  5.45369711e-07  6.54282779e+00 
 5.55369711e-07  6.66443654e+00  5.55369711e-07  6.55044314e+00  5.55369711e-07  4.09083633e+00  5.55369711e-07  6.66259663e+00 
 5.65369711e-07  6.78443654e+00  5.65369711e-07  6.67235964e+00  5.65369711e-07  4.18068663e+00  5.65369711e-07  6.78285854e+00 
 5.75369711e-07  6.90443654e+00  5.75369711e-07  6.79411087e+00  5.75369711e-07  4.27246977e+00  5.75369711e-07  6.90262515e+00 
 5.85369711e-07  7.02443654e+00  5.85369711e-07  6.91572060e+00  5.85369711e-07  4.36451953e+00  5.85369711e-07  7.02288638e+00 
 5.95369711e-07  7.14443654e+00  5.95369711e-07  7.03721683e+00  5.95369711e-07  4.45787675e+00  5.95369711e-07  7.14265091e+00 
 6.05369711e-07  7.26443654e+00  6.05369711e-07  7.15861740e+00  6.05369711e-07  4.55121503e+00  6.05369711e-07  7.26291157e+00 
 6.15369711e-07  7.38443654e+00  6.15369711e-07  7.27994018e+00  6.15369711e-07  4.64546770e+00  6.15369711e-07  7.38267431e+00 
 6.25369711e-07  7.50443654e+00  6.25369711e-07  7.40119499e+00  6.25369711e-07  4.73956629e+00  6.25369711e-07  7.50293442e+00 
 6.35369711e-07  7.62443654e+00  6.35369711e-07  7.52239258e+00  6.35369711e-07  4.83433540e+00  6.35369711e-07  7.62269561e+00 
 6.45369711e-07  7.74443654e+00  6.45369711e-07  7.64353840e+00  6.45369711e-07  4.92888551e+00  6.45369711e-07  7.74295514e+00 
 6.55369711e-07  7.86443654e+00  6.55369711e-07  7.76463955e+00  6.55369711e-07  5.02393381e+00  6.55369711e-07  7.86271498e+00 
 6.65369711e-07  7.98443654e+00  6.65369711e-07  7.88569943e+00  6.65369711e-07  5.11872407e+00  6.65369711e-07  7.98297391e+00 
 6.75369711e-07  8.10443654e+00  6.75369711e-07  8.00672322e+00  6.75369711e-07  5.21387251e+00  6.75369711e-07  8.10273254e+00 
 6.85369711e-07  8.22443654e+00  6.85369711e-07  8.12771339e+00  6.85369711e-07  5.30872697e+00  6.85369711e-07  8.22299084e+00 
 6.95369711e-07  8.34443654e+00  6.95369711e-07  8.24867404e+00  6.95369711e-07  5.40381224e+00  6.95369711e-07  8.34274836e+00 
 7.05369711e-07  8.46443654e+00  7.05369711e-07  8.36960717e+00  7.05369711e-07  5.49856059e+00  7.05369711e-07  8.46300601e+00 
 7.15369711e-07  8.58443654e+00  7.15369711e-07  8.49051621e+00  7.15369711e-07  5.59341582e+00  7.15369711e-07  8.58276248e+00 
 7.25369711e-07  8.70443654e+00  7.25369711e-07  8.61140286e+00  7.25369711e-07  5.68788074e+00  7.25369711e-07  8.70301944e+00 
 7.35369711e-07  8.82443654e+00  7.35369711e-07  8.73227004e+00  7.35369711e-07  5.78232866e+00  7.35369711e-07  8.82277487e+00 
 7.45369711e-07  8.94443654e+00  7.45369711e-07  8.85311924e+00  7.45369711e-07  5.87632267e+00  7.45369711e-07  8.94303109e+00 
 7.55369711e-07  9.06443654e+00  7.55369711e-07  8.97395295e+00  7.55369711e-07  5.97017559e+00  7.55369711e-07  9.06278544e+00 
 7.65369711e-07  9.18443654e+00  7.65369711e-07  9.09477246e+00  7.65369711e-07  6.06350317e+00  7.65369711e-07  9.18304086e+00 
 7.75369711e-07  9.30443654e+00  7.75369711e-07  9.21557983e+00  7.75369711e-07  6.15656707e+00  7.75369711e-07  9.30279403e+00 
 7.85369711e-07  9.42443654e+00  7.85369711e-07  9.33637615e+00  7.85369711e-07  6.24902980e+00  7.85369711e-07  9.42304852e+00 
 7.95369711e-07  9.54443654e+00  7.95369711e-07  9.45716309e+00  7.95369711e-07  6.34111037e+00  7.95369711e-07  9.54280034e+00 
 8.05369711e-07  9.66443654e+00  8.05369711e-07  9.57794148e+00  8.05369711e-07  6.43251336e+00  8.05369711e-07  9.66305371e+00 
 8.15369711e-07  9.78443654e+00  8.15369711e-07  9.69871261e+00  8.15369711e-07  6.52342281e+00  8.15369711e-07  9.78280391e+00 
 8.25369711e-07  9.90443654e+00  8.25369711e-07  9.81947709e+00  8.25369711e-07  6.61358140e+00  8.25369711e-07  9.90305587e+00 
 8.35369711e-07  1.00244365e+01  8.35369711e-07  9.94023583e+00  8.35369711e-07  6.70314486e+00  8.35369711e-07  1.00228040e+01 
 8.45369711e-07  1.01444365e+01  8.45369711e-07  1.00609892e+01  8.45369711e-07  6.79189047e+00  8.45369711e-07  1.01430542e+01 
 8.55369711e-07  1.02644365e+01  8.55369711e-07  1.01817378e+01  8.55369711e-07  6.87995128e+00  8.55369711e-07  1.02627997e+01 
 8.65369711e-07  1.03844365e+01  8.65369711e-07  1.03024816e+01  8.65369711e-07  6.96713589e+00  8.65369711e-07  1.03830473e+01 
 8.75000000e-07  1.05000000e+01  8.75000000e-07  1.04187574e+01  8.75000000e-07  7.05038043e+00  8.75000000e-07  1.04983530e+01 
 8.76000000e-07  1.05000000e+01  8.76000000e-07  1.04292744e+01  8.76000000e-07  7.05037696e+00  8.76000000e-07  1.05002011e+01 
 8.78000000e-07  1.05000000e+01  8.78000000e-07  1.04475796e+01  8.78000000e-07  7.05021791e+00  8.78000000e-07  1.05006026e+01 
 8.82000000e-07  1.05000000e+01  8.82000000e-07  1.04715267e+01  8.82000000e-07  7.05060560e+00  8.82000000e-07  1.04999856e+01 
 8.90000000e-07  1.05000000e+01  8.90000000e-07  1.04923044e+01  8.90000000e-07  7.05051766e+00  8.90000000e-07  1.05001780e+01 
 9.00000000e-07  1.05000000e+01  9.00000000e-07  1.04980575e+01  9.00000000e-07  7.04885915e+00  9.00000000e-07  1.04997900e+01 
 9.10000000e-07  1.05000000e+01  9.10000000e-07  1.04989014e+01  9.10000000e-07  7.04874241e+00  9.10000000e-07  1.05000936e+01 
 9.20000000e-07  1.05000000e+01  9.20000000e-07  1.04990918e+01  9.20000000e-07  7.04980870e+00  9.20000000e-07  1.04997941e+01 
 9.30000000e-07  1.05000000e+01  9.30000000e-07  1.04991812e+01  9.30000000e-07  7.05083888e+00  9.30000000e-07  1.05000598e+01 
 9.40000000e-07  1.05000000e+01  9.40000000e-07  1.04992452e+01  9.40000000e-07  7.05177956e+00  9.40000000e-07  1.04998001e+01 
 9.50000000e-07  1.05000000e+01  9.50000000e-07  1.04992976e+01  9.50000000e-07  7.05277015e+00  9.50000000e-07  1.05000293e+01 
 9.60000000e-07  1.05000000e+01  9.60000000e-07  1.04993423e+01  9.60000000e-07  7.05350099e+00  9.60000000e-07  1.04998026e+01 
 9.70000000e-07  1.05000000e+01  9.70000000e-07  1.04993814e+01  9.70000000e-07  7.05417180e+00  9.70000000e-07  1.04999999e+01 
 9.80000000e-07  1.05000000e+01  9.80000000e-07  1.04994160e+01  9.80000000e-07  7.05467504e+00  9.80000000e-07  1.04998017e+01 
 9.90000000e-07  1.05000000e+01  9.90000000e-07  1.04994471e+01  9.90000000e-07  7.05513642e+00  9.90000000e-07  1.04999709e+01 
 1.00000000e-06  1.05000000e+01  1.00000000e-06  1.04994752e+01  1.00000000e-06  7.05545905e+00  1.00000000e-06  1.04997973e+01 
 1.01000000e-06  1.05000000e+01  1.01000000e-06  1.04995008e+01  1.01000000e-06  7.05578016e+00  1.01000000e-06  1.04999419e+01 
 1.02000000e-06  1.05000000e+01  1.02000000e-06  1.04995242e+01  1.02000000e-06  7.05599610e+00  1.02000000e-06  1.04997893e+01 
 1.03000000e-06  1.05000000e+01  1.03000000e-06  1.04995458e+01  1.03000000e-06  7.05622844e+00  1.03000000e-06  1.04999124e+01 
 1.04000000e-06  1.05000000e+01  1.04000000e-06  1.04995656e+01  1.04000000e-06  7.05638325e+00  1.04000000e-06  1.04997777e+01 
 1.05000000e-06  1.05000000e+01  1.05000000e-06  1.04995840e+01  1.05000000e-06  7.05656607e+00  1.05000000e-06  1.04998819e+01 
 1.06000000e-06  1.05000000e+01  1.06000000e-06  1.04996010e+01  1.06000000e-06  7.05668875e+00  1.06000000e-06  1.04997627e+01 
 1.07000000e-06  1.05000000e+01  1.07000000e-06  1.04996168e+01  1.07000000e-06  7.05684561e+00  1.07000000e-06  1.04998502e+01 
 1.08000000e-06  1.05000000e+01  1.08000000e-06  1.04996314e+01  1.08000000e-06  7.05695451e+00  1.08000000e-06  1.04997440e+01 
 1.09000000e-06  1.05000000e+01  1.09000000e-06  1.04996451e+01  1.09000000e-06  7.05709956e+00  1.09000000e-06  1.04998172e+01 
 1.10000000e-06  1.05000000e+01  1.10000000e-06  1.04996578e+01  1.10000000e-06  7.05720519e+00  1.10000000e-06  1.04997222e+01 
 1.11000000e-06  1.05000000e+01  1.11000000e-06  1.04996696e+01  1.11000000e-06  7.05734670e+00  1.11000000e-06  1.04997828e+01 
 1.12000000e-06  1.05000000e+01  1.12000000e-06  1.04996807e+01  1.12000000e-06  7.05745484e+00  1.12000000e-06  1.04996976e+01 
 1.13000000e-06  1.05000000e+01  1.13000000e-06  1.04996910e+01  1.13000000e-06  7.05759733e+00  1.13000000e-06  1.04997475e+01 
 1.14000000e-06  1.05000000e+01  1.14000000e-06  1.04997007e+01  1.14000000e-06  7.05771095e+00  1.14000000e-06  1.04996711e+01 
 1.15000000e-06  1.05000000e+01  1.15000000e-06  1.04997097e+01  1.15000000e-06  7.05785669e+00  1.15000000e-06  1.04997121e+01 
 1.16000000e-06  1.05000000e+01  1.16000000e-06  1.04997181e+01  1.16000000e-06  7.05797703e+00  1.16000000e-06  1.04996438e+01 
 1.17000000e-06  1.05000000e+01  1.17000000e-06  1.04997260e+01  1.17000000e-06  7.05812701e+00  1.17000000e-06  1.04996779e+01 
 1.18000000e-06  1.05000000e+01  1.18000000e-06  1.04997334e+01  1.18000000e-06  7.05825436e+00  1.18000000e-06  1.04996177e+01 
 1.19000000e-06  1.05000000e+01  1.19000000e-06  1.04997404e+01  1.19000000e-06  7.05840881e+00  1.19000000e-06  1.04996471e+01 
 1.20000000e-06  1.05000000e+01  1.20000000e-06  1.04997468e+01  1.20000000e-06  7.05854293e+00  1.20000000e-06  1.04995955e+01 
 1.21000000e-06  1.05000000e+01  1.21000000e-06  1.04997529e+01  1.21000000e-06  7.05870169e+00  1.21000000e-06  1.04996227e+01 
 1.22000000e-06  1.05000000e+01  1.22000000e-06  1.04997586e+01  1.22000000e-06  7.05884207e+00  1.22000000e-06  1.04995806e+01 
 1.23000000e-06  1.05000000e+01  1.23000000e-06  1.04997639e+01  1.23000000e-06  7.05900477e+00  1.23000000e-06  1.04996083e+01 
 1.24000000e-06  1.05000000e+01  1.24000000e-06  1.04997689e+01  1.24000000e-06  7.05915079e+00  1.24000000e-06  1.04995773e+01 
 1.25000000e-06  1.05000000e+01  1.25000000e-06  1.04997736e+01  1.25000000e-06  7.05931698e+00  1.25000000e-06  1.04996083e+01 
 1.26000000e-06  1.05000000e+01  1.26000000e-06  1.04997780e+01  1.26000000e-06  7.05946800e+00  1.26000000e-06  1.04995896e+01 
 1.27000000e-06  1.05000000e+01  1.27000000e-06  1.04997821e+01  1.27000000e-06  7.05963720e+00  1.27000000e-06  1.04996263e+01 
 1.28000000e-06  1.05000000e+01  1.28000000e-06  1.04997859e+01  1.28000000e-06  7.05979256e+00  1.28000000e-06  1.04996207e+01 
 1.29000000e-06  1.05000000e+01  1.29000000e-06  1.04997896e+01  1.29000000e-06  7.05996428e+00  1.29000000e-06  1.04996640e+01 
 1.30000000e-06  1.05000000e+01  1.30000000e-06  1.04997930e+01  1.30000000e-06  7.06012335e+00  1.30000000e-06  1.04996708e+01 
 1.31000000e-06  1.05000000e+01  1.31000000e-06  1.04997961e+01  1.31000000e-06  7.06029708e+00  1.31000000e-06  1.04997196e+01 
 1.32000000e-06  1.05000000e+01  1.32000000e-06  1.04997991e+01  1.32000000e-06  7.06045922e+00  1.32000000e-06  1.04997353e+01 
 1.33000000e-06  1.05000000e+01  1.33000000e-06  1.04998019e+01  1.33000000e-06  7.06063448e+00  1.33000000e-06  1.04997858e+01 
 1.34000000e-06  1.05000000e+01  1.34000000e-06  1.04998046e+01  1.34000000e-06  7.06079906e+00  1.34000000e-06  1.04998048e+01 
