 time            v(bvdd)         time            v(pvdd)         time            v(gate)         time            v(ea_out)       time            v(startup_done) time            v(ea_en)       
 1.00000000e-09  1.20000000e-02  1.00000000e-09  1.96316434e-04  1.00000000e-09  9.50266830e-03  1.00000000e-09 -5.74257752e-04  1.00000000e-09  8.78358749e-03  1.00000000e-09  7.25463006e-06 
 1.02793204e-09  1.23351845e-02  1.02793204e-09  1.98738056e-04  1.02793204e-09  9.76774415e-03  1.02793204e-09 -5.94085772e-04  1.02793204e-09  9.03027846e-03  1.02793204e-09  7.45846816e-06 
 1.08379612e-09  1.30055534e-02  1.08379612e-09  2.00896299e-04  1.08379612e-09  1.02974182e-02  1.08379612e-09 -6.11868082e-04  1.08379612e-09  9.52381334e-03  1.08379612e-09  7.86654159e-06 
 1.19552427e-09  1.43462912e-02  1.19552427e-09  2.00614858e-04  1.19552427e-09  1.13561836e-02  1.19552427e-09 -6.27070300e-04  1.19552427e-09  1.05114534e-02  1.19552427e-09  8.68337984e-06 
 1.41898058e-09  1.70277669e-02  1.41898058e-09  2.00816081e-04  1.41898058e-09  1.34749428e-02  1.41898058e-09 -5.94776935e-04  1.41898058e-09  1.24888622e-02  1.41898058e-09  1.03238554e-05 
 1.73373897e-09  2.08048677e-02  1.73373897e-09  2.00777809e-04  1.73373897e-09  1.64616623e-02  1.73373897e-09 -4.92659432e-04  1.73373897e-09  1.52782483e-02  1.73373897e-09  1.26463668e-05 
 2.36325576e-09  2.83590691e-02  2.36325576e-09  2.01001574e-04  2.36325576e-09  2.24427576e-02  2.36325576e-09 -2.90077039e-04  2.36325576e-09  2.08677353e-02  2.36325576e-09  1.73238525e-05 
 3.62228934e-09  4.34674721e-02  3.62228934e-09  2.01202914e-04  3.62228934e-09  3.44331289e-02  3.62228934e-09 -3.01107018e-05  3.62228934e-09  3.20750264e-02  3.62228934e-09  2.67840863e-05 
 6.14035650e-09  7.36842780e-02  6.14035650e-09  2.01835888e-04  6.14035650e-09  5.85200638e-02  6.14035650e-09  1.54213158e-04  6.14035650e-09  5.45550174e-02  6.14035650e-09  4.60198574e-05 
 1.11764908e-08  1.34117890e-01  1.11764908e-08  2.02886668e-04  1.11764908e-08  1.07101843e-01  1.11764908e-08  1.97278861e-04  1.11764908e-08  9.96863965e-02  1.11764908e-08  8.52766250e-05 
 2.12487595e-08  2.54985114e-01  2.12487595e-08  2.05190459e-04  2.12487595e-08  2.05839602e-01  2.12487595e-08  1.92543444e-04  2.12487595e-08  1.90736989e-01  2.12487595e-08  1.65338506e-04 
 4.13932968e-08  4.96719561e-01  4.13932968e-08  2.09547567e-04  4.13932968e-08  4.09180462e-01  4.13932968e-08  2.03085633e-04  4.13932968e-08  3.80468444e-01  4.13932968e-08  3.27907244e-04 
 8.16823713e-08  9.80188456e-01  8.16823713e-08  2.18328881e-04  8.16823713e-08  8.35461422e-01  8.16823713e-08  2.10433252e-04  8.16823713e-08  8.12498907e-01  8.16823713e-08  6.53087354e-04 
 1.00000000e-07  1.20000000e+00  1.00000000e-07  2.22187731e-04  1.00000000e-07  1.03671735e+00  1.00000000e-07  2.26037749e-04  1.00000000e-07  8.51001241e-01  1.00000000e-07  7.97749074e-04 
 1.03599759e-07  1.24319711e+00  1.03599759e-07  2.23003058e-04  1.03599759e-07  1.07677013e+00  1.03599759e-07  2.33057225e-04  1.03599759e-07  7.86436545e-01  1.03599759e-07  8.25521300e-04 
 1.10799277e-07  1.32959132e+00  1.10799277e-07  2.24555294e-04  1.10799277e-07  1.15555872e+00  1.10799277e-07  2.55330520e-04  1.10799277e-07  1.28173904e+00  1.10799277e-07  8.80589173e-04 
 1.16690301e-07  1.40028361e+00  1.16690301e-07  2.25817575e-04  1.16690301e-07  1.21764801e+00  1.16690301e-07  2.84060069e-04  1.16690301e-07  1.40215550e+00  1.16690301e-07  9.24940768e-04 
 1.21093294e-07  1.45311952e+00  1.21093294e-07  2.26777802e-04  1.21093294e-07  1.26658671e+00  1.21093294e-07  2.45237207e-04  1.21093294e-07  1.45024840e+00  1.21093294e-07  9.57711006e-04 
 1.25254743e-07  1.50305692e+00  1.25254743e-07  2.27664826e-04  1.25254743e-07  1.31396692e+00  1.25254743e-07  2.34474223e-04  1.25254743e-07  1.50397456e+00  1.25254743e-07  9.88429933e-04 
 1.29726631e-07  1.55671957e+00  1.29726631e-07  2.28606870e-04  1.29726631e-07  1.36443934e+00  1.29726631e-07  2.40223132e-04  1.29726631e-07  1.55481083e+00  1.29726631e-07  1.02118744e-03 
 1.34654412e-07  1.61585294e+00  1.34654412e-07  2.29648389e-04  1.34654412e-07  1.42064652e+00  1.34654412e-07  2.39269908e-04  1.34654412e-07  1.61631036e+00  1.34654412e-07  1.05700968e-03 
 1.40994152e-07  1.69192982e+00  1.40994152e-07  2.30978731e-04  1.40994152e-07  1.49286972e+00  1.40994152e-07  2.43491044e-04  1.40994152e-07  1.69057224e+00  1.40994152e-07  1.10273735e-03 
 1.49008062e-07  1.78809674e+00  1.49008062e-07  2.32656843e-04  1.49008062e-07  1.58479160e+00  1.49008062e-07  2.44803222e-04  1.49008062e-07  1.78834375e+00  1.49008062e-07  1.16008771e-03 
 1.60133103e-07  1.92159724e+00  1.60133103e-07  2.34969938e-04  1.60133103e-07  1.71280907e+00  1.60133103e-07  2.50321485e-04  1.60133103e-07  1.92062043e+00  1.60133103e-07  1.23883353e-03 
 1.76036470e-07  2.11243764e+00  1.76036470e-07  2.38251473e-04  1.76036470e-07  1.89709548e+00  1.76036470e-07  2.55350509e-04  1.76036470e-07  2.11258338e+00  1.76036470e-07  1.34841548e-03 
 1.99606348e-07  2.39527617e+00  1.99606348e-07  2.43054206e-04  1.99606348e-07  2.17206470e+00  1.99606348e-07  2.66902937e-04  1.99606348e-07  2.39460713e+00  1.99606348e-07  1.50182802e-03 
 2.27884694e-07  2.73461632e+00  2.27884694e-07  2.48726800e-04  2.27884694e-07  2.50454132e+00  2.27884694e-07  2.81527526e-04  2.27884694e-07  2.73470802e+00  2.27884694e-07  1.67136877e-03 
 2.70256754e-07  3.24308105e+00  2.70256754e-07  2.57046673e-04  2.70256754e-07  3.00614249e+00  2.70256754e-07  3.14440827e-04  2.70256754e-07  3.24261391e+00  2.70256754e-07  1.89915981e-03 
 3.55000876e-07  4.26001051e+00  3.55000876e-07  2.73103902e-04  3.55000876e-07  4.01596392e+00  3.55000876e-07  4.85357485e-04  3.55000876e-07  4.26006805e+00  3.55000876e-07  2.28260687e-03 
 4.40072428e-07  5.28086914e+00  4.40072428e-07  2.92437099e-04  4.40072428e-07  4.98830258e+00  4.40072428e-07  8.22815338e-03  4.40072428e-07  5.28054372e+00  4.40072428e-07  2.60202722e-03 
 5.19222558e-07  6.23067069e+00  5.19222558e-07  3.24280186e-04  5.19222558e-07  5.73992003e+00  5.19222558e-07  3.33180823e-02  5.19222558e-07  6.23071614e+00  5.19222558e-07  2.86992589e-03 
 6.03293803e-07  7.23952563e+00  6.03293803e-07  6.70623565e-03  6.03293803e-07  6.29348923e+00  6.03293803e-07  9.15865569e-02  6.03293803e-07  7.23927368e+00  6.03293803e-07  3.14739744e-03 
 6.70079453e-07  8.04095344e+00  6.70079453e-07  1.50887004e-01  6.70079453e-07  6.78224291e+00  6.70079453e-07  2.78297590e-01  6.70079453e-07  3.94570492e-02  6.70079453e-07  3.30878376e-03 
 7.11474005e-07  8.53768806e+00  7.11474005e-07  4.13788155e-01  7.11474005e-07  7.12636817e+00  7.11474005e-07  5.49928603e-01  7.11474005e-07 -1.56337513e-03  7.11474005e-07  3.38166650e-03 
 7.52069967e-07  9.02483960e+00  7.52069967e-07  7.99936183e-01  7.52069967e-07  7.56806635e+00  7.52069967e-07  8.90272519e-01  7.52069967e-07  1.65506471e-03  7.52069967e-07  3.46842947e-03 
 7.89874888e-07  9.47849865e+00  7.89874888e-07  1.21785473e+00  7.89874888e-07  7.99206638e+00  7.89874888e-07  1.02195596e+00  7.89874888e-07 -1.57465430e-03  7.89874888e-07  3.56570561e-03 
 8.25126357e-07  9.90151629e+00  8.25126357e-07  1.65458151e+00  8.25126357e-07  8.35335486e+00  8.25126357e-07  1.22612070e+00  8.25126357e-07  1.63640397e-03  8.25126357e-07  3.72536939e-03 
 8.58087697e-07  1.02970524e+01  8.58087697e-07  2.09870469e+00  8.58087697e-07  8.70356214e+00  8.58087697e-07  1.45490728e+00  8.58087697e-07  2.39880353e-03  8.58087697e-07  3.90096130e-03 
 8.75000000e-07  1.05000000e+01  8.75000000e-07  2.33406755e+00  8.75000000e-07  8.88159675e+00  8.75000000e-07  1.52909328e+00  8.75000000e-07  4.50982825e-02  8.75000000e-07  3.99229640e-03 
 8.76048671e-07  1.05000000e+01  8.76048671e-07  2.34861579e+00  8.76048671e-07  8.88142898e+00  8.76048671e-07  1.52397935e+00  8.76048671e-07  3.90442198e-02  8.76048671e-07  3.99747559e-03 
 8.78146014e-07  1.05000000e+01  8.78146014e-07  2.37738511e+00  8.78146014e-07  8.88058401e+00  8.78146014e-07  1.52261550e+00  8.78146014e-07  3.23902238e-02  8.78146014e-07  4.00817528e-03 
 8.79343982e-07  1.05000000e+01  8.79343982e-07  2.39353321e+00  8.79343982e-07  8.87979703e+00  8.79343982e-07  1.52588203e+00  8.79343982e-07  2.91192281e-02  8.79343982e-07  4.01437865e-03 
 8.80290918e-07  1.05000000e+01  8.80290918e-07  2.40616217e+00  8.80290918e-07  8.87907392e+00  8.80290918e-07  1.52613675e+00  8.80290918e-07  2.65425981e-02  8.80290918e-07  4.01912750e-03 
 8.81282601e-07  1.05000000e+01  8.81282601e-07  2.41926637e+00  8.81282601e-07  8.87816981e+00  8.81282601e-07  1.52645575e+00  8.81282601e-07  2.41478528e-02  8.81282601e-07  4.02406154e-03 
 8.82193843e-07  1.05000000e+01  8.82193843e-07  2.43120330e+00  8.82193843e-07  8.87722339e+00  8.82193843e-07  1.52704510e+00  8.82193843e-07  2.19843630e-02  8.82193843e-07  4.02857345e-03 
 8.83505035e-07  1.05000000e+01  8.83505035e-07  2.44821437e+00  8.83505035e-07  8.87565798e+00  8.83505035e-07  1.52728311e+00  8.83505035e-07  1.92209129e-02  8.83505035e-07  4.03498203e-03 
 8.85449648e-07  1.05000000e+01  8.85449648e-07  2.47311083e+00  8.85449648e-07  8.87290975e+00  8.85449648e-07  1.52811217e+00  8.85449648e-07  1.55087813e-02  8.85449648e-07  4.04439356e-03 
 8.88861286e-07  1.05000000e+01  8.88861286e-07  2.51594152e+00  8.88861286e-07  8.86694232e+00  8.88861286e-07  1.53012107e+00  8.88861286e-07  1.04170020e-02  8.88861286e-07  4.06063597e-03 
 8.95684563e-07  1.05000000e+01  8.95684563e-07  2.59898312e+00  8.95684563e-07  8.85159723e+00  8.95684563e-07  1.54119602e+00  8.95684563e-07  4.22157047e-03  8.95684563e-07  4.09248711e-03 
 9.09331115e-07  1.05000000e+01  9.09331115e-07  2.75738494e+00  9.09331115e-07  8.81474221e+00  9.09331115e-07  1.59069744e+00  9.09331115e-07  5.92830804e-04  9.09331115e-07  4.15447076e-03 
 9.23382449e-07  1.05000000e+01  9.23382449e-07  2.91227412e+00  9.23382449e-07  8.77572716e+00  9.23382449e-07  1.65785028e+00  9.23382449e-07  7.98698687e-05  9.23382449e-07  4.21587789e-03 
 9.38828274e-07  1.05000000e+01  9.38828274e-07  3.07486778e+00  9.38828274e-07  8.73616989e+00  9.38828274e-07  1.73502216e+00  9.38828274e-07  5.15837519e-05  9.38828274e-07  4.28065999e-03 
 9.63787673e-07  1.05000000e+01  9.63787673e-07  3.32330062e+00  9.63787673e-07  8.68215289e+00  9.63787673e-07  1.86510623e+00  9.63787673e-07  1.88615800e-05  9.63787673e-07  4.38026102e-03 
 9.90646790e-07  1.05000000e+01  9.90646790e-07  3.57382003e+00  9.90646790e-07  8.63766916e+00  9.90646790e-07  2.00442135e+00  9.90646790e-07  4.39275947e-05  9.90646790e-07  4.48122432e-03 
 1.04436502e-06  1.05000000e+01  1.04436502e-06  4.03628670e+00  1.04436502e-06  8.58069513e+00  1.04436502e-06  2.27551677e+00  1.04436502e-06  2.37963768e-06  1.04436502e-06  4.66885419e-03 
 1.09612205e-06  1.05000000e+01  1.09612205e-06  4.44068514e+00  1.09612205e-06  8.57335730e+00  1.09612205e-06  2.57225916e+00  1.09612205e-06  2.62003457e-04  1.09612205e-06  4.83807731e-03 
 1.14983924e-06  1.05000000e+01  1.14983924e-06  4.82889823e+00  1.14983924e-06  8.56719205e+00  1.14983924e-06  2.86428290e+00  1.14983924e-06  1.04746112e+01  1.14983924e-06  5.09892633e-03 
 1.18747674e-06  1.05000000e+01  1.18747674e-06  5.07665235e+00  1.18747674e-06  8.62823384e+00  1.18747674e-06  3.04654468e+00  1.18747674e-06  1.05045281e+01  1.18747674e-06  5.34594815e-03 
 1.21430634e-06  1.05000000e+01  1.21430634e-06  5.23416943e+00  1.21430634e-06  8.67252766e+00  1.21430634e-06  3.15604625e+00  1.21430634e-06  1.04954814e+01  1.21430634e-06  5.51466813e-03 
 1.23986192e-06  1.05000000e+01  1.23986192e-06  5.37163915e+00  1.23986192e-06  8.70597524e+00  1.23986192e-06  3.25162313e+00  1.23986192e-06  1.05044982e+01  1.23986192e-06  5.66949273e-03 
 1.25622903e-06  1.05000000e+01  1.25622903e-06  5.45454253e+00  1.25622903e-06  8.72216523e+00  1.25622903e-06  3.30122506e+00  1.25622903e-06  1.04955205e+01  1.25622903e-06  5.76601675e-03 
 1.27223417e-06  1.05000000e+01  1.27223417e-06  5.53272865e+00  1.27223417e-06  8.73331748e+00  1.27223417e-06  3.35478311e+00  1.27223417e-06  1.05044503e+01  1.27223417e-06  5.85962630e-03 
 1.29484300e-06  1.05000000e+01  1.29484300e-06  5.63961227e+00  1.29484300e-06  8.74423958e+00  1.29484300e-06  3.42471120e+00  1.29484300e-06  1.04955617e+01  1.29484300e-06  5.99032026e-03 
 1.31633733e-06  1.05000000e+01  1.31633733e-06  5.73834845e+00  1.31633733e-06  8.74990961e+00  1.31633733e-06  3.49489280e+00  1.31633733e-06  1.05044154e+01  1.31633733e-06  6.11384021e-03 
 1.34383034e-06  1.05000000e+01  1.34383034e-06  5.86172969e+00  1.34383034e-06  8.75471974e+00  1.34383034e-06  3.58372263e+00  1.34383034e-06  1.04955935e+01  1.34383034e-06  6.27096913e-03 
 1.37923936e-06  1.05000000e+01  1.37923936e-06  6.01663936e+00  1.37923936e-06  8.75951737e+00  1.37923936e-06  3.70061754e+00  1.37923936e-06  1.05043908e+01  1.37923936e-06  6.47221732e-03 
 1.42572679e-06  1.05000000e+01  1.42572679e-06  6.21299989e+00  1.42572679e-06  8.76947369e+00  1.42572679e-06  3.85097821e+00  1.42572679e-06  1.04956124e+01  1.42572679e-06  6.73396380e-03 
 1.49705487e-06  1.05000000e+01  1.49705487e-06  6.49510157e+00  1.49705487e-06  8.79470006e+00  1.49705487e-06  4.07123827e+00  1.49705487e-06  1.05043773e+01  1.49705487e-06  7.12793939e-03 
 1.59705487e-06  1.05000000e+01  1.59705487e-06  6.84400581e+00  1.59705487e-06  8.84333649e+00  1.59705487e-06  4.34467916e+00  1.59705487e-06  1.04956215e+01  1.59705487e-06  7.66051071e-03 
 1.69705487e-06  1.05000000e+01  1.69705487e-06  7.13835176e+00  1.69705487e-06  8.89009421e+00  1.69705487e-06  4.57514941e+00  1.69705487e-06  1.05043697e+01  1.69705487e-06  8.16917312e-03 
 1.79705487e-06  1.05000000e+01  1.79705487e-06  7.38826257e+00  1.79705487e-06  8.92410238e+00  1.79705487e-06  4.76760063e+00  1.79705487e-06  1.04956291e+01  1.79705487e-06  8.65792377e-03 
 1.89705487e-06  1.05000000e+01  1.89705487e-06  7.60696914e+00  1.89705487e-06  8.94498772e+00  1.89705487e-06  4.93277569e+00  1.89705487e-06  1.05043622e+01  1.89705487e-06  9.13238718e-03 
 1.99705487e-06  1.05000000e+01  1.99705487e-06  7.80350637e+00  1.99705487e-06  8.96021188e+00  1.99705487e-06  5.07720917e+00  1.99705487e-06  1.04956367e+01  1.99705487e-06  9.59659062e-03 
 2.09705487e-06  1.05000000e+01  2.09705487e-06  7.98136453e+00  2.09705487e-06  8.97494142e+00  2.09705487e-06  5.20527216e+00  2.09705487e-06  1.05043546e+01  2.09705487e-06  1.00521530e-02 
 2.19705487e-06  1.05000000e+01  2.19705487e-06  8.14091844e+00  2.19705487e-06  8.99199860e+00  2.19705487e-06  5.31744434e+00  2.19705487e-06  1.04956442e+01  2.19705487e-06  1.04993957e-02 
 2.29705487e-06  1.05000000e+01  2.29705487e-06  8.28215498e+00  2.29705487e-06  9.00978796e+00  2.29705487e-06  5.41522120e+00  2.29705487e-06  1.05043471e+01  2.29705487e-06  1.09383998e-02 
 2.39705487e-06  1.05000000e+01  2.39705487e-06  8.40599355e+00  2.39705487e-06  9.02738328e+00  2.39705487e-06  5.49928890e+00  2.39705487e-06  1.04956517e+01  2.39705487e-06  1.13696914e-02 
 2.49705487e-06  1.05000000e+01  2.49705487e-06  8.51419610e+00  2.49705487e-06  9.04299749e+00  2.49705487e-06  5.57196875e+00  2.49705487e-06  1.05043396e+01  2.49705487e-06  1.17940774e-02 
 2.59705487e-06  1.05000000e+01  2.59705487e-06  8.60878922e+00  2.59705487e-06  9.05717539e+00  2.59705487e-06  5.63453780e+00  2.59705487e-06  1.04956593e+01  2.59705487e-06  1.22125261e-02 
 2.69705487e-06  1.05000000e+01  2.69705487e-06  8.69157830e+00  2.69705487e-06  9.06952137e+00  2.69705487e-06  5.68902510e+00  2.69705487e-06  1.05043321e+01  2.69705487e-06  1.26258289e-02 
 2.79705487e-06  1.05000000e+01  2.79705487e-06  8.76400355e+00  2.79705487e-06  9.08117731e+00  2.79705487e-06  5.73622056e+00  2.79705487e-06  1.04956668e+01  2.79705487e-06  1.30346785e-02 
 2.89705487e-06  1.05000000e+01  2.89705487e-06  8.82718569e+00  2.89705487e-06  9.09169146e+00  2.89705487e-06  5.77746359e+00  2.89705487e-06  1.05043246e+01  2.89705487e-06  1.34395493e-02 
 2.99705487e-06  1.05000000e+01  2.99705487e-06  8.88206373e+00  2.99705487e-06  9.10188006e+00  2.99705487e-06  5.81316720e+00  2.99705487e-06  1.04956742e+01  2.99705487e-06  1.38409027e-02 
 3.09705487e-06  1.05000000e+01  3.09705487e-06  8.92948165e+00  3.09705487e-06  9.11100897e+00  3.09705487e-06  5.84430499e+00  3.09705487e-06  1.05043171e+01  3.09705487e-06  1.42390761e-02 
 3.19705487e-06  1.05000000e+01  3.19705487e-06  8.97024325e+00  3.19705487e-06  9.11975578e+00  3.19705487e-06  5.87118424e+00  3.19705487e-06  1.04956817e+01  3.19705487e-06  1.46344610e-02 
 3.29705487e-06  1.05000000e+01  3.29705487e-06  9.00510714e+00  3.29705487e-06  9.12738168e+00  3.29705487e-06  5.89458216e+00  3.29705487e-06  1.05043096e+01  3.29705487e-06  1.50273448e-02 
 3.39705487e-06  1.05000000e+01  3.39705487e-06  9.03478402e+00  3.39705487e-06  9.13461634e+00  3.39705487e-06  5.91475698e+00  3.39705487e-06  1.04956892e+01  3.39705487e-06  1.54180731e-02 
 3.49705487e-06  1.05000000e+01  3.49705487e-06  9.05991674e+00  3.49705487e-06  9.14078569e+00  3.49705487e-06  5.93231137e+00  3.49705487e-06  1.05043022e+01  3.49705487e-06  1.58068761e-02 
 3.59705487e-06  1.05000000e+01  3.59705487e-06  9.08108310e+00  3.59705487e-06  9.14665770e+00  3.59705487e-06  5.94744955e+00  3.59705487e-06  1.04956966e+01  3.59705487e-06  1.61940403e-02 
 3.69705487e-06  1.05000000e+01  3.69705487e-06  9.09879074e+00  3.69705487e-06  9.15157867e+00  3.69705487e-06  5.96061694e+00  3.69705487e-06  1.05042947e+01  3.69705487e-06  1.65797350e-02 
 3.79705487e-06  1.05000000e+01  3.79705487e-06  9.11348941e+00  3.79705487e-06  9.15631314e+00  3.79705487e-06  5.97197471e+00  3.79705487e-06  1.04957041e+01  3.79705487e-06  1.69641915e-02 
 3.89705487e-06  1.05000000e+01  3.89705487e-06  9.12557239e+00  3.89705487e-06  9.16020311e+00  3.89705487e-06  5.98184341e+00  3.89705487e-06  1.05042873e+01  3.89705487e-06  1.73475291e-02 
 3.99705487e-06  1.05000000e+01  3.99705487e-06  9.13538849e+00  3.99705487e-06  9.16399997e+00  3.99705487e-06  5.99035815e+00  3.99705487e-06  1.04957115e+01  3.99705487e-06  1.77299364e-02 
 4.09705487e-06  1.05000000e+01  4.09705487e-06  9.14324294e+00  4.09705487e-06  9.16704162e+00  4.09705487e-06  5.99774453e+00  4.09705487e-06  1.05042799e+01  4.09705487e-06  1.81114950e-02 
 4.19705487e-06  1.05000000e+01  4.19705487e-06  9.14940644e+00  4.19705487e-06  9.17006950e+00  4.19705487e-06  6.00412254e+00  4.19705487e-06  1.04957189e+01  4.19705487e-06  1.84923606e-02 
 4.29705487e-06  1.05000000e+01  4.29705487e-06  9.15411498e+00  4.29705487e-06  9.17242061e+00  4.29705487e-06  6.00964454e+00  4.29705487e-06  1.05042725e+01  4.29705487e-06  1.88725860e-02 
 4.39705487e-06  1.05000000e+01  4.39705487e-06  9.15757685e+00  4.39705487e-06  9.17482800e+00  4.39705487e-06  6.01442089e+00  4.39705487e-06  1.04957263e+01  4.39705487e-06  1.92523005e-02 
 4.49705487e-06  1.05000000e+01  4.49705487e-06  9.15997245e+00  4.49705487e-06  9.17662790e+00  4.49705487e-06  6.01854634e+00  4.49705487e-06  1.05042651e+01  4.49705487e-06  1.96315345e-02 
 4.59705487e-06  1.05000000e+01  4.59705487e-06  9.16146013e+00  4.59705487e-06  9.17854446e+00  4.59705487e-06  6.02212527e+00  4.59705487e-06  1.04957337e+01  4.59705487e-06  2.00103958e-02 
 4.69705487e-06  1.05000000e+01  4.69705487e-06  9.16217618e+00  4.69705487e-06  9.17991230e+00  4.69705487e-06  6.02520652e+00  4.69705487e-06  1.05042578e+01  4.69705487e-06  2.03888975e-02 
 4.79705487e-06  1.05000000e+01  4.79705487e-06  9.16223975e+00  4.79705487e-06  9.18144648e+00  4.79705487e-06  6.02789196e+00  4.79705487e-06  1.04957410e+01  4.79705487e-06  2.07671307e-02 
 4.89705487e-06  1.05000000e+01  4.89705487e-06  9.16175289e+00  4.89705487e-06  9.18247989e+00  4.89705487e-06  6.03019309e+00  4.89705487e-06  1.05042504e+01  4.89705487e-06  2.11450952e-02 
