 time            v(bvdd)         time            v(pvdd)         time            v(gate)         time            v(ea_en)       
 1.00000000e-09  1.00000000e-03  1.00000000e-09  1.71010843e-03  1.00000000e-09  6.23072708e-04  1.00000000e-09  1.47950168e-02 
 1.02794902e-09  1.02794902e-03  1.02794902e-09  1.73047118e-03  1.02794902e-09  6.35039034e-04  1.02794902e-09  1.51992630e-02 
 1.08384707e-09  1.08384707e-03  1.08384707e-09  1.74810661e-03  1.08384707e-09  6.56261472e-04  1.08384707e-09  1.59984270e-02 
 1.19564317e-09  1.19564317e-03  1.19564317e-09  1.74510652e-03  1.19564317e-09  6.92248496e-04  1.19564317e-09  1.75817488e-02 
 1.41923535e-09  1.41923535e-03  1.41923535e-09  1.74652427e-03  1.41923535e-09  7.78072251e-04  1.41923535e-09  2.07614431e-02 
 1.72917335e-09  1.72917335e-03  1.72917335e-09  1.74529799e-03  1.72917335e-09  9.17720026e-04  1.72917335e-09  2.51866353e-02 
 2.34904934e-09  2.34904934e-03  2.34904934e-09  1.74595636e-03  2.34904934e-09  1.23185610e-03  2.34904934e-09  3.40926555e-02 
 3.58880133e-09  3.58880133e-03  3.58880133e-09  1.74480036e-03  3.58880133e-09  1.92836924e-03  3.58880133e-09  5.20593536e-02 
 6.06830529e-09  6.06830529e-03  6.06830529e-09  1.74504615e-03  6.06830529e-09  3.13821134e-03  6.06830529e-09  8.82745023e-02 
 1.10273132e-08  1.10273132e-02  1.10273132e-08  1.74429623e-03  1.10273132e-08  4.56717247e-03  1.10273132e-08  1.60260143e-01 
 1.94863631e-08  1.94863631e-02  1.94863631e-08  1.74663257e-03  1.94863631e-08  5.53361401e-03  1.94863631e-08  2.76525186e-01 
 2.88678545e-08  2.88678545e-02  2.88678545e-08  1.74877496e-03  2.88678545e-08  5.84348642e-03  2.88678545e-08  3.91751684e-01 
 4.49433394e-08  4.49433394e-02  4.49433394e-08  1.75398391e-03  4.49433394e-08  6.16225658e-03  4.49433394e-08  5.53166257e-01 
 6.11633057e-08  6.11633057e-02  6.11633057e-08  1.75292651e-03  6.11633057e-08  6.36053754e-03  6.11633057e-08  6.16953257e-01 
 7.73693728e-08  7.73693728e-02  7.73693728e-08  1.74958317e-03  7.73693728e-08  6.61034881e-03  7.73693728e-08  6.11719659e-01 
 9.40317074e-08  9.40317074e-02  9.40317074e-08  1.74496760e-03  9.40317074e-08  6.96081987e-03  9.40317074e-08  6.11471764e-01 
 1.00000000e-07  1.00000000e-01  1.00000000e-07  1.74423446e-03  1.00000000e-07  7.07361727e-03  1.00000000e-07  6.10807793e-01 
 1.01829258e-07  1.01829258e-01  1.01829258e-07  1.74346380e-03  1.01829258e-07  7.10984851e-03  1.01829258e-07  6.10662481e-01 
 1.05487775e-07  1.05487775e-01  1.05487775e-07  1.74259193e-03  1.05487775e-07  7.18118328e-03  1.05487775e-07  6.10409049e-01 
 1.12804809e-07  1.12804809e-01  1.12804809e-07  1.74087771e-03  1.12804809e-07  7.32423483e-03  1.12804809e-07  6.10033742e-01 
 1.27438876e-07  1.27438876e-01  1.27438876e-07  1.73743232e-03  1.27438876e-07  7.60958524e-03  1.27438876e-07  6.09485802e-01 
 1.56707010e-07  1.56707010e-01  1.56707010e-07  1.73053747e-03  1.56707010e-07  8.17572664e-03  1.56707010e-07  6.08777109e-01 
 2.15243279e-07  2.15243279e-01  2.15243279e-07  1.71642877e-03  2.15243279e-07  9.29268389e-03  2.15243279e-07  6.08142463e-01 
 3.15243279e-07  3.15243279e-01  3.15243279e-07  1.69101982e-03  3.15243279e-07  1.11683746e-02  3.15243279e-07  6.07986700e-01 
 4.15243279e-07  4.15243279e-01  4.15243279e-07  1.66392437e-03  4.15243279e-07  1.30333978e-02  4.15243279e-07  6.08215273e-01 
 5.15243279e-07  5.15243279e-01  5.15243279e-07  1.63606696e-03  5.15243279e-07  1.49145420e-02  5.15243279e-07  6.08530978e-01 
 6.15243279e-07  6.15243279e-01  6.15243279e-07  1.61345205e-03  6.15243279e-07  1.68756249e-02  6.15243279e-07  6.08859836e-01 
 7.15243279e-07  7.15243279e-01  7.15243279e-07  1.64450277e-03  7.15243279e-07  1.90266114e-02  7.15243279e-07  6.09343792e-01 
 8.15243279e-07  8.15243279e-01  8.15243279e-07  2.10131696e-03  8.15243279e-07  2.18205035e-02  8.15243279e-07  6.10066712e-01 
 9.15243279e-07  9.15243279e-01  9.15243279e-07  5.35132953e-03  9.15243279e-07  2.75716543e-02  9.15243279e-07  6.13083924e-01 
 1.01524328e-06  1.01524328e+00  1.01524328e-06  2.10582950e-02  1.01524328e-06  4.52235472e-02  1.01524328e-06  6.27713195e-01 
 1.11524328e-06  1.11524328e+00  1.11524328e-06  6.49601968e-02  1.11524328e-06  8.95345565e-02  1.11524328e-06  6.93280343e-01 
 1.21524328e-06  1.21524328e+00  1.21524328e-06  1.40003136e-01  1.21524328e-06  1.64180623e-01  1.21524328e-06  8.90746508e-01 
 1.29604518e-06  1.29604518e+00  1.29604518e-06  2.14332661e-01  1.29604518e-06  2.38350743e-01  1.29604518e-06  1.29079116e+00 
 1.36582990e-06  1.36582990e+00  1.36582990e-06  2.82248084e-01  1.36582990e-06  3.05852563e-01  1.36582990e-06  1.36593959e+00 
 1.43893588e-06  1.43893588e+00  1.43893588e-06  3.54742348e-01  1.43893588e-06  3.78248462e-01  1.43893588e-06  1.43666936e+00 
 1.52573046e-06  1.52573046e+00  1.52573046e-06  4.41463512e-01  1.52573046e-06  4.64522333e-01  1.52573046e-06  1.52502996e+00 
 1.62573046e-06  1.62573046e+00  1.62573046e-06  5.41858968e-01  1.62573046e-06  5.64222463e-01  1.62573046e-06  1.62436657e+00 
 1.72573046e-06  1.72573046e+00  1.72573046e-06  6.42946748e-01  1.72573046e-06  6.63313956e-01  1.72573046e-06  1.72519297e+00 
 1.82573046e-06  1.82573046e+00  1.82573046e-06  7.47448922e-01  1.82573046e-06  7.58476389e-01  1.82573046e-06  1.82477127e+00 
 1.92573046e-06  1.92573046e+00  1.92573046e-06  8.67385497e-01  1.92573046e-06  8.39537964e-01  1.92573046e-06  1.92544559e+00 
 2.02573046e-06  2.02573046e+00  2.02573046e-06  1.02858260e+00  2.02573046e-06  9.02428544e-01  2.02573046e-06  2.02536432e+00 
 2.12573046e-06  2.12573046e+00  2.12573046e-06  1.25906744e+00  2.12573046e-06  9.56628545e-01  2.12573046e-06  2.12611103e+00 
 2.21495231e-06  2.21495231e+00  2.21495231e-06  1.53355143e+00  2.21495231e-06  1.00434287e+00  2.21495231e-06  2.21531374e+00 
 2.31495231e-06  2.31495231e+00  2.31495231e-06  1.93274051e+00  2.31495231e-06  1.03293844e+00  2.31495231e-06  2.31595732e+00 
 2.38381614e-06  2.38381614e+00  2.38381614e-06  2.23873054e+00  2.38381614e-06  9.83397365e-01  2.38381614e-06  2.38386606e+00 
 2.45359184e-06  2.45359184e+00  2.45359184e-06  2.42588954e+00  2.45359184e-06  1.00564532e+00  2.45359184e-06  2.45334641e+00 
 2.50958086e-06  2.50958086e+00  2.50958086e-06  2.48457097e+00  2.50958086e-06  9.90818116e-01  2.50958086e-06  2.50891482e+00 
 2.57421809e-06  2.57421809e+00  2.57421809e-06  2.55310193e+00  2.57421809e-06  9.77638055e-01  2.57421809e-06  2.57395973e+00 
 2.64876420e-06  2.64876420e+00  2.64876420e-06  2.63039547e+00  2.64876420e-06  9.64298331e-01  2.64876420e-06  2.64812340e+00 
 2.72436063e-06  2.72436063e+00  2.72436063e-06  2.70808636e+00  2.72436063e-06  9.44431845e-01  2.72436063e-06  2.72406532e+00 
 2.80405933e-06  2.80405933e+00  2.80405933e-06  2.78933446e+00  2.80405933e-06  9.41549500e-01  2.80405933e-06  2.80341500e+00 
 2.90405933e-06  2.90405933e+00  2.90405933e-06  2.89079001e+00  2.90405933e-06  9.23175570e-01  2.90405933e-06  2.90363924e+00 
 3.00405933e-06  3.00405933e+00  3.00405933e-06  2.99191348e+00  3.00405933e-06  9.23719079e-01  3.00405933e-06  3.00320266e+00 
 3.10405933e-06  3.10405933e+00  3.10405933e-06  3.09277082e+00  3.10405933e-06  9.11352114e-01  3.10405933e-06  3.10310807e+00 
 3.20405933e-06  3.20405933e+00  3.20405933e-06  3.19351126e+00  3.20405933e-06  9.13399620e-01  3.20405933e-06  3.20215515e+00 
 3.30405933e-06  3.30405933e+00  3.30405933e-06  3.29409873e+00  3.30405933e-06  9.03651506e-01  3.30405933e-06  3.30097872e+00 
 3.40405933e-06  3.40405933e+00  3.40405933e-06  3.39463456e+00  3.40405933e-06  9.04331839e-01  3.40405933e-06  3.39833537e+00 
 3.50405933e-06  3.50405933e+00  3.50405933e-06  3.49507290e+00  3.50405933e-06  8.94460324e-01  3.50405933e-06  3.49481043e+00 
 3.60405933e-06  3.60405933e+00  3.60405933e-06  3.59548236e+00  3.60405933e-06  8.93105857e-01  3.60405933e-06  3.58970856e+00 
 3.70405933e-06  3.70405933e+00  3.70405933e-06  3.69581791e+00  3.70405933e-06  8.86159790e-01  3.70405933e-06  3.68390212e+00 
 3.80405933e-06  3.80405933e+00  3.80405933e-06  3.79613230e+00  3.80405933e-06  8.87375413e-01  3.80405933e-06  3.77697887e+00 
 3.90405933e-06  3.90405933e+00  3.90405933e-06  3.89639573e+00  3.90405933e-06  8.83137779e-01  3.90405933e-06  3.87026532e+00 
 4.00405933e-06  4.00405933e+00  4.00405933e-06  3.99664676e+00  4.00405933e-06  8.84641928e-01  4.00405933e-06  3.96390321e+00 
 4.10405933e-06  4.10405933e+00  4.10405933e-06  4.09686100e+00  4.10405933e-06  8.81752576e-01  4.10405933e-06  4.05944814e+00 
 4.20405933e-06  4.20405933e+00  4.20405933e-06  4.19706659e+00  4.20405933e-06  8.83252418e-01  4.20405933e-06  4.15744153e+00 
 4.30405933e-06  4.30405933e+00  4.30405933e-06  4.29724481e+00  4.30405933e-06  8.81421947e-01  4.30405933e-06  4.25962561e+00 
 4.40405933e-06  4.40405933e+00  4.40405933e-06  4.39741624e+00  4.40405933e-06  8.83063094e-01  4.40405933e-06  4.36646188e+00 
 4.50405933e-06  4.50405933e+00  4.50405933e-06  4.49756675e+00  4.50405933e-06  8.82489803e-01  4.50405933e-06  4.47851732e+00 
 4.60405933e-06  4.60405933e+00  4.60405933e-06  4.59771086e+00  4.60405933e-06  8.86085183e-01  4.60405933e-06  4.59280203e+00 
 4.70405933e-06  4.70405933e+00  4.70405933e-06  4.69783577e+00  4.70405933e-06  8.95516844e-01  4.70405933e-06  4.70244418e+00 
 4.80405933e-06  4.80405933e+00  4.80405933e-06  4.79795380e+00  4.80405933e-06  9.01456576e-01  4.80405933e-06  4.80373618e+00 
 4.90405933e-06  4.90405933e+00  4.90405933e-06  4.89806310e+00  4.90405933e-06  9.03370474e-01  4.90405933e-06  4.90385158e+00 
 5.00405933e-06  5.00405933e+00  5.00405933e-06  4.99816836e+00  5.00405933e-06  9.07453543e-01  5.00405933e-06  5.00382106e+00 
 5.06517403e-06  5.06517403e+00  5.06517403e-06  5.05934267e+00  5.06517403e-06  9.08588782e-01  5.06517403e-06  5.06504778e+00 
 5.10943309e-06  5.10943309e+00  5.10943309e-06  5.10364508e+00  5.10943309e-06  9.10910953e-01  5.10943309e-06  5.10922348e+00 
 5.13599012e-06  5.13599012e+00  5.13599012e-06  5.13022650e+00  5.13599012e-06  9.11931282e-01  5.13599012e-06  5.13585234e+00 
 5.16645347e-06  5.16645347e+00  5.16645347e-06  5.16071822e+00  5.16645347e-06  9.14048718e-01  5.16645347e-06  5.16625229e+00 
 5.19671813e-06  5.19671813e+00  5.19671813e-06  5.19101010e+00  5.19671813e-06  9.17274768e-01  5.19671813e-06  5.19658018e+00 
 5.23824448e-06  5.23824448e+00  5.23824448e-06  5.23257259e+00  5.23824448e-06  9.22953377e-01  5.23824448e-06  5.23804664e+00 
 5.31517613e-06  5.31517613e+00  5.31517613e-06  5.30956716e+00  5.31517613e-06  9.34974215e-01  5.31517613e-06  5.31504010e+00 
 5.41517613e-06  5.41517613e+00  5.41517613e-06  5.40964259e+00  5.41517613e-06  9.44281473e-01  5.41517613e-06  5.41498138e+00 
 5.51517613e-06  5.51517613e+00  5.51517613e-06  5.50971528e+00  5.51517613e-06  9.51575166e-01  5.51517613e-06  5.51504255e+00 
 5.61517613e-06  5.61517613e+00  5.61517613e-06  5.60978460e+00  5.61517613e-06  9.57802558e-01  5.61517613e-06  5.61498552e+00 
 5.71517613e-06  5.71517613e+00  5.71517613e-06  5.70985157e+00  5.71517613e-06  9.63858082e-01  5.71517613e-06  5.71504505e+00 
 5.81517613e-06  5.81517613e+00  5.81517613e-06  5.80991513e+00  5.81517613e-06  9.69062019e-01  5.81517613e-06  5.81498928e+00 
 5.91517613e-06  5.91517613e+00  5.91517613e-06  5.90997638e+00  5.91517613e-06  9.74461425e-01  5.91517613e-06  5.91504739e+00 
 6.01517613e-06  6.01517613e+00  6.01517613e-06  6.01003438e+00  6.01517613e-06  9.79220730e-01  6.01517613e-06  6.01499272e+00 
 6.11517613e-06  6.11517613e+00  6.11517613e-06  6.11009022e+00  6.11517613e-06  9.84360154e-01  6.11517613e-06  6.11504956e+00 
 6.21517613e-06  6.21517613e+00  6.21517613e-06  6.21014303e+00  6.21517613e-06  9.88948830e-01  6.21517613e-06  6.21499586e+00 
 6.31517613e-06  6.31517613e+00  6.31517613e-06  6.31019391e+00  6.31517613e-06  9.93999131e-01  6.31517613e-06  6.31505155e+00 
 6.41517613e-06  6.41517613e+00  6.41517613e-06  6.41024200e+00  6.41517613e-06  9.98530912e-01  6.41517613e-06  6.41499873e+00 
 6.51517613e-06  6.51517613e+00  6.51517613e-06  6.51028841e+00  6.51517613e-06  1.00355622e+00  6.51517613e-06  6.51505337e+00 
 6.61517613e-06  6.61517613e+00  6.61517613e-06  6.61033230e+00  6.61517613e-06  1.00807584e+00  6.61517613e-06  6.61500136e+00 
 6.71517613e-06  6.71517613e+00  6.71517613e-06  6.71037473e+00  6.71517613e-06  1.01309778e+00  6.71517613e-06  6.71505505e+00 
 6.81517613e-06  6.81517613e+00  6.81517613e-06  6.81041486e+00  6.81517613e-06  1.01762305e+00  6.81517613e-06  6.81500377e+00 
 6.91517613e-06  6.91517613e+00  6.91517613e-06  6.91045373e+00  6.91517613e-06  1.02264793e+00  6.91517613e-06  6.91505658e+00 
 7.01517613e-06  7.01517613e+00  7.01517613e-06  7.01049052e+00  7.01517613e-06  1.02718674e+00  7.01517613e-06  7.01500599e+00 
 7.11517613e-06  7.11517613e+00  7.11517613e-06  7.11052622e+00  7.11517613e-06  1.03221608e+00  7.11517613e-06  7.11505800e+00 
 7.21517613e-06  7.21517613e+00  7.21517613e-06  7.21056002e+00  7.21517613e-06  1.03677298e+00  7.21517613e-06  7.21500803e+00 
 7.31517613e-06  7.31517613e+00  7.31517613e-06  7.31059289e+00  7.31517613e-06  1.04180743e+00  7.31517613e-06  7.31505929e+00 
 7.41517613e-06  7.41517613e+00  7.41517613e-06  7.41062401e+00  7.41517613e-06  1.04638615e+00  7.41517613e-06  7.41500992e+00 
 7.51517613e-06  7.51517613e+00  7.51517613e-06  7.51065431e+00  7.51517613e-06  1.05142696e+00  7.51517613e-06  7.51506049e+00 
 7.61517613e-06  7.61517613e+00  7.61517613e-06  7.61068302e+00  7.61517613e-06  1.05603148e+00  7.61517613e-06  7.61501166e+00 
 7.71517613e-06  7.71517613e+00  7.71517613e-06  7.71071102e+00  7.71517613e-06  1.06108106e+00  7.71517613e-06  7.71506159e+00 
 7.81517613e-06  7.81517613e+00  7.81517613e-06  7.81073755e+00  7.81517613e-06  1.06571605e+00  7.81517613e-06  7.81501327e+00 
 7.91517613e-06  7.91517613e+00  7.91517613e-06  7.91076345e+00  7.91517613e-06  1.07077824e+00  7.91517613e-06  7.91506260e+00 
 8.01517613e-06  8.01517613e+00  8.01517613e-06  8.01078800e+00  8.01517613e-06  1.07544934e+00  8.01517613e-06  8.01501476e+00 
 8.11517613e-06  8.11517613e+00  8.11517613e-06  8.11081198e+00  8.11517613e-06  1.08052951e+00  8.11517613e-06  8.11506353e+00 
 8.21517613e-06  8.21517613e+00  8.21517613e-06  8.21083473e+00  8.21517613e-06  1.08524353e+00  8.21517613e-06  8.21501614e+00 
 8.31517613e-06  8.31517613e+00  8.31517613e-06  8.31085696e+00  8.31517613e-06  1.09034871e+00  8.31517613e-06  8.31506439e+00 
 8.41517613e-06  8.41517613e+00  8.41517613e-06  8.41087805e+00  8.41517613e-06  1.09511387e+00  8.41517613e-06  8.41501742e+00 
 8.51517613e-06  8.51517613e+00  8.51517613e-06  8.51089869e+00  8.51517613e-06  1.10025289e+00  8.51517613e-06  8.51506518e+00 
 8.61517613e-06  8.61517613e+00  8.61517613e-06  8.61091825e+00  8.61517613e-06  1.10507896e+00  8.61517613e-06  8.61501861e+00 
 8.71517613e-06  8.71517613e+00  8.71517613e-06  8.71093740e+00  8.71517613e-06  1.11026263e+00  8.71517613e-06  8.71506591e+00 
 8.81517613e-06  8.81517613e+00  8.81517613e-06  8.81095557e+00  8.81517613e-06  1.11516123e+00  8.81517613e-06  8.81501972e+00 
 8.91517613e-06  8.91517613e+00  8.91517613e-06  8.91097334e+00  8.91517613e-06  1.12040251e+00  8.91517613e-06  8.91506658e+00 
 9.01517613e-06  9.01517613e+00  9.01517613e-06  9.01099020e+00  9.01517613e-06  1.12538739e+00  9.01517613e-06  9.01502074e+00 
 9.11517613e-06  9.11517613e+00  9.11517613e-06  9.11100670e+00  9.11517613e-06  1.13070167e+00  9.11517613e-06  9.11506719e+00 
 9.21517613e-06  9.21517613e+00  9.21517613e-06  9.21102234e+00  9.21517613e-06  1.13578898e+00  9.21517613e-06  9.21502170e+00 
 9.31517613e-06  9.31517613e+00  9.31517613e-06  9.31103765e+00  9.31517613e-06  1.14119442e+00  9.31517613e-06  9.31506775e+00 
 9.41517613e-06  9.41517613e+00  9.41517613e-06  9.41105215e+00  9.41517613e-06  1.14640316e+00  9.41517613e-06  9.41502258e+00 
 9.51517613e-06  9.51517613e+00  9.51517613e-06  9.51106633e+00  9.51517613e-06  1.15192104e+00  9.51517613e-06  9.51506827e+00 
 9.61517613e-06  9.61517613e+00  9.61517613e-06  9.61107975e+00  9.61517613e-06  1.15727345e+00  9.61517613e-06  9.61502340e+00 
 9.71517613e-06  9.71517613e+00  9.71517613e-06  9.71109287e+00  9.71517613e-06  1.16292866e+00  9.71517613e-06  9.71506874e+00 
 9.81517613e-06  9.81517613e+00  9.81517613e-06  9.81110527e+00  9.81517613e-06  1.16845083e+00  9.81517613e-06  9.81502417e+00 
 9.91517613e-06  9.91517613e+00  9.91517613e-06  9.91111738e+00  9.91517613e-06  1.17427242e+00  9.91517613e-06  9.91506918e+00 
 1.00151761e-05  1.00151761e+01  1.00151761e-05  1.00111288e+01  1.00151761e-05  1.17999482e+00  1.00151761e-05  1.00150249e+01 
 1.01151761e-05  1.01151761e+01  1.01151761e-05  1.01111399e+01  1.01151761e-05  1.18601667e+00  1.01151761e-05  1.01150696e+01 
 1.02151761e-05  1.02151761e+01  1.02151761e-05  1.02111504e+01  1.02151761e-05  1.19197498e+00  1.02151761e-05  1.02150255e+01 
 1.03151761e-05  1.03151761e+01  1.03151761e-05  1.03111606e+01  1.03151761e-05  1.19823655e+00  1.03151761e-05  1.03150699e+01 
 1.04151761e-05  1.04151761e+01  1.04151761e-05  1.04111702e+01  1.04151761e-05  1.20447244e+00  1.04151761e-05  1.04150261e+01 
 1.05000000e-05  1.05000000e+01  1.05000000e-05  1.04960020e+01  1.05000000e-05  1.21002701e+00  1.05000000e-05  1.04998941e+01 
 1.05100000e-05  1.05000000e+01  1.05100000e-05  1.04987368e+01  1.05100000e-05  1.20743313e+00  1.05100000e-05  1.05000089e+01 
 1.05300000e-05  1.05000000e+01  1.05300000e-05  1.05002408e+01  1.05300000e-05  1.20272205e+00  1.05300000e-05  1.04999951e+01 
 1.05700000e-05  1.05000000e+01  1.05700000e-05  1.04994820e+01  1.05700000e-05  1.19253904e+00  1.05700000e-05  1.04999989e+01 
 1.06500000e-05  1.05000000e+01  1.06500000e-05  1.05000943e+01  1.06500000e-05  1.17496438e+00  1.06500000e-05  1.04999976e+01 
 1.07500000e-05  1.05000000e+01  1.07500000e-05  1.04996300e+01  1.07500000e-05  1.16196475e+00  1.07500000e-05  1.04999986e+01 
 1.08500000e-05  1.05000000e+01  1.08500000e-05  1.05000670e+01  1.08500000e-05  1.15450374e+00  1.08500000e-05  1.04999991e+01 
 1.09500000e-05  1.05000000e+01  1.09500000e-05  1.04997146e+01  1.09500000e-05  1.15024012e+00  1.09500000e-05  1.04999982e+01 
 1.10500000e-05  1.05000000e+01  1.10500000e-05  1.05000326e+01  1.10500000e-05  1.14776599e+00  1.10500000e-05  1.04999999e+01 
 1.11500000e-05  1.05000000e+01  1.11500000e-05  1.04997682e+01  1.11500000e-05  1.14656664e+00  1.11500000e-05  1.04999977e+01 
 1.12500000e-05  1.05000000e+01  1.12500000e-05  1.05000016e+01  1.12500000e-05  1.14598095e+00  1.12500000e-05  1.05000004e+01 
 1.13500000e-05  1.05000000e+01  1.13500000e-05  1.04998045e+01  1.13500000e-05  1.14599201e+00  1.13500000e-05  1.04999974e+01 
 1.14500000e-05  1.05000000e+01  1.14500000e-05  1.04999764e+01  1.14500000e-05  1.14617630e+00  1.14500000e-05  1.05000007e+01 
 1.15500000e-05  1.05000000e+01  1.15500000e-05  1.04998299e+01  1.15500000e-05  1.14669199e+00  1.15500000e-05  1.04999972e+01 
 1.16500000e-05  1.05000000e+01  1.16500000e-05  1.04999569e+01  1.16500000e-05  1.14721185e+00  1.16500000e-05  1.05000009e+01 
 1.17500000e-05  1.05000000e+01  1.17500000e-05  1.04998482e+01  1.17500000e-05  1.14795042e+00  1.17500000e-05  1.04999970e+01 
 1.18500000e-05  1.05000000e+01  1.18500000e-05  1.04999421e+01  1.18500000e-05  1.14862977e+00  1.18500000e-05  1.05000011e+01 
 1.19500000e-05  1.05000000e+01  1.19500000e-05  1.04998615e+01  1.19500000e-05  1.14947388e+00  1.19500000e-05  1.04999969e+01 
 1.20500000e-05  1.05000000e+01  1.20500000e-05  1.04999309e+01  1.20500000e-05  1.15023834e+00  1.20500000e-05  1.05000012e+01 
 1.21500000e-05  1.05000000e+01  1.21500000e-05  1.04998711e+01  1.21500000e-05  1.15113721e+00  1.21500000e-05  1.04999968e+01 
 1.22500000e-05  1.05000000e+01  1.22500000e-05  1.04999225e+01  1.22500000e-05  1.15195381e+00  1.22500000e-05  1.05000012e+01 
 1.23500000e-05  1.05000000e+01  1.23500000e-05  1.04998782e+01  1.23500000e-05  1.15288458e+00  1.23500000e-05  1.04999967e+01 
