 time            v(bvdd)         time            v(pvdd)         time            v(gate)         time            v(ea_en)       
 1.00000000e-10  1.20000000e-03  1.00000000e-10  1.44379091e-03  1.00000000e-10  1.03969247e-03  1.00000000e-10  2.12643306e-03 
 1.02724264e-10  1.23269116e-03  1.02724264e-10  1.47828247e-03  1.02724264e-10  1.05657005e-03  1.02724264e-10  2.17908305e-03 
 1.08172791e-10  1.29807349e-03  1.08172791e-10  1.53909540e-03  1.08172791e-10  1.10877182e-03  1.08172791e-10  2.28613440e-03 
 1.19069845e-10  1.42883815e-03  1.19069845e-10  1.62312165e-03  1.19069845e-10  1.21417347e-03  1.19069845e-10  2.48233996e-03 
 1.40863955e-10  1.69036745e-03  1.40863955e-10  1.70636061e-03  1.40863955e-10  1.39590210e-03  1.40863955e-10  2.83650666e-03 
 1.76806716e-10  2.12168060e-03  1.76806716e-10  1.74332206e-03  1.76806716e-10  1.66314699e-03  1.76806716e-10  3.37379979e-03 
 2.32547130e-10  2.79056556e-03  2.32547130e-10  1.74762618e-03  2.32547130e-10  2.07299018e-03  2.32547130e-10  4.18013250e-03 
 3.11876207e-10  3.74251449e-03  3.11876207e-10  1.74726739e-03  3.11876207e-10  2.65361782e-03  3.11876207e-10  5.32419905e-03 
 4.70534362e-10  5.64641235e-03  4.70534362e-10  1.74804025e-03  4.70534362e-10  3.79290588e-03  4.70534362e-10  7.61770778e-03 
 7.87850672e-10  9.45420806e-03  7.87850672e-10  1.74903200e-03  7.87850672e-10  5.98688285e-03  7.87850672e-10  1.22247587e-02 
 1.42248329e-09  1.70697995e-02  1.42248329e-09  1.75170329e-03  1.42248329e-09  1.00572888e-02  1.42248329e-09  2.15062767e-02 
 2.69174853e-09  3.23009824e-02  2.69174853e-09  1.75734679e-03  2.69174853e-09  1.69454569e-02  2.69174853e-09  4.02304141e-02 
 5.23027901e-09  6.27633481e-02  5.23027901e-09  1.77180214e-03  5.23027901e-09  2.69872838e-02  5.23027901e-09  7.79255810e-02 
 9.14834842e-09  1.09780181e-01  9.14834842e-09  1.79857904e-03  9.14834842e-09  3.61399118e-02  9.14834842e-09  1.35765043e-01 
 1.00000000e-08  1.20000000e-01  1.00000000e-08  1.80504521e-03  1.00000000e-08  3.73558485e-02  1.00000000e-08  1.48177546e-01 
 1.06325686e-08  1.27590823e-01  1.06325686e-08  1.80981390e-03  1.06325686e-08  3.81078910e-02  1.06325686e-08  1.57345962e-01 
 1.18977057e-08  1.42772468e-01  1.18977057e-08  1.81952005e-03  1.18977057e-08  3.94378733e-02  1.18977057e-08  1.75549829e-01 
 1.44279800e-08  1.73135760e-01  1.44279800e-08  1.83928429e-03  1.44279800e-08  4.13482462e-02  1.44279800e-08  2.11323364e-01 
 1.94885285e-08  2.33862342e-01  1.94885285e-08  1.87930379e-03  1.94885285e-08  4.33999145e-02  1.94885285e-08  2.79826737e-01 
 2.94885285e-08  3.53862342e-01  2.94885285e-08  1.95746080e-03  2.94885285e-08  4.49733655e-02  2.94885285e-08  4.02734632e-01 
 3.94885285e-08  4.73862342e-01  3.94885285e-08  2.03279874e-03  3.94885285e-08  4.62453048e-02  3.94885285e-08  5.12937532e-01 
 4.94885285e-08  5.93862342e-01  4.94885285e-08  2.10452979e-03  4.94885285e-08  4.82575554e-02  4.94885285e-08  5.94150683e-01 
 5.94885285e-08  7.13862342e-01  5.94885285e-08  2.17480577e-03  5.94885285e-08  5.12849335e-02  5.94885285e-08  6.23293833e-01 
 6.94885285e-08  8.33862342e-01  6.94885285e-08  2.27521417e-03  6.94885285e-08  5.58485104e-02  6.94885285e-08  6.23612320e-01 
 7.94885285e-08  9.53862342e-01  7.94885285e-08  2.68654709e-03  7.94885285e-08  6.24214209e-02  7.94885285e-08  6.25286963e-01 
 8.94885285e-08  1.07386234e+00  8.94885285e-08  5.27839043e-03  8.94885285e-08  7.19349908e-02  8.94885285e-08  6.38328360e-01 
 9.94885285e-08  1.19386234e+00  9.94885285e-08  1.61263302e-02  9.94885285e-08  8.75773856e-02  9.94885285e-08  6.98367435e-01 
 1.09488529e-07  1.31386234e+00  1.09488529e-07  4.38864481e-02  1.09488529e-07  1.14983613e-01  1.09488529e-07  8.20751730e-01 
 1.19488529e-07  1.43386234e+00  1.19488529e-07  9.36747388e-02  1.19488529e-07  1.59821398e-01  1.19488529e-07  1.20438211e+00 
 1.29488529e-07  1.55386234e+00  1.29488529e-07  1.64927917e-01  1.29488529e-07  2.23287749e-01  1.29488529e-07  1.55918681e+00 
 1.39488529e-07  1.67386234e+00  1.39488529e-07  2.53760752e-01  1.39488529e-07  3.03837924e-01  1.39488529e-07  1.65427005e+00 
 1.49488529e-07  1.79386234e+00  1.49488529e-07  3.55251160e-01  1.49488529e-07  3.98716453e-01  1.49488529e-07  1.78921396e+00 
 1.59488529e-07  1.91386234e+00  1.59488529e-07  4.64992831e-01  1.59488529e-07  5.03325186e-01  1.59488529e-07  1.90448495e+00 
 1.69488529e-07  2.03386234e+00  1.69488529e-07  5.79849258e-01  1.69488529e-07  6.14099888e-01  1.69488529e-07  2.02883052e+00 
 1.79488529e-07  2.15386234e+00  1.79488529e-07  6.98018960e-01  1.79488529e-07  7.27442414e-01  1.79488529e-07  2.14758484e+00 
 1.89488529e-07  2.27386234e+00  1.89488529e-07  8.20218420e-01  1.89488529e-07  8.34538412e-01  1.89488529e-07  2.26937007e+00 
 1.99488529e-07  2.39386234e+00  1.99488529e-07  9.52933107e-01  1.99488529e-07  9.16851539e-01  1.99488529e-07  2.38936892e+00 
 2.09488529e-07  2.51386234e+00  2.09488529e-07  1.10784278e+00  2.09488529e-07  9.70505150e-01  2.09488529e-07  2.51090109e+00 
 2.19488529e-07  2.63386234e+00  2.19488529e-07  1.29268095e+00  2.19488529e-07  1.01925055e+00  2.19488529e-07  2.63169712e+00 
 2.29488529e-07  2.75386234e+00  2.29488529e-07  1.50810773e+00  2.29488529e-07  1.06925179e+00  2.29488529e-07  2.75277508e+00 
 2.39488529e-07  2.87386234e+00  2.39488529e-07  1.74986988e+00  2.39488529e-07  1.12990985e+00  2.39488529e-07  2.87336798e+00 
 2.48391302e-07  2.98069563e+00  2.48391302e-07  1.97767318e+00  2.48391302e-07  1.20899159e+00  2.48391302e-07  2.98050550e+00 
 2.57480624e-07  3.08976749e+00  2.57480624e-07  2.21780698e+00  2.57480624e-07  1.27203720e+00  2.57480624e-07  3.08969689e+00 
 2.66353815e-07  3.19624578e+00  2.66353815e-07  2.46520711e+00  2.66353815e-07  1.30297697e+00  2.66353815e-07  3.19654313e+00 
 2.75555182e-07  3.30666218e+00  2.75555182e-07  2.73426088e+00  2.75555182e-07  1.31307345e+00  2.75555182e-07  3.30712882e+00 
 2.84622703e-07  3.41547243e+00  2.84622703e-07  2.99915968e+00  2.84622703e-07  1.25773149e+00  2.84622703e-07  3.41542378e+00 
 2.91161739e-07  3.49394087e+00  2.91161739e-07  3.16979388e+00  2.91161739e-07  1.35274660e+00  2.91161739e-07  3.49339300e+00 
 2.96937304e-07  3.56324765e+00  2.96937304e-07  3.28759266e+00  2.96937304e-07  1.60993200e+00  2.96937304e-07  3.56183726e+00 
 3.02369247e-07  3.62843097e+00  3.02369247e-07  3.37289580e+00  3.02369247e-07  1.80748336e+00  3.02369247e-07  3.62618322e+00 
 3.10087446e-07  3.72104935e+00  3.10087446e-07  3.48132116e+00  3.10087446e-07  1.86023427e+00  3.10087446e-07  3.71825241e+00 
 3.18946931e-07  3.82736318e+00  3.18946931e-07  3.61070202e+00  3.18946931e-07  1.80638695e+00  3.18946931e-07  3.82490652e+00 
 3.28052096e-07  3.93662515e+00  3.28052096e-07  3.74867132e+00  3.28052096e-07  1.76811614e+00  3.28052096e-07  3.93412633e+00 
 3.38052096e-07  4.05662515e+00  3.38052096e-07  3.89666386e+00  3.38052096e-07  1.73740345e+00  3.38052096e-07  4.05421234e+00 
 3.48052096e-07  4.17662515e+00  3.48052096e-07  4.03758607e+00  3.48052096e-07  1.72568057e+00  3.48052096e-07  4.17412367e+00 
 3.58052096e-07  4.29662515e+00  3.58052096e-07  4.17222997e+00  3.58052096e-07  1.71074938e+00  3.58052096e-07  4.29418074e+00 
 3.68052096e-07  4.41662515e+00  3.68052096e-07  4.30274687e+00  3.68052096e-07  1.70196508e+00  3.68052096e-07  4.41414888e+00 
 3.78052096e-07  4.53662515e+00  3.78052096e-07  4.43053506e+00  3.78052096e-07  1.69548055e+00  3.78052096e-07  4.53422680e+00 
 3.88052096e-07  4.65662515e+00  3.88052096e-07  4.55657366e+00  3.88052096e-07  1.69379446e+00  3.88052096e-07  4.65419709e+00 
 3.98052096e-07  4.77662515e+00  3.98052096e-07  4.68141359e+00  3.98052096e-07  1.69687277e+00  3.98052096e-07  4.77427638e+00 
 4.08052096e-07  4.89662515e+00  4.08052096e-07  4.80541708e+00  4.08052096e-07  1.70266638e+00  4.08052096e-07  4.89421634e+00 
 4.18052096e-07  5.01662515e+00  4.18052096e-07  4.92881615e+00  4.18052096e-07  1.71202561e+00  4.18052096e-07  5.01427051e+00 
 4.28052096e-07  5.13662515e+00  4.28052096e-07  5.05176373e+00  4.28052096e-07  1.72227806e+00  4.28052096e-07  5.13414797e+00 
 4.38052096e-07  5.25662515e+00  4.38052096e-07  5.17437329e+00  4.38052096e-07  1.73389102e+00  4.38052096e-07  5.25412133e+00 
 4.48052096e-07  5.37662515e+00  4.48052096e-07  5.29671641e+00  4.48052096e-07  1.74508330e+00  4.48052096e-07  5.37385725e+00 
 4.58052096e-07  5.49662515e+00  4.58052096e-07  5.41885061e+00  4.58052096e-07  1.75580094e+00  4.58052096e-07  5.49361482e+00 
 4.68052096e-07  5.61662515e+00  4.68052096e-07  5.54081095e+00  4.68052096e-07  1.76535564e+00  4.68052096e-07  5.61301104e+00 
 4.78052096e-07  5.73662515e+00  4.78052096e-07  5.66262500e+00  4.78052096e-07  1.77357274e+00  4.78052096e-07  5.73226412e+00 
 4.88052096e-07  5.85662515e+00  4.88052096e-07  5.78431001e+00  4.88052096e-07  1.78051922e+00  4.88052096e-07  5.85094891e+00 
 4.98052096e-07  5.97662515e+00  4.98052096e-07  5.90587892e+00  4.98052096e-07  1.78615034e+00  4.98052096e-07  5.96926053e+00 
 5.08052096e-07  6.09662515e+00  5.08052096e-07  6.02734152e+00  5.08052096e-07  1.79081199e+00  5.08052096e-07  6.08677729e+00 
 5.18052096e-07  6.21662515e+00  5.18052096e-07  6.14870558e+00  5.18052096e-07  1.79457867e+00  5.18052096e-07  6.20371162e+00 
 5.28052096e-07  6.33662515e+00  5.28052096e-07  6.26997853e+00  5.28052096e-07  1.79776668e+00  5.28052096e-07  6.31966963e+00 
 5.38052096e-07  6.45662515e+00  5.38052096e-07  6.39116676e+00  5.38052096e-07  1.80052304e+00  5.38052096e-07  6.43487282e+00 
 5.48052096e-07  6.57662515e+00  5.48052096e-07  6.51227620e+00  5.48052096e-07  1.80318788e+00  5.48052096e-07  6.54894583e+00 
 5.58052096e-07  6.69662515e+00  5.58052096e-07  6.63331083e+00  5.58052096e-07  1.80634879e+00  5.58052096e-07  6.66217026e+00 
 5.68052096e-07  6.81662515e+00  5.68052096e-07  6.75427511e+00  5.68052096e-07  1.81007299e+00  5.68052096e-07  6.77391966e+00 
 5.78052096e-07  6.93662515e+00  5.78052096e-07  6.87517664e+00  5.78052096e-07  1.81395942e+00  5.78052096e-07  6.88438060e+00 
 5.88052096e-07  7.05662515e+00  5.88052096e-07  6.99602282e+00  5.88052096e-07  1.81791540e+00  5.88052096e-07  6.99324948e+00 
 5.98052096e-07  7.17662515e+00  5.98052096e-07  7.11681876e+00  5.98052096e-07  1.82194461e+00  5.98052096e-07  7.10073165e+00 
 6.08052096e-07  7.29662515e+00  6.08052096e-07  7.23756865e+00  6.08052096e-07  1.82602670e+00  6.08052096e-07  7.20649930e+00 
 6.18052096e-07  7.41662515e+00  6.18052096e-07  7.35827623e+00  6.18052096e-07  1.83017936e+00  6.18052096e-07  7.31079028e+00 
 6.28052096e-07  7.53662515e+00  6.28052096e-07  7.47894476e+00  6.28052096e-07  1.83438542e+00  6.28052096e-07  7.41333701e+00 
 6.38052096e-07  7.65662515e+00  6.38052096e-07  7.59957725e+00  6.38052096e-07  1.83866081e+00  6.38052096e-07  7.51447436e+00 
 6.48052096e-07  7.77662515e+00  6.48052096e-07  7.72017632e+00  6.48052096e-07  1.84299777e+00  6.48052096e-07  7.61407951e+00 
 6.58052096e-07  7.89662515e+00  6.58052096e-07  7.84074439e+00  6.58052096e-07  1.84740813e+00  6.58052096e-07  7.71270380e+00 
 6.68052096e-07  8.01662515e+00  6.68052096e-07  7.96128359e+00  6.68052096e-07  1.85189184e+00  6.68052096e-07  7.81054035e+00 
 6.78052096e-07  8.13662515e+00  6.78052096e-07  8.08179591e+00  6.78052096e-07  1.85645924e+00  6.78052096e-07  7.90860337e+00 
 6.88052096e-07  8.25662515e+00  6.88052096e-07  8.20228309e+00  6.88052096e-07  1.86111405e+00  6.88052096e-07  8.00775947e+00 
 6.98052096e-07  8.37662515e+00  6.98052096e-07  8.32274680e+00  6.98052096e-07  1.86586716e+00  6.98052096e-07  8.10999068e+00 
 7.08052096e-07  8.49662515e+00  7.08052096e-07  8.44318849e+00  7.08052096e-07  1.87072309e+00  7.08052096e-07  8.21752371e+00 
 7.18052096e-07  8.61662515e+00  7.18052096e-07  8.56360957e+00  7.18052096e-07  1.87569418e+00  7.18052096e-07  8.33417176e+00 
 7.28052096e-07  8.73662515e+00  7.28052096e-07  8.68401125e+00  7.28052096e-07  1.88078611e+00  7.28052096e-07  8.46439699e+00 
 7.38052096e-07  8.85662515e+00  7.38052096e-07  8.80439475e+00  7.38052096e-07  1.88601896e+00  7.38052096e-07  8.61442765e+00 
 7.48052096e-07  8.97662515e+00  7.48052096e-07  8.92476104e+00  7.48052096e-07  1.89142880e+00  7.48052096e-07  8.78972002e+00 
 7.58052096e-07  9.09662515e+00  7.58052096e-07  9.04511080e+00  7.58052096e-07  1.89734253e+00  7.58052096e-07  8.99038736e+00 
 7.68052096e-07  9.21662515e+00  7.68052096e-07  9.16543943e+00  7.68052096e-07  1.90983433e+00  7.68052096e-07  9.19030345e+00 
 7.78052096e-07  9.33662515e+00  7.78052096e-07  9.28574564e+00  7.78052096e-07  1.92045472e+00  7.78052096e-07  9.33451624e+00 
 7.88052096e-07  9.45662515e+00  7.88052096e-07  9.40604678e+00  7.88052096e-07  1.92521797e+00  7.88052096e-07  9.45419514e+00 
 7.98052096e-07  9.57662515e+00  7.98052096e-07  9.52634134e+00  7.98052096e-07  1.93279423e+00  7.98052096e-07  9.57514123e+00 
 8.06374579e-07  9.67649495e+00  8.06374579e-07  9.62644390e+00  8.06374579e-07  1.93798155e+00  8.06374579e-07  9.67465280e+00 
 8.12922270e-07  9.75506724e+00  8.12922270e-07  9.70519498e+00  8.12922270e-07  1.94264892e+00  8.12922270e-07  9.75382788e+00 
 8.16212772e-07  9.79455326e+00  8.16212772e-07  9.74476868e+00  8.16212772e-07  1.94517524e+00  8.16212772e-07  9.79274203e+00 
 8.20439897e-07  9.84527877e+00  8.20439897e-07  9.79560486e+00  8.20439897e-07  1.94797362e+00  8.20439897e-07  9.84396805e+00 
 8.25908179e-07  9.91089814e+00  8.25908179e-07  9.86136492e+00  8.25908179e-07  1.95208433e+00  8.25908179e-07  9.90915391e+00 
 8.34110805e-07  1.00093297e+01  8.34110805e-07  9.96000113e+00  8.34110805e-07  1.95816905e+00  8.34110805e-07  1.00079856e+01 
 8.44110805e-07  1.01293297e+01  8.44110805e-07  1.00802414e+01  8.44110805e-07  1.96591010e+00  8.44110805e-07  1.01276198e+01 
 8.54110805e-07  1.02493297e+01  8.54110805e-07  1.02004716e+01  8.54110805e-07  1.97394371e+00  8.54110805e-07  1.02479728e+01 
 8.64110805e-07  1.03693297e+01  8.64110805e-07  1.03206924e+01  8.64110805e-07  1.98228482e+00  8.64110805e-07  1.03676482e+01 
 8.74110805e-07  1.04893297e+01  8.74110805e-07  1.04409041e+01  8.74110805e-07  1.99099190e+00  8.74110805e-07  1.04879623e+01 
 8.75000000e-07  1.05000000e+01  8.75000000e-07  1.04515928e+01  8.75000000e-07  1.99178060e+00  8.75000000e-07  1.04983975e+01 
 8.76000000e-07  1.05000000e+01  8.76000000e-07  1.04611565e+01  8.76000000e-07  1.98777558e+00  8.76000000e-07  1.05001495e+01 
 8.78000000e-07  1.05000000e+01  8.78000000e-07  1.04763728e+01  8.78000000e-07  1.98182612e+00  8.78000000e-07  1.05005186e+01 
 8.82000000e-07  1.05000000e+01  8.82000000e-07  1.04913042e+01  8.82000000e-07  1.97455158e+00  8.82000000e-07  1.04998999e+01 
 8.90000000e-07  1.05000000e+01  8.90000000e-07  1.04984864e+01  8.90000000e-07  1.94297273e+00  8.90000000e-07  1.05001398e+01 
 9.00000000e-07  1.05000000e+01  9.00000000e-07  1.04984707e+01  9.00000000e-07  1.87368541e+00  9.00000000e-07  1.04997875e+01 
 9.10000000e-07  1.05000000e+01  9.10000000e-07  1.04985790e+01  9.10000000e-07  1.80338314e+00  9.10000000e-07  1.05001110e+01 
 9.20000000e-07  1.05000000e+01  9.20000000e-07  1.04986529e+01  9.20000000e-07  1.74831904e+00  9.20000000e-07  1.04998279e+01 
 9.30000000e-07  1.05000000e+01  9.30000000e-07  1.04987233e+01  9.30000000e-07  1.70619102e+00  9.30000000e-07  1.05001078e+01 
 9.40000000e-07  1.05000000e+01  9.40000000e-07  1.04987882e+01  9.40000000e-07  1.67193760e+00  9.40000000e-07  1.04998567e+01 
 9.50000000e-07  1.05000000e+01  9.50000000e-07  1.04988492e+01  9.50000000e-07  1.64361456e+00  9.50000000e-07  1.05000978e+01 
 9.60000000e-07  1.05000000e+01  9.60000000e-07  1.04989061e+01  9.60000000e-07  1.61914762e+00  9.60000000e-07  1.04998778e+01 
 9.70000000e-07  1.05000000e+01  9.70000000e-07  1.04989599e+01  9.70000000e-07  1.59785165e+00  9.70000000e-07  1.05000866e+01 
 9.80000000e-07  1.05000000e+01  9.80000000e-07  1.04990104e+01  9.80000000e-07  1.57880468e+00  9.80000000e-07  1.04998948e+01 
 9.90000000e-07  1.05000000e+01  9.90000000e-07  1.04990580e+01  9.90000000e-07  1.56161513e+00  9.90000000e-07  1.05000756e+01 
 1.00000000e-06  1.05000000e+01  1.00000000e-06  1.04991030e+01  1.00000000e-06  1.54592335e+00  1.00000000e-06  1.04999089e+01 
 1.01000000e-06  1.05000000e+01  1.01000000e-06  1.04991453e+01  1.01000000e-06  1.53144403e+00  1.01000000e-06  1.05000656e+01 
 1.02000000e-06  1.05000000e+01  1.02000000e-06  1.04991854e+01  1.02000000e-06  1.51804111e+00  1.02000000e-06  1.04999209e+01 
 1.03000000e-06  1.05000000e+01  1.03000000e-06  1.04992231e+01  1.03000000e-06  1.50552003e+00  1.03000000e-06  1.05000567e+01 
 1.04000000e-06  1.05000000e+01  1.04000000e-06  1.04992588e+01  1.04000000e-06  1.49381050e+00  1.04000000e-06  1.04999312e+01 
 1.05000000e-06  1.05000000e+01  1.05000000e-06  1.04992925e+01  1.05000000e-06  1.48279650e+00  1.05000000e-06  1.05000490e+01 
 1.06000000e-06  1.05000000e+01  1.06000000e-06  1.04993244e+01  1.06000000e-06  1.47242146e+00  1.06000000e-06  1.04999400e+01 
 1.07000000e-06  1.05000000e+01  1.07000000e-06  1.04993545e+01  1.07000000e-06  1.46262129e+00  1.07000000e-06  1.05000422e+01 
 1.08000000e-06  1.05000000e+01  1.08000000e-06  1.04993829e+01  1.08000000e-06  1.45334594e+00  1.08000000e-06  1.04999476e+01 
 1.09000000e-06  1.05000000e+01  1.09000000e-06  1.04994098e+01  1.09000000e-06  1.44455783e+00  1.09000000e-06  1.05000363e+01 
 1.10000000e-06  1.05000000e+01  1.10000000e-06  1.04994353e+01  1.10000000e-06  1.43621614e+00  1.10000000e-06  1.04999542e+01 
 1.11000000e-06  1.05000000e+01  1.11000000e-06  1.04994593e+01  1.11000000e-06  1.42829442e+00  1.11000000e-06  1.05000312e+01 
 1.12000000e-06  1.05000000e+01  1.12000000e-06  1.04994821e+01  1.12000000e-06  1.42076159e+00  1.12000000e-06  1.04999599e+01 
 1.13000000e-06  1.05000000e+01  1.13000000e-06  1.04995036e+01  1.13000000e-06  1.41359600e+00  1.13000000e-06  1.05000268e+01 
 1.14000000e-06  1.05000000e+01  1.14000000e-06  1.04995240e+01  1.14000000e-06  1.40677412e+00  1.14000000e-06  1.04999649e+01 
 1.15000000e-06  1.05000000e+01  1.15000000e-06  1.04995433e+01  1.15000000e-06  1.40027736e+00  1.15000000e-06  1.05000229e+01 
 1.16000000e-06  1.05000000e+01  1.16000000e-06  1.04995615e+01  1.16000000e-06  1.39408713e+00  1.16000000e-06  1.04999692e+01 
 1.17000000e-06  1.05000000e+01  1.17000000e-06  1.04995788e+01  1.17000000e-06  1.38818752e+00  1.17000000e-06  1.05000196e+01 
 1.18000000e-06  1.05000000e+01  1.18000000e-06  1.04995951e+01  1.18000000e-06  1.38256302e+00  1.18000000e-06  1.04999730e+01 
 1.19000000e-06  1.05000000e+01  1.19000000e-06  1.04996106e+01  1.19000000e-06  1.37720005e+00  1.19000000e-06  1.05000168e+01 
 1.20000000e-06  1.05000000e+01  1.20000000e-06  1.04996253e+01  1.20000000e-06  1.37208520e+00  1.20000000e-06  1.04999763e+01 
 1.21000000e-06  1.05000000e+01  1.21000000e-06  1.04996392e+01  1.21000000e-06  1.36720679e+00  1.21000000e-06  1.05000143e+01 
 1.22000000e-06  1.05000000e+01  1.22000000e-06  1.04996524e+01  1.22000000e-06  1.36255301e+00  1.22000000e-06  1.04999792e+01 
 1.23000000e-06  1.05000000e+01  1.23000000e-06  1.04996648e+01  1.23000000e-06  1.35811366e+00  1.23000000e-06  1.05000122e+01 
 1.24000000e-06  1.05000000e+01  1.24000000e-06  1.04996767e+01  1.24000000e-06  1.35387823e+00  1.24000000e-06  1.04999817e+01 
 1.25000000e-06  1.05000000e+01  1.25000000e-06  1.04996879e+01  1.25000000e-06  1.34983769e+00  1.25000000e-06  1.05000103e+01 
 1.26000000e-06  1.05000000e+01  1.26000000e-06  1.04996985e+01  1.26000000e-06  1.34598266e+00  1.26000000e-06  1.04999838e+01 
 1.27000000e-06  1.05000000e+01  1.27000000e-06  1.04997086e+01  1.27000000e-06  1.34230504e+00  1.27000000e-06  1.05000087e+01 
 1.28000000e-06  1.05000000e+01  1.28000000e-06  1.04997181e+01  1.28000000e-06  1.33879641e+00  1.28000000e-06  1.04999857e+01 
 1.29000000e-06  1.05000000e+01  1.29000000e-06  1.04997272e+01  1.29000000e-06  1.33544945e+00  1.29000000e-06  1.05000074e+01 
