 time            v(bvdd)         time            v(pvdd)         time            v(gate)         time            v(ea_en)       
 1.00000000e-09  1.00000000e-03  1.00000000e-09  1.70945928e-03  1.00000000e-09  6.30510293e-04  1.00000000e-09  1.47942485e-02 
 1.02794903e-09  1.02794903e-03  1.02794903e-09  1.72981452e-03  1.02794903e-09  6.42966006e-04  1.02794903e-09  1.51985004e-02 
 1.08384708e-09  1.08384708e-03  1.08384708e-09  1.74744368e-03  1.08384708e-09  6.65291900e-04  1.08384708e-09  1.59976888e-02 
 1.19564319e-09  1.19564319e-03  1.19564319e-09  1.74444558e-03  1.19564319e-09  7.03764867e-04  1.19564319e-09  1.75810875e-02 
 1.41923540e-09  1.41923540e-03  1.41923540e-09  1.74586445e-03  1.41923540e-09  7.93690652e-04  1.41923540e-09  2.07608680e-02 
 1.72917338e-09  1.72917338e-03  1.72917338e-09  1.74464088e-03  1.72917338e-09  9.37709929e-04  1.72917338e-09  2.51860800e-02 
 2.34904934e-09  2.34904934e-03  2.34904934e-09  1.74530363e-03  2.34904934e-09  1.25820912e-03  2.34904934e-09  3.40919564e-02 
 3.58880126e-09  3.58880126e-03  3.58880126e-09  1.74415709e-03  3.58880126e-09  1.96354388e-03  3.58880126e-09  5.20577410e-02 
 6.06830510e-09  6.06830510e-03  6.06830510e-09  1.74442817e-03  6.06830510e-09  3.19279592e-03  6.06830510e-09  8.82717284e-02 
 1.10273128e-08  1.10273128e-02  1.10273128e-08  1.74376881e-03  1.10273128e-08  4.68164682e-03  1.10273128e-08  1.60256477e-01 
 1.94878619e-08  1.94878619e-02  1.94878619e-08  1.74635946e-03  1.94878619e-08  5.73515298e-03  1.94878619e-08  2.76538437e-01 
 2.88659412e-08  2.88659412e-02  2.88659412e-08  1.74887219e-03  2.88659412e-08  6.09799896e-03  2.88659412e-08  3.91716407e-01 
 4.51243072e-08  4.51243072e-02  4.51243072e-08  1.75481793e-03  4.51243072e-08  6.46298902e-03  4.51243072e-08  5.54345615e-01 
 6.13692932e-08  6.13692932e-02  6.13692932e-08  1.75445107e-03  6.13692932e-08  6.69483998e-03  6.13692932e-08  6.17118238e-01 
 7.76628824e-08  7.76628824e-02  7.76628824e-08  1.75183303e-03  7.76628824e-08  6.97866002e-03  7.76628824e-08  6.11512008e-01 
 9.44711887e-08  9.44711887e-02  9.44711887e-08  1.74799119e-03  9.44711887e-08  7.36497081e-03  9.44711887e-08  6.11408504e-01 
 1.00000000e-07  1.00000000e-01  1.00000000e-07  1.74762572e-03  1.00000000e-07  7.48100549e-03  1.00000000e-07  6.10736404e-01 
 1.01832334e-07  1.01832334e-01  1.01832334e-07  1.74694264e-03  1.01832334e-07  7.52093349e-03  1.01832334e-07  6.10573099e-01 
 1.05497003e-07  1.05497003e-01  1.05497003e-07  1.74624596e-03  1.05497003e-07  7.60001047e-03  1.05497003e-07  6.10293832e-01 
 1.12826341e-07  1.12826341e-01  1.12826341e-07  1.74488595e-03  1.12826341e-07  7.75878553e-03  1.12826341e-07  6.09897279e-01 
 1.27485017e-07  1.27485017e-01  1.27485017e-07  1.74216020e-03  1.27485017e-07  8.07624621e-03  1.27485017e-07  6.09327524e-01 
 1.56802368e-07  1.56802368e-01  1.56802368e-07  1.73674967e-03  1.56802368e-07  8.70968567e-03  1.56802368e-07  6.08578162e-01 
 2.15437071e-07  2.15437071e-01  2.15437071e-07  1.72584015e-03  2.15437071e-07  9.97747401e-03  2.15437071e-07  6.07873480e-01 
 3.15437071e-07  3.15437071e-01  3.15437071e-07  1.70706227e-03  3.15437071e-07  1.21871111e-02  3.15437071e-07  6.07628759e-01 
 4.15437071e-07  4.15437071e-01  4.15437071e-07  1.68922997e-03  4.15437071e-07  1.45826756e-02  4.15437071e-07  6.07799182e-01 
 5.15437071e-07  5.15437071e-01  5.15437071e-07  1.67684809e-03  5.15437071e-07  1.75075870e-02  5.15437071e-07  6.08081559e-01 
 6.15437071e-07  6.15437071e-01  6.15437071e-07  1.69084753e-03  6.15437071e-07  2.26779692e-02  6.15437071e-07  6.08422219e-01 
 7.15437071e-07  7.15437071e-01  7.15437071e-07  1.82693817e-03  7.15437071e-07  3.64493753e-02  7.15437071e-07  6.09093284e-01 
 8.15437071e-07  8.15437071e-01  8.15437071e-07  2.35129541e-03  8.15437071e-07  6.85271249e-02  8.15437071e-07  6.10664030e-01 
 9.15437071e-07  9.15437071e-01  9.15437071e-07  3.68277568e-03  9.15437071e-07  1.18812107e-01  9.15437071e-07  6.17880059e-01 
 1.01543707e-06  1.01543707e+00  1.01543707e-06  6.31794574e-03  1.01543707e-06  1.79955808e-01  1.01543707e-06  6.60011373e-01 
 1.11543707e-06  1.11543707e+00  1.11543707e-06  1.09200876e-02  1.11543707e-06  2.47297508e-01  1.11543707e-06  7.78317333e-01 
 1.19769934e-06  1.19769934e+00  1.19769934e-06  1.68546578e-02  1.19769934e-06  3.05631799e-01  1.19769934e-06  1.18617296e+00 
 1.26846167e-06  1.26846167e+00  1.26846167e-06  2.41085251e-02  1.26846167e-06  3.57376711e-01  1.26846167e-06  1.26900392e+00 
 1.34188600e-06  1.34188600e+00  1.34188600e-06  3.44699544e-02  1.34188600e-06  4.12389178e-01  1.34188600e-06  1.33714333e+00 
 1.44112900e-06  1.44112900e+00  1.44112900e-06  5.45796850e-02  1.44112900e-06  4.88620297e-01  1.44112900e-06  1.44108541e+00 
 1.54112900e-06  1.54112900e+00  1.54112900e-06  8.38664136e-02  1.54112900e-06  5.67546953e-01  1.54112900e-06  1.53853077e+00 
 1.64112900e-06  1.64112900e+00  1.64112900e-06  1.24424076e-01  1.64112900e-06  6.48293324e-01  1.64112900e-06  1.64109516e+00 
 1.74112900e-06  1.74112900e+00  1.74112900e-06  1.78469967e-01  1.74112900e-06  7.30216271e-01  1.74112900e-06  1.73943639e+00 
 1.84112900e-06  1.84112900e+00  1.84112900e-06  2.49353831e-01  1.84112900e-06  8.10733169e-01  1.84112900e-06  1.84118541e+00 
 1.94112900e-06  1.94112900e+00  1.94112900e-06  3.45134332e-01  1.94112900e-06  8.84747834e-01  1.94112900e-06  1.94001982e+00 
 2.04112900e-06  2.04112900e+00  2.04112900e-06  4.81782995e-01  2.04112900e-06  9.49864184e-01  2.04112900e-06  2.04143920e+00 
 2.14112900e-06  2.14112900e+00  2.14112900e-06  6.78550827e-01  2.14112900e-06  1.01037187e+00  2.14112900e-06  2.14064907e+00 
 2.23869319e-06  2.23869319e+00  2.23869319e-06  9.40587902e-01  2.23869319e-06  1.06937659e+00  2.23869319e-06  2.23940718e+00 
 2.33869319e-06  2.33869319e+00  2.33869319e-06  1.27992323e+00  2.33869319e-06  1.13347536e+00  2.33869319e-06  2.33873803e+00 
 2.43869319e-06  2.43869319e+00  2.43869319e-06  1.68356814e+00  2.43869319e-06  1.19491577e+00  2.43869319e-06  2.43968137e+00 
 2.52598937e-06  2.52598937e+00  2.52598937e-06  2.09343849e+00  2.52598937e-06  1.22845562e+00  2.52598937e-06  2.52639696e+00 
 2.61889793e-06  2.61889793e+00  2.61889793e-06  2.48555915e+00  2.61889793e-06  1.27975766e+00  2.61889793e-06  2.61919698e+00 
 2.70774480e-06  2.70774480e+00  2.70774480e-06  2.67768044e+00  2.70774480e-06  1.34132222e+00  2.70774480e-06  2.70718291e+00 
 2.80774480e-06  2.80774480e+00  2.80774480e-06  2.77758175e+00  2.80774480e-06  1.40312829e+00  2.80774480e-06  2.80767759e+00 
 2.90774480e-06  2.90774480e+00  2.90774480e-06  2.88165647e+00  2.90774480e-06  1.46765902e+00  2.90774480e-06  2.90724171e+00 
 3.00774480e-06  3.00774480e+00  3.00774480e-06  2.98348020e+00  3.00774480e-06  1.53027582e+00  3.00774480e-06  3.00766982e+00 
 3.10774480e-06  3.10774480e+00  3.10774480e-06  3.08524572e+00  3.10774480e-06  1.59688255e+00  3.10774480e-06  3.10728391e+00 
 3.20774480e-06  3.20774480e+00  3.20774480e-06  3.18654820e+00  3.20774480e-06  1.66153975e+00  3.20774480e-06  3.20766786e+00 
 3.30774480e-06  3.30774480e+00  3.30774480e-06  3.28770729e+00  3.30774480e-06  1.72911833e+00  3.30774480e-06  3.30731779e+00 
 3.40774480e-06  3.40774480e+00  3.40774480e-06  3.38867706e+00  3.40774480e-06  1.79490517e+00  3.40774480e-06  3.40766701e+00 
 3.50774480e-06  3.50774480e+00  3.50774480e-06  3.48954532e+00  3.50774480e-06  1.86314174e+00  3.50774480e-06  3.50734593e+00 
 3.60774480e-06  3.60774480e+00  3.60774480e-06  3.59030352e+00  3.60774480e-06  1.92979005e+00  3.60774480e-06  3.60766655e+00 
 3.70774480e-06  3.70774480e+00  3.70774480e-06  3.69099118e+00  3.70774480e-06  1.99859414e+00  3.70774480e-06  3.70736959e+00 
 3.80774480e-06  3.80774480e+00  3.80774480e-06  3.79160369e+00  3.80774480e-06  2.06600520e+00  3.80774480e-06  3.80766619e+00 
 3.90774480e-06  3.90774480e+00  3.90774480e-06  3.89216527e+00  3.90774480e-06  2.13534420e+00  3.90774480e-06  3.90738962e+00 
 4.00774480e-06  4.00774480e+00  4.00774480e-06  3.99267155e+00  4.00774480e-06  2.20348341e+00  4.00774480e-06  4.00766573e+00 
 4.10774480e-06  4.10774480e+00  4.10774480e-06  4.09313962e+00  4.10774480e-06  2.27336237e+00  4.10774480e-06  4.10740653e+00 
 4.20774480e-06  4.20774480e+00  4.20774480e-06  4.19356476e+00  4.20774480e-06  2.34230865e+00  4.20774480e-06  4.20766489e+00 
 4.30774480e-06  4.30774480e+00  4.30774480e-06  4.29395970e+00  4.30774480e-06  2.41286086e+00  4.30774480e-06  4.30742047e+00 
 4.40774480e-06  4.40774480e+00  4.40774480e-06  4.39431937e+00  4.40774480e-06  2.48288700e+00  4.40774480e-06  4.40766321e+00 
 4.50774480e-06  4.50774480e+00  4.50774480e-06  4.49465339e+00  4.50774480e-06  2.55442338e+00  4.50774480e-06  4.50743133e+00 
 4.60774480e-06  4.60774480e+00  4.60774480e-06  4.59495544e+00  4.60774480e-06  2.62620105e+00  4.60774480e-06  4.60765989e+00 
 4.70774480e-06  4.70774480e+00  4.70774480e-06  4.69523380e+00  4.70774480e-06  2.69948279e+00  4.70774480e-06  4.70743823e+00 
 4.80774480e-06  4.80774480e+00  4.80774480e-06  4.79547400e+00  4.80774480e-06  2.77521043e+00  4.80774480e-06  4.80765369e+00 
 4.90774480e-06  4.90774480e+00  4.90774480e-06  4.89566278e+00  4.90774480e-06  2.85678660e+00  4.90774480e-06  4.90744054e+00 
 4.99977532e-06  4.99977532e+00  4.99977532e-06  4.98787403e+00  4.99977532e-06  2.92691514e+00  4.99977532e-06  4.99967144e+00 
 5.09977532e-06  5.09977532e+00  5.09977532e-06  5.08806631e+00  5.09977532e-06  3.00576409e+00  5.09977532e-06  5.09946620e+00 
 5.19977532e-06  5.19977532e+00  5.19977532e-06  5.18823698e+00  5.19977532e-06  3.08412281e+00  5.19977532e-06  5.19965373e+00 
 5.29977532e-06  5.29977532e+00  5.29977532e-06  5.28840951e+00  5.29977532e-06  3.16287607e+00  5.29977532e-06  5.29945629e+00 
 5.39977532e-06  5.39977532e+00  5.39977532e-06  5.38856637e+00  5.39977532e-06  3.24187939e+00  5.39977532e-06  5.39963866e+00 
 5.49977532e-06  5.49977532e+00  5.49977532e-06  5.48872285e+00  5.49977532e-06  3.32066291e+00  5.49977532e-06  5.49945766e+00 
 5.59977532e-06  5.59977532e+00  5.59977532e-06  5.58886899e+00  5.59977532e-06  3.39988192e+00  5.59977532e-06  5.59964651e+00 
 5.69977532e-06  5.69977532e+00  5.69977532e-06  5.68901230e+00  5.69977532e-06  3.47882424e+00  5.69977532e-06  5.69948762e+00 
 5.79977532e-06  5.79977532e+00  5.79977532e-06  5.78914757e+00  5.79977532e-06  3.55837481e+00  5.79977532e-06  5.79967475e+00 
 5.89977532e-06  5.89977532e+00  5.89977532e-06  5.88927851e+00  5.89977532e-06  3.63773273e+00  5.89977532e-06  5.89951581e+00 
 5.99977532e-06  5.99977532e+00  5.99977532e-06  5.98940302e+00  5.99977532e-06  3.71770835e+00  5.99977532e-06  5.99968010e+00 
 6.09977532e-06  6.09977532e+00  6.09977532e-06  6.08952292e+00  6.09977532e-06  3.79753649e+00  6.09977532e-06  6.09952099e+00 
 6.19977532e-06  6.19977532e+00  6.19977532e-06  6.18963768e+00  6.19977532e-06  3.87789929e+00  6.19977532e-06  6.19968137e+00 
 6.27726206e-06  6.27726206e+00  6.27726206e-06  6.26721030e+00  6.27726206e-06  3.94005546e+00  6.27726206e-06  6.27704760e+00 
 6.35101233e-06  6.35101233e+00  6.35101233e-06  6.34103993e+00  6.35101233e-06  3.99955160e+00  6.35101233e-06  6.35093793e+00 
 6.37695680e-06  6.37695680e+00  6.37695680e-06  6.36701168e+00  6.37695680e-06  4.02040595e+00  6.37695680e-06  6.37674164e+00 
 6.41233874e-06  6.41233874e+00  6.41233874e-06  6.40243060e+00  6.41233874e-06  4.04897019e+00  6.41233874e-06  6.41226395e+00 
 6.45133833e-06  6.45133833e+00  6.45133833e-06  6.44147021e+00  6.45133833e-06  4.08046224e+00  6.45133833e-06  6.45112664e+00 
 6.50030218e-06  6.50030218e+00  6.50030218e-06  6.49048361e+00  6.50030218e-06  4.12002338e+00  6.50030218e-06  6.50022598e+00 
 6.59822987e-06  6.59822987e+00  6.59822987e-06  6.58850762e+00  6.59822987e-06  4.19930670e+00  6.59822987e-06  6.59802176e+00 
 6.69822987e-06  6.69822987e+00  6.69822987e-06  6.68860257e+00  6.69822987e-06  4.28039569e+00  6.69822987e-06  6.69815399e+00 
 6.79822987e-06  6.79822987e+00  6.79822987e-06  6.78869420e+00  6.79822987e-06  4.36167037e+00  6.79822987e-06  6.79802544e+00 
 6.89822987e-06  6.89822987e+00  6.89822987e-06  6.88878278e+00  6.89822987e-06  4.44305319e+00  6.89822987e-06  6.89815423e+00 
 6.99822987e-06  6.99822987e+00  6.99822987e-06  6.98886844e+00  6.99822987e-06  4.52460173e+00  6.99822987e-06  6.99802882e+00 
 7.09822987e-06  7.09822987e+00  7.09822987e-06  7.08895140e+00  7.09822987e-06  4.60623726e+00  7.09822987e-06  7.09815443e+00 
 7.19822987e-06  7.19822987e+00  7.19822987e-06  7.18903180e+00  7.19822987e-06  4.68801428e+00  7.19822987e-06  7.19803195e+00 
 7.29822987e-06  7.29822987e+00  7.29822987e-06  7.28910982e+00  7.29822987e-06  4.76985558e+00  7.29822987e-06  7.29815458e+00 
 7.39822987e-06  7.39822987e+00  7.39822987e-06  7.38918562e+00  7.39822987e-06  4.85181023e+00  7.39822987e-06  7.39803485e+00 
 7.49822987e-06  7.49822987e+00  7.49822987e-06  7.48925931e+00  7.49822987e-06  4.93380352e+00  7.49822987e-06  7.49815470e+00 
 7.59822987e-06  7.59822987e+00  7.59822987e-06  7.58933106e+00  7.59822987e-06  5.01587821e+00  7.59822987e-06  7.59803754e+00 
 7.69822987e-06  7.69822987e+00  7.69822987e-06  7.68940099e+00  7.69822987e-06  5.09796211e+00  7.69822987e-06  7.69815477e+00 
 7.79822987e-06  7.79822987e+00  7.79822987e-06  7.78946924e+00  7.79822987e-06  5.18009174e+00  7.79822987e-06  7.79804004e+00 
 7.89822987e-06  7.89822987e+00  7.89822987e-06  7.88953591e+00  7.89822987e-06  5.26219696e+00  7.89822987e-06  7.89815482e+00 
 7.99822987e-06  7.99822987e+00  7.99822987e-06  7.98960114e+00  7.99822987e-06  5.34430855e+00  7.99822987e-06  7.99804236e+00 
 8.09822987e-06  8.09822987e+00  8.09822987e-06  8.08966502e+00  8.09822987e-06  5.42635791e+00  8.09822987e-06  8.09815483e+00 
 8.19822987e-06  8.19822987e+00  8.19822987e-06  8.18972769e+00  8.19822987e-06  5.50837087e+00  8.19822987e-06  8.19804452e+00 
 8.29822987e-06  8.29822987e+00  8.29822987e-06  8.28978923e+00  8.29822987e-06  5.59027987e+00  8.29822987e-06  8.29815482e+00 
 8.39822987e-06  8.39822987e+00  8.39822987e-06  8.38984975e+00  8.39822987e-06  5.67210674e+00  8.39822987e-06  8.39804652e+00 
 8.49822987e-06  8.49822987e+00  8.49822987e-06  8.48990933e+00  8.49822987e-06  5.75378464e+00  8.49822987e-06  8.49815477e+00 
 8.59822987e-06  8.59822987e+00  8.59822987e-06  8.58996808e+00  8.59822987e-06  5.83533231e+00  8.59822987e-06  8.59804839e+00 
 8.69822987e-06  8.69822987e+00  8.69822987e-06  8.69002606e+00  8.69822987e-06  5.91668364e+00  8.69822987e-06  8.69815470e+00 
 8.79822987e-06  8.79822987e+00  8.79822987e-06  8.79008338e+00  8.79822987e-06  5.99785514e+00  8.79822987e-06  8.79805013e+00 
 8.89822987e-06  8.89822987e+00  8.89822987e-06  8.89014008e+00  8.89822987e-06  6.07878160e+00  8.89822987e-06  8.89815460e+00 
 8.99822987e-06  8.99822987e+00  8.99822987e-06  8.99019626e+00  8.99822987e-06  6.15947811e+00  8.99822987e-06  8.99805175e+00 
 9.09822987e-06  9.09822987e+00  9.09822987e-06  9.09025195e+00  9.09822987e-06  6.23988071e+00  9.09822987e-06  9.09815448e+00 
 9.19822987e-06  9.19822987e+00  9.19822987e-06  9.19030724e+00  9.19822987e-06  6.32000382e+00  9.19822987e-06  9.19805326e+00 
 9.29822987e-06  9.29822987e+00  9.29822987e-06  9.29036215e+00  9.29822987e-06  6.39978514e+00  9.29822987e-06  9.29815433e+00 
 9.39822987e-06  9.39822987e+00  9.39822987e-06  9.39041675e+00  9.39822987e-06  6.47923906e+00  9.39822987e-06  9.39805467e+00 
 9.49822987e-06  9.49822987e+00  9.49822987e-06  9.49047106e+00  9.49822987e-06  6.55830539e+00  9.49822987e-06  9.49815416e+00 
 9.59822987e-06  9.59822987e+00  9.59822987e-06  9.59052512e+00  9.59822987e-06  6.63699904e+00  9.59822987e-06  9.59805598e+00 
 9.69822987e-06  9.69822987e+00  9.69822987e-06  9.69057896e+00  9.69822987e-06  6.71526233e+00  9.69822987e-06  9.69815396e+00 
 9.79822987e-06  9.79822987e+00  9.79822987e-06  9.79063260e+00  9.79822987e-06  6.79311105e+00  9.79822987e-06  9.79805720e+00 
 9.89822987e-06  9.89822987e+00  9.89822987e-06  9.89068604e+00  9.89822987e-06  6.87049042e+00  9.89822987e-06  9.89815375e+00 
 9.99822987e-06  9.99822987e+00  9.99822987e-06  9.99073932e+00  9.99822987e-06  6.94741735e+00  9.99822987e-06  9.99805833e+00 
 1.00982299e-05  1.00982299e+01  1.00982299e-05  1.00907924e+01  1.00982299e-05  7.02384020e+00  1.00982299e-05  1.00981535e+01 
 1.01982299e-05  1.01982299e+01  1.01982299e-05  1.01908453e+01  1.01982299e-05  7.09977712e+00  1.01982299e-05  1.01980594e+01 
 1.02982299e-05  1.02982299e+01  1.02982299e-05  1.02908981e+01  1.02982299e-05  7.17517974e+00  1.02982299e-05  1.02981533e+01 
 1.03982299e-05  1.03982299e+01  1.03982299e-05  1.03909507e+01  1.03982299e-05  7.25006746e+00  1.03982299e-05  1.03980604e+01 
 1.04982299e-05  1.04982299e+01  1.04982299e-05  1.04910030e+01  1.04982299e-05  7.32439522e+00  1.04982299e-05  1.04981530e+01 
 1.05000000e-05  1.05000000e+01  1.05000000e-05  1.04927741e+01  1.05000000e-05  7.32571344e+00  1.05000000e-05  1.04998404e+01 
 1.05035403e-05  1.05000000e+01  1.05035403e-05  1.04951218e+01  1.05035403e-05  7.32575122e+00  1.05035403e-05  1.05000235e+01 
 1.05106208e-05  1.05000000e+01  1.05106208e-05  1.04982343e+01  1.05106208e-05  7.32587644e+00  1.05106208e-05  1.05000191e+01 
 1.05247819e-05  1.05000000e+01  1.05247819e-05  1.04997536e+01  1.05247819e-05  7.32613877e+00  1.05247819e-05  1.04999921e+01 
 1.05531040e-05  1.05000000e+01  1.05531040e-05  1.04997515e+01  1.05531040e-05  7.32639343e+00  1.05531040e-05  1.05000075e+01 
 1.06097482e-05  1.05000000e+01  1.06097482e-05  1.04997847e+01  1.06097482e-05  7.32688914e+00  1.06097482e-05  1.04999920e+01 
 1.07097482e-05  1.05000000e+01  1.07097482e-05  1.04998027e+01  1.07097482e-05  7.32756716e+00  1.07097482e-05  1.05000068e+01 
 1.08097482e-05  1.05000000e+01  1.08097482e-05  1.04998188e+01  1.08097482e-05  7.32824399e+00  1.08097482e-05  1.04999918e+01 
 1.09097482e-05  1.05000000e+01  1.09097482e-05  1.04998216e+01  1.09097482e-05  7.32893527e+00  1.09097482e-05  1.05000065e+01 
 1.10097482e-05  1.05000000e+01  1.10097482e-05  1.04998275e+01  1.10097482e-05  7.32961649e+00  1.10097482e-05  1.04999918e+01 
 1.11097482e-05  1.05000000e+01  1.11097482e-05  1.04998274e+01  1.11097482e-05  7.33029343e+00  1.11097482e-05  1.05000063e+01 
 1.12097482e-05  1.05000000e+01  1.12097482e-05  1.04998299e+01  1.12097482e-05  7.33093965e+00  1.12097482e-05  1.04999918e+01 
 1.13097482e-05  1.05000000e+01  1.13097482e-05  1.04998293e+01  1.13097482e-05  7.33158098e+00  1.13097482e-05  1.05000062e+01 
 1.14097482e-05  1.05000000e+01  1.14097482e-05  1.04998305e+01  1.14097482e-05  7.33218753e+00  1.14097482e-05  1.04999919e+01 
 1.15097482e-05  1.05000000e+01  1.15097482e-05  1.04998300e+01  1.15097482e-05  7.33278907e+00  1.15097482e-05  1.05000060e+01 
 1.16097482e-05  1.05000000e+01  1.16097482e-05  1.04998305e+01  1.16097482e-05  7.33335869e+00  1.16097482e-05  1.04999920e+01 
 1.17097482e-05  1.05000000e+01  1.17097482e-05  1.04998301e+01  1.17097482e-05  7.33392119e+00  1.17097482e-05  1.05000059e+01 
 1.18097482e-05  1.05000000e+01  1.18097482e-05  1.04998303e+01  1.18097482e-05  7.33445747e+00  1.18097482e-05  1.04999921e+01 
 1.19097482e-05  1.05000000e+01  1.19097482e-05  1.04998300e+01  1.19097482e-05  7.33498373e+00  1.19097482e-05  1.05000058e+01 
 1.20097482e-05  1.05000000e+01  1.20097482e-05  1.04998301e+01  1.20097482e-05  7.33548969e+00  1.20097482e-05  1.04999922e+01 
 1.21097482e-05  1.05000000e+01  1.21097482e-05  1.04998298e+01  1.21097482e-05  7.33598321e+00  1.21097482e-05  1.05000057e+01 
 1.22097482e-05  1.05000000e+01  1.22097482e-05  1.04998298e+01  1.22097482e-05  7.33646128e+00  1.22097482e-05  1.04999923e+01 
 1.23097482e-05  1.05000000e+01  1.23097482e-05  1.04998296e+01  1.23097482e-05  7.33692561e+00  1.23097482e-05  1.05000056e+01 
 1.24097482e-05  1.05000000e+01  1.24097482e-05  1.04998295e+01  1.24097482e-05  7.33737791e+00  1.24097482e-05  1.04999924e+01 
