 time            v(bvdd)         time            v(pvdd)         time            v(gate)         time            v(ea_out)       time            v(startup_done) time            v(ea_en)       
 1.00000000e-09  1.00000000e-03  1.00000000e-09  1.59256364e-04  1.00000000e-09  6.71736531e-04  1.00000000e-09 -1.13754587e-03  1.00000000e-09  5.77646879e-04  1.00000000e-09  7.15163535e-06 
 1.02795850e-09  1.02795850e-03  1.02795850e-09  1.61113854e-04  1.02795850e-09  6.89634976e-04  1.02795850e-09 -1.17505503e-03  1.02795850e-09  5.93644460e-04  1.02795850e-09  7.34755926e-06 
 1.08387549e-09  1.08387549e-03  1.08387549e-09  1.62688628e-04  1.08387549e-09  7.24714809e-04  1.08387549e-09 -1.22478133e-03  1.08387549e-09  6.25988316e-04  1.08387549e-09  7.74245671e-06 
 1.19570948e-09  1.19570948e-03  1.19570948e-09  1.62382126e-04  1.19570948e-09  7.93789088e-04  1.19570948e-09 -1.30912617e-03  1.19570948e-09  6.90796081e-04  1.19570948e-09  8.53411177e-06 
 1.41937746e-09  1.41937746e-03  1.41937746e-09  1.62518272e-04  1.41937746e-09  9.32683760e-04  1.41937746e-09 -1.42605334e-03  1.41937746e-09  8.21303215e-04  1.41937746e-09  1.01265501e-05 
 1.71205969e-09  1.71205969e-03  1.71205969e-09  1.62378222e-04  1.71205969e-09  1.11527265e-03  1.71205969e-09 -1.48982781e-03  1.71205969e-09  9.93524140e-04  1.71205969e-09  1.22268853e-05 
 2.29742415e-09  2.29742415e-03  2.29742415e-09  1.62411330e-04  2.29742415e-09  1.48362934e-03  2.29742415e-09 -1.45176169e-03  2.29742415e-09  1.34081303e-03  2.29742415e-09  1.64700923e-05 
 3.46815308e-09  3.46815308e-03  3.46815308e-09  1.62218371e-04  3.46815308e-09  2.23175703e-03  3.46815308e-09 -1.12547402e-03  3.46815308e-09  2.04026185e-03  3.46815308e-09  2.50769950e-05 
 5.80961093e-09  5.80961093e-03  5.80961093e-09  1.62085616e-04  5.80961093e-09  3.76962800e-03  5.80961093e-09 -5.17578049e-04  5.80961093e-09  3.44230579e-03  5.80961093e-09  4.25993452e-05 
 1.04925266e-08  1.04925266e-02  1.04925266e-08  1.61630577e-04  1.04925266e-08  6.98516076e-03  1.04925266e-08 -4.23335426e-05  1.04925266e-08  6.24917466e-03  1.04925266e-08  7.84064374e-05 
 1.91995513e-08  1.91995513e-02  1.91995513e-08  1.61036136e-04  1.91995513e-08  1.33362244e-02  1.91995513e-08  2.44738604e-05  1.91995513e-08  1.15114218e-02  1.91995513e-08  1.46490184e-04 
 3.00394325e-08  3.00394325e-02  3.00394325e-08  1.60149635e-04  3.00394325e-08  2.17169174e-02  3.00394325e-08  1.99185341e-05  3.00394325e-08  1.81695835e-02  3.00394325e-08  2.32655958e-04 
 5.11027359e-08  5.11027359e-02  5.11027359e-08  1.58695554e-04  5.11027359e-08  3.89767168e-02  5.11027359e-08  3.28379329e-05  5.11027359e-08  3.13831272e-02  5.11027359e-08  4.01967856e-04 
 9.32293426e-08  9.32293426e-02  9.32293426e-08  1.55761400e-04  9.32293426e-08  7.58981418e-02  9.32293426e-08  4.73306648e-05  9.32293426e-08  5.81972983e-02  9.32293426e-08  7.37973364e-04 
 1.00000000e-07  1.00000000e-01  1.00000000e-07  1.55393996e-04  1.00000000e-07  8.20640148e-02  1.00000000e-07  4.79203805e-05  1.00000000e-07  6.24937266e-02  1.00000000e-07  7.90958219e-04 
 1.08328367e-07  1.08328367e-01  1.08328367e-07  1.54826215e-04  1.08328367e-07  8.97391551e-02  1.08328367e-07  5.09639828e-05  1.08328367e-07  6.77443867e-02  1.08328367e-07  8.54650553e-04 
 1.24985102e-07  1.24985102e-01  1.24985102e-07  1.53770703e-04  1.24985102e-07  1.05208755e-01  1.24985102e-07  5.46185326e-05  1.24985102e-07  7.82093320e-02  1.24985102e-07  9.79310961e-04 
 1.58298571e-07  1.58298571e-01  1.58298571e-07  1.51705891e-04  1.58298571e-07  1.36726023e-01  1.58298571e-07  5.91357391e-05  1.58298571e-07  9.87671115e-02  1.58298571e-07  1.20854686e-03 
 2.24925509e-07  2.24925509e-01  2.24925509e-07  1.47683595e-04  2.24925509e-07  2.01276783e-01  2.24925509e-07  6.74147791e-05  2.24925509e-07  1.37733781e-01  2.24925509e-07  1.57199449e-03 
 3.24925509e-07  3.24925509e-01  3.24925509e-07  1.41755523e-04  3.24925509e-07  3.00123172e-01  3.24925509e-07  7.50276174e-05  3.24925509e-07  1.87578547e-01  3.24925509e-07  1.90252154e-03 
 4.24925509e-07  4.24925509e-01  4.24925509e-07  1.35844662e-04  4.24925509e-07  3.99894845e-01  4.24925509e-07  8.16917465e-05  4.24925509e-07  2.20320898e-01  4.24925509e-07  2.05609824e-03 
 5.24925509e-07  5.24925509e-01  5.24925509e-07  1.29908270e-04  5.24925509e-07  4.99906318e-01  5.24925509e-07  8.77690046e-05  5.24925509e-07  2.25396240e-01  5.24925509e-07  2.12147609e-03 
 6.24925509e-07  6.24925509e-01  6.24925509e-07  1.23936276e-04  6.24925509e-07  5.99973217e-01  6.24925509e-07  9.36781393e-05  6.24925509e-07  1.90633390e-01  6.24925509e-07  2.14837391e-03 
 7.24925509e-07  7.24925509e-01  7.24925509e-07  1.17921464e-04  7.24925509e-07  7.00067611e-01  7.24925509e-07  9.81668326e-05  7.24925509e-07  1.02056196e-01  7.24925509e-07  2.15940456e-03 
 8.24925509e-07  8.24925509e-01  8.24925509e-07  1.11843169e-04  8.24925509e-07  8.00279747e-01  8.24925509e-07  9.88845164e-05  8.24925509e-07  1.53634573e-02  8.24925509e-07  2.16405127e-03 
 9.24925509e-07  9.24925509e-01  9.24925509e-07  1.05661745e-04  9.24925509e-07  9.01414073e-01  9.24925509e-07  8.84485339e-05  9.24925509e-07  7.85159802e-04  9.24925509e-07  2.16617440e-03 
 1.02492551e-06  1.02492551e+00  1.02492551e-06  9.93035545e-05  1.02492551e-06  1.00429469e+00  1.02492551e-06  5.87252054e-05  1.02492551e-06 -2.05986572e-04  1.02492551e-06  2.16723278e-03 
 1.12492551e-06  1.12492551e+00  1.12492551e-06  9.29702192e-05  1.12492551e-06  1.10213799e+00  1.12492551e-06  1.15983404e-04  1.12492551e-06  3.23865977e-04  1.12492551e-06  2.16779293e-03 
 1.22492551e-06  1.22492551e+00  1.22492551e-06  8.68079758e-05  1.22492551e-06  1.20073815e+00  1.22492551e-06  1.44792950e-04  1.22492551e-06 -1.17212760e-04  1.22492551e-06  2.16817442e-03 
 1.32492551e-06  1.32492551e+00  1.32492551e-06  8.07124133e-05  1.32492551e-06  1.30004669e+00  1.32492551e-06  2.70920978e-04  1.32492551e-06  2.14068335e-04  1.32492551e-06  2.16849731e-03 
 1.42492551e-06  1.42492551e+00  1.42492551e-06  7.47829544e-05  1.42492551e-06  1.39825540e+00  1.42492551e-06  5.06837755e-04  1.42492551e-06 -8.12680347e-05  1.42492551e-06  2.16879135e-03 
 1.52492551e-06  1.52492551e+00  1.52492551e-06  6.91896249e-05  1.52492551e-06  1.49527178e+00  1.52492551e-06  9.99897746e-04  1.52492551e-06  1.60862826e-04  1.52492551e-06  2.16907899e-03 
 1.62492551e-06  1.62492551e+00  1.62492551e-06  6.41585448e-05  1.62492551e-06  1.58996206e+00  1.62492551e-06  1.80555779e-03  1.62492551e-06 -6.21258547e-05  1.62492551e-06  2.16936414e-03 
 1.72492551e-06  1.72492551e+00  1.72492551e-06  5.99550776e-05  1.72492551e-06  1.68243178e+00  1.72492551e-06  3.05923120e-03  1.72492551e-06  1.29615216e-04  1.72492551e-06  2.16965588e-03 
 1.82492551e-06  1.82492551e+00  1.82492551e-06  5.68391682e-05  1.82492551e-06  1.77222233e+00  1.82492551e-06  4.80704204e-03  1.82492551e-06 -5.03104664e-05  1.82492551e-06  2.16995872e-03 
 1.92492551e-06  1.92492551e+00  1.92492551e-06  5.50731982e-05  1.92492551e-06  1.85970939e+00  1.92492551e-06  7.16691423e-03  1.92492551e-06  1.09106285e-04  1.92492551e-06  2.17028372e-03 
 2.02492551e-06  2.02492551e+00  2.02492551e-06  5.48982545e-05  2.02492551e-06  1.94471527e+00  2.02492551e-06  1.01780547e-02  2.02492551e-06 -4.23174043e-05  2.02492551e-06  2.17063962e-03 
 2.12492551e-06  2.12492551e+00  2.12492551e-06  5.65532097e-05  2.12492551e-06  2.02762573e+00  2.12492551e-06  1.39464662e-02  2.12492551e-06  9.43386870e-05  2.12492551e-06  2.17103946e-03 
 2.22492551e-06  2.22492551e+00  2.22492551e-06  6.02573817e-05  2.22492551e-06  2.10834137e+00  2.22492551e-06  1.85050901e-02  2.22492551e-06 -3.68113808e-05  2.22492551e-06  2.17149249e-03 
 2.32492551e-06  2.32492551e+00  2.32492551e-06  6.62296251e-05  2.32492551e-06  2.18721461e+00  2.32492551e-06  2.39485064e-02  2.32492551e-06  8.36969453e-05  2.32492551e-06  2.17201038e-03 
 2.42492551e-06  2.42492551e+00  2.42492551e-06  7.46740064e-05  2.42492551e-06  2.26419185e+00  2.42492551e-06  3.03017190e-02  2.42492551e-06 -3.23912511e-05  2.42492551e-06  2.17259923e-03 
 2.52492551e-06  2.52492551e+00  2.52492551e-06  8.57994998e-05  2.52492551e-06  2.33960119e+00  2.52492551e-06  3.76464966e-02  2.52492551e-06  7.54676225e-05  2.52492551e-06  2.17326694e-03 
 2.62492551e-06  2.62492551e+00  2.62492551e-06  9.98128685e-05  2.62492551e-06  2.41342048e+00  2.62492551e-06  4.59984675e-02  2.62492551e-06 -2.89572173e-05  2.62492551e-06  2.17401673e-03 
 2.72492551e-06  2.72492551e+00  2.72492551e-06  1.16947711e-04  2.72492551e-06  2.48595670e+00  2.72492551e-06  5.54260810e-02  2.72492551e-06  6.89198060e-05  2.72492551e-06  2.17485474e-03 
 2.82492551e-06  2.82492551e+00  2.82492551e-06  1.37478100e-04  2.82492551e-06  2.55720745e+00  2.82492551e-06  6.59358276e-02  2.82492551e-06 -2.62123787e-05  2.82492551e-06  2.17578374e-03 
 2.92492551e-06  2.92492551e+00  2.92492551e-06  1.61779851e-04  2.92492551e-06  2.62745781e+00  2.92492551e-06  7.75840764e-02  2.92492551e-06  6.35896050e-05  2.92492551e-06  2.17681039e-03 
 3.02492551e-06  3.02492551e+00  3.02492551e-06  1.90403599e-04  3.02492551e-06  2.69671574e+00  3.02492551e-06  9.03693771e-02  3.02492551e-06 -2.39677616e-05  3.02492551e-06  2.17793903e-03 
 3.12492551e-06  3.12492551e+00  3.12492551e-06  2.24234726e-04  3.12492551e-06  2.76524298e+00  3.12492551e-06  1.04337199e-01  3.12492551e-06  5.91687310e-05  3.12492551e-06  2.17917853e-03 
 3.22492551e-06  3.22492551e+00  3.22492551e-06  2.64742434e-04  3.22492551e-06  2.83305073e+00  3.22492551e-06  1.19478715e-01  3.22492551e-06 -2.20975506e-05  3.22492551e-06  2.18053626e-03 
 3.32492551e-06  3.32492551e+00  3.32492551e-06  3.14432818e-04  3.32492551e-06  2.90037564e+00  3.32492551e-06  1.35828475e-01  3.32492551e-06  5.54445175e-05  3.32492551e-06  2.18202475e-03 
 3.42492551e-06  3.42492551e+00  3.42492551e-06  3.77600777e-04  3.42492551e-06  2.96722574e+00  3.42492551e-06  1.53367849e-01  3.42492551e-06 -2.05147544e-05  3.42492551e-06  2.18365574e-03 
 3.52492551e-06  3.52492551e+00  3.52492551e-06  4.61592215e-04  3.52492551e-06  3.03380718e+00  3.52492551e-06  1.72109452e-01  3.52492551e-06  5.22656203e-05  3.52492551e-06  2.18544589e-03 
 3.62492551e-06  3.62492551e+00  3.62492551e-06  5.78888993e-04  3.62492551e-06  3.10010002e+00  3.62492551e-06  1.91968761e-01  3.62492551e-06 -1.91253261e-05  3.62492551e-06  2.18740551e-03 
 3.72492551e-06  3.72492551e+00  3.72492551e-06  7.50451009e-04  3.72492551e-06  3.16624343e+00  3.72492551e-06  2.12889296e-01  3.72492551e-06  4.95455991e-05  3.72492551e-06  2.18954885e-03 
 3.82492551e-06  3.82492551e+00  3.82492551e-06  1.01069371e-03  3.82492551e-06  3.23248341e+00  3.82492551e-06  2.35850431e-01  3.82492551e-06 -1.79536831e-05  3.82492551e-06  2.19203678e-03 
 3.92492551e-06  3.92492551e+00  3.92492551e-06  1.41525541e-03  3.92492551e-06  3.29886013e+00  3.92492551e-06  2.59159636e-01  3.92492551e-06  4.71489339e-05  3.92492551e-06  2.19479856e-03 
 4.02492551e-06  4.02492551e+00  4.02492551e-06  2.05188553e-03  4.02492551e-06  3.36534825e+00  4.02492551e-06  2.84531014e-01  4.02492551e-06 -1.69265565e-05  4.02492551e-06  2.19798761e-03 
 4.12492551e-06  4.12492551e+00  4.12492551e-06  3.05576730e-03  4.12492551e-06  3.43221314e+00  4.12492551e-06  3.10680038e-01  4.12492551e-06  4.50424549e-05  4.12492551e-06  2.20156524e-03 
 4.22492551e-06  4.22492551e+00  4.22492551e-06  4.62799156e-03  4.22492551e-06  3.49947785e+00  4.22492551e-06  3.38809767e-01  4.22492551e-06 -1.60183202e-05  4.22492551e-06  2.20576113e-03 
 4.32492551e-06  4.32492551e+00  4.32492551e-06  7.05293034e-03  4.32492551e-06  3.56744515e+00  4.32492551e-06  3.68219979e-01  4.32492551e-06  4.31639254e-05  4.32492551e-06  2.21068166e-03 
 4.42492551e-06  4.42492551e+00  4.42492551e-06  1.07096119e-02  4.42492551e-06  3.63620355e+00  4.42492551e-06  3.99676884e-01  4.42492551e-06 -1.52244025e-05  4.42492551e-06  2.21663115e-03 
 4.52492551e-06  4.52492551e+00  4.52492551e-06  1.60655867e-02  4.52492551e-06  3.70605877e+00  4.52492551e-06  4.32861401e-01  4.52492551e-06  4.15032142e-05  4.52492551e-06  2.22384191e-03 
 4.62492551e-06  4.62492551e+00  4.62492551e-06  2.36551483e-02  4.62492551e-06  3.77705486e+00  4.62492551e-06  4.67991257e-01  4.62492551e-06 -1.44828194e-05  4.62492551e-06  2.23264255e-03 
 4.72492551e-06  4.72492551e+00  4.72492551e-06  3.40464664e-02  4.72492551e-06  3.84926766e+00  4.72492551e-06  5.04611087e-01  4.72492551e-06  4.00231342e-05  4.72492551e-06  2.24328672e-03 
 4.82492551e-06  4.82492551e+00  4.82492551e-06  4.78271242e-02  4.82492551e-06  3.92233671e+00  4.82492551e-06  5.42018639e-01  4.82492551e-06 -1.38269987e-05  4.82492551e-06  2.25598181e-03 
 4.92492551e-06  4.92492551e+00  4.92492551e-06  6.56279797e-02  4.92492551e-06  3.99571933e+00  4.92492551e-06  5.79168609e-01  4.92492551e-06  3.86792929e-05  4.92492551e-06  2.27085255e-03 
 5.02492551e-06  5.02492551e+00  5.02492551e-06  8.81896114e-02  5.02492551e-06  4.06848191e+00  5.02492551e-06  6.14842138e-01  5.02492551e-06 -1.32310684e-05  5.02492551e-06  2.28775216e-03 
 5.12492551e-06  5.12492551e+00  5.12492551e-06  1.16429057e-01  5.12492551e-06  4.13985750e+00  5.12492551e-06  6.48571517e-01  5.12492551e-06  3.74627842e-05  5.12492551e-06  2.30622856e-03 
 5.22492551e-06  5.22492551e+00  5.22492551e-06  1.51458408e-01  5.22492551e-06  4.20927005e+00  5.22492551e-06  6.80139968e-01  5.22492551e-06 -1.26861934e-05  5.22492551e-06  2.32572541e-03 
 5.32492551e-06  5.32492551e+00  5.32492551e-06  1.94547384e-01  5.32492551e-06  4.27655197e+00  5.32492551e-06  7.09753013e-01  5.32492551e-06  3.63575609e-05  5.32492551e-06  2.34599207e-03 
 5.42492551e-06  5.42492551e+00  5.42492551e-06  2.47044218e-01  5.42492551e-06  4.34174743e+00  5.42492551e-06  7.37912164e-01  5.42492551e-06 -1.21846845e-05  5.42492551e-06  2.36712207e-03 
 5.52492551e-06  5.52492551e+00  5.52492551e-06  3.10253283e-01  5.52492551e-06  4.40532633e+00  5.52492551e-06  7.65484000e-01  5.52492551e-06  3.53459064e-05  5.52492551e-06  2.38947170e-03 
 5.62492551e-06  5.62492551e+00  5.62492551e-06  3.85329686e-01  5.62492551e-06  4.46771712e+00  5.62492551e-06  7.92756510e-01  5.62492551e-06 -1.17262580e-05  5.62492551e-06  2.41328120e-03 
 5.72492551e-06  5.72492551e+00  5.72492551e-06  4.73240703e-01  5.72492551e-06  4.52932757e+00  5.72492551e-06  8.20034163e-01  5.72492551e-06  3.44280544e-05  5.72492551e-06  2.43875906e-03 
 5.82492551e-06  5.82492551e+00  5.82492551e-06  5.74793853e-01  5.82492551e-06  4.59026600e+00  5.82492551e-06  8.47112738e-01  5.82492551e-06 -1.12842758e-05  5.82492551e-06  2.46603464e-03 
 5.92492551e-06  5.92492551e+00  5.92492551e-06  6.90686222e-01  5.92492551e-06  4.65062820e+00  5.92492551e-06  8.74074832e-01  5.92492551e-06  3.35943211e-05  5.92492551e-06  2.49586095e-03 
 6.02492551e-06  6.02492551e+00  6.02492551e-06  8.21426865e-01  6.02492551e-06  4.71093252e+00  6.02492551e-06  9.02617538e-01  6.02492551e-06 -1.08722132e-05  6.02492551e-06  2.53348028e-03 
 6.12492551e-06  6.12492551e+00  6.12492551e-06  9.66464686e-01  6.12492551e-06  4.77547291e+00  6.12492551e-06  9.43923684e-01  6.12492551e-06  3.28315750e-05  6.12492551e-06  2.58698918e-03 
 6.22492551e-06  6.22492551e+00  6.22492551e-06  1.12247088e+00  6.22492551e-06  4.85259265e+00  6.22492551e-06  1.00857092e+00  6.22492551e-06 -1.04765638e-05  6.22492551e-06  2.65239938e-03 
 6.32492551e-06  6.32492551e+00  6.32492551e-06  1.28315808e+00  6.32492551e-06  4.94711388e+00  6.32492551e-06  1.09047668e+00  6.32492551e-06  3.21407367e-05  6.32492551e-06  2.73524095e-03 
 6.42492551e-06  6.42492551e+00  6.42492551e-06  1.44242154e+00  6.42492551e-06  5.05290456e+00  6.42492551e-06  1.16937783e+00  6.42492551e-06 -1.00899827e-05  6.42492551e-06  2.82789901e-03 
 6.52492551e-06  6.52492551e+00  6.52492551e-06  1.59677027e+00  6.52492551e-06  5.16415702e+00  6.52492551e-06  1.25424901e+00  6.52492551e-06  3.15206487e-05  6.52492551e-06  2.92646590e-03 
 6.62492551e-06  6.62492551e+00  6.62492551e-06  1.74420351e+00  6.62492551e-06  5.28030998e+00  6.62492551e-06  1.34220282e+00  6.62492551e-06 -9.70433941e-06  6.62492551e-06  3.02613634e-03 
 6.72492551e-06  6.72492551e+00  6.72492551e-06  1.88337858e+00  6.72492551e-06  5.39915217e+00  6.72492551e-06  1.42926748e+00  6.72492551e-06  3.09701910e-05  6.72492551e-06  3.12330504e-03 
 6.82492551e-06  6.82492551e+00  6.82492551e-06  2.01410367e+00  6.82492551e-06  5.51737821e+00  6.82492551e-06  1.51149777e+00  6.82492551e-06 -9.31399888e-06  6.82492551e-06  3.21573946e-03 
 6.92492551e-06  6.92492551e+00  6.92492551e-06  2.13719731e+00  6.92492551e-06  5.63313429e+00  6.92492551e-06  1.59080804e+00  6.92492551e-06  3.04967113e-05  6.92492551e-06  3.30322035e-03 
 7.00000000e-06  7.00000000e+00  7.00000000e-06  2.22529819e+00  7.00000000e-06  5.71805424e+00  7.00000000e-06  1.64743695e+00  7.00000000e-06 -8.92927135e-06  7.00000000e-06  3.36556606e-03 
 7.01000000e-06  7.00000000e+00  7.01000000e-06  2.23668512e+00  7.01000000e-06  5.72088336e+00  7.01000000e-06  1.65483951e+00  7.01000000e-06  1.75403899e-06  7.01000000e-06  3.37362627e-03 
 7.03000000e-06  7.00000000e+00  7.03000000e-06  2.25921930e+00  7.03000000e-06  5.72625667e+00  7.03000000e-06  1.66959594e+00  7.03000000e-06  1.88721933e-06  7.03000000e-06  3.38961765e-03 
 7.07000000e-06  7.00000000e+00  7.07000000e-06  2.30296398e+00  7.07000000e-06  5.73562600e+00  7.07000000e-06  1.69795645e+00  7.07000000e-06  1.76801937e-06  7.07000000e-06  3.42071388e-03 
 7.15000000e-06  7.00000000e+00  7.15000000e-06  2.38591664e+00  7.15000000e-06  5.75132982e+00  7.15000000e-06  1.75215215e+00  7.15000000e-06  1.88710218e-06  7.15000000e-06  3.47988783e-03 
 7.25000000e-06  7.00000000e+00  7.25000000e-06  2.48204586e+00  7.25000000e-06  5.76934822e+00  7.25000000e-06  1.81512926e+00  7.25000000e-06  1.76825818e-06  7.25000000e-06  3.54848001e-03 
 7.35000000e-06  7.00000000e+00  7.35000000e-06  2.57014893e+00  7.35000000e-06  5.78844639e+00  7.35000000e-06  1.87318505e+00  7.35000000e-06  1.88689126e-06  7.35000000e-06  3.61133147e-03 
 7.45000000e-06  7.00000000e+00  7.45000000e-06  2.65008742e+00  7.45000000e-06  5.80927431e+00  7.45000000e-06  1.92596643e+00  7.45000000e-06  1.76847484e-06  7.45000000e-06  3.66843902e-03 
 7.55000000e-06  7.00000000e+00  7.55000000e-06  2.72176181e+00  7.55000000e-06  5.83120873e+00  7.55000000e-06  1.97345559e+00  7.55000000e-06  1.88670349e-06  7.55000000e-06  3.71986587e-03 
 7.65000000e-06  7.00000000e+00  7.65000000e-06  2.78537279e+00  7.65000000e-06  5.85327230e+00  7.65000000e-06  2.01537311e+00  7.65000000e-06  1.76876824e-06  7.65000000e-06  3.76572911e-03 
 7.75000000e-06  7.00000000e+00  7.75000000e-06  2.84143920e+00  7.75000000e-06  5.87448966e+00  7.75000000e-06  2.05177899e+00  7.75000000e-06  1.88658247e-06  7.75000000e-06  3.80631530e-03 
 7.85000000e-06  7.00000000e+00  7.85000000e-06  2.89071170e+00  7.85000000e-06  5.89414226e+00  7.85000000e-06  2.08294274e+00  7.85000000e-06  1.76892342e-06  7.85000000e-06  3.84204157e-03 
 7.95000000e-06  7.00000000e+00  7.95000000e-06  2.93403889e+00  7.95000000e-06  5.91190295e+00  7.95000000e-06  2.10965106e+00  7.95000000e-06  1.88632869e-06  7.95000000e-06  3.87346341e-03 
 8.05000000e-06  7.00000000e+00  8.05000000e-06  2.97224949e+00  8.05000000e-06  5.92775151e+00  8.05000000e-06  2.13247898e+00  8.05000000e-06  1.76907887e-06  8.05000000e-06  3.90110915e-03 
 8.15000000e-06  7.00000000e+00  8.15000000e-06  3.00609099e+00  8.15000000e-06  5.94179484e+00  8.15000000e-06  2.15204358e+00  8.15000000e-06  1.88609346e-06  8.15000000e-06  3.92549063e-03 
 8.25000000e-06  7.00000000e+00  8.25000000e-06  3.03621590e+00  8.25000000e-06  5.95417666e+00  8.25000000e-06  2.16873131e+00  8.25000000e-06  1.76922480e-06  8.25000000e-06  3.94704472e-03 
