 time            v(bvdd)         time            v(pvdd)         time            v(gate)         time            v(ea_out)       time            v(startup_done) time            v(ea_en)       
 1.00000000e-09  1.00000000e-03  1.00000000e-09  1.59256406e-04  1.00000000e-09  6.71982796e-04  1.00000000e-09 -1.16703159e-03  1.00000000e-09  6.13529773e-04  1.00000000e-09  8.55093283e-05 
 1.02795849e-09  1.02795849e-03  1.02795849e-09  1.61113895e-04  1.02795849e-09  6.89889189e-04  1.02795849e-09 -1.20552242e-03  1.02795849e-09  6.30687961e-04  1.02795849e-09  8.78518074e-05 
 1.08387547e-09  1.08387547e-03  1.08387547e-09  1.62688648e-04  1.08387547e-09  7.24983927e-04  1.08387547e-09 -1.25597179e-03  1.08387547e-09  6.65052497e-04  1.08387547e-09  9.25744437e-05 
 1.19570943e-09  1.19570943e-03  1.19570943e-09  1.62382088e-04  1.19570943e-09  7.94088292e-04  1.19570943e-09 -1.34088885e-03  1.19570943e-09  7.33813666e-04  1.19570943e-09  1.02042758e-04 
 1.41937735e-09  1.41937735e-03  1.41937735e-09  1.62518089e-04  1.41937735e-09  9.33039190e-04  1.41937735e-09 -1.45678522e-03  1.41937735e-09  8.71493682e-04  1.41937735e-09  1.21090684e-04 
 1.71205952e-09  1.71205952e-03  1.71205952e-09  1.62377814e-04  1.71205952e-09  1.11569536e-03  1.71205952e-09 -1.51617883e-03  1.71205952e-09  1.05193454e-03  1.71205952e-09  1.46216580e-04 
 2.29742386e-09  2.29742386e-03  2.29742386e-09  1.62410464e-04  2.29742386e-09  1.48417167e-03  2.29742386e-09 -1.46726837e-03  2.29742386e-09  1.41349872e-03  2.29742386e-09  1.96978737e-04 
 3.46815253e-09  3.46815253e-03  3.46815253e-09  1.62216766e-04  3.46815253e-09  2.23250766e-03  3.46815253e-09 -1.12552407e-03  3.46815253e-09  2.13858175e-03  3.46815253e-09  2.99936532e-04 
 5.80960987e-09  5.80960987e-03  5.80960987e-09  1.62083068e-04  5.80960987e-09  3.77075798e-03  5.80960987e-09 -5.11579100e-04  5.80960987e-09  3.59477242e-03  5.80960987e-09  5.09510411e-04 
 1.04925246e-08  1.04925246e-02  1.04925246e-08  1.61626533e-04  1.04925246e-08  6.98700785e-03  1.04925246e-08 -4.28744952e-05  1.04925246e-08  6.53128468e-03  1.04925246e-08  9.37720168e-04 
 1.92338249e-08  1.92338249e-02  1.92338249e-08  1.61026378e-04  1.92338249e-08  1.33649824e-02  1.92338249e-08  2.04998729e-05  1.92338249e-08  1.21056389e-02  1.92338249e-08  1.75501930e-03 
 3.00298178e-08  3.00298178e-02  3.00298178e-08  1.60139227e-04  3.00298178e-08  2.17134548e-02  3.00298178e-08  1.60080225e-05  3.00298178e-08  1.91521419e-02  3.00298178e-08  2.78088848e-03 
 5.13271721e-08  5.13271721e-02  5.13271721e-08  1.58660866e-04  5.13271721e-08  3.91713834e-02  5.13271721e-08  2.85854183e-05  5.13271721e-08  3.34433919e-02  5.13271721e-08  4.82664046e-03 
 9.39218808e-08  9.39218808e-02  9.39218808e-08  1.55681798e-04  9.39218808e-08  7.65307193e-02  9.39218808e-08  4.20997629e-05  9.39218808e-08  6.25681944e-02  9.39218808e-08  8.87739298e-03 
 1.00000000e-07  1.00000000e-01  1.00000000e-07  1.55357271e-04  1.00000000e-07  8.20684273e-02  1.00000000e-07  4.23087536e-05  1.00000000e-07  6.67149783e-02  1.00000000e-07  9.44335177e-03 
 1.08326681e-07  1.08326681e-01  1.08326681e-07  1.54786561e-04  1.08326681e-07  8.97422377e-02  1.08326681e-07  4.51379424e-05  1.08326681e-07  7.23570155e-02  1.08326681e-07  1.01998772e-02 
 1.24980044e-07  1.24980044e-01  1.24980044e-07  1.53724978e-04  1.24980044e-07  1.05208981e-01  1.24980044e-07  4.82032016e-05  1.24980044e-07  8.36025493e-02  1.24980044e-07  1.16773680e-02 
 1.58286769e-07  1.58286769e-01  1.58286769e-07  1.51647315e-04  1.58286769e-07  1.36719680e-01  1.58286769e-07  5.19226784e-05  1.58286769e-07  1.05655503e-01  1.58286769e-07  1.43702694e-02 
 2.24900219e-07  2.24900219e-01  2.24900219e-07  1.47595653e-04  2.24900219e-07  2.01255167e-01  2.24900219e-07  5.74077543e-05  2.24900219e-07  1.47061796e-01  2.24900219e-07  1.85183758e-02 
 3.24900219e-07  3.24900219e-01  3.24900219e-07  1.41614272e-04  3.24900219e-07  3.00096469e-01  3.24900219e-07  6.11892325e-05  3.24900219e-07  1.97484374e-01  3.24900219e-07  2.20170764e-02 
 4.24900219e-07  4.24900219e-01  4.24900219e-07  1.35644158e-04  4.24900219e-07  3.99863300e-01  4.24900219e-07  6.38118709e-05  4.24900219e-07  2.23709364e-01  4.24900219e-07  2.34174152e-02 
 5.24900219e-07  5.24900219e-01  5.24900219e-07  1.29646720e-04  5.24900219e-07  4.99874643e-01  5.24900219e-07  6.62862714e-05  5.24900219e-07  2.12785925e-01  5.24900219e-07  2.39169718e-02 
 6.24900219e-07  6.24900219e-01  6.24900219e-07  1.23616695e-04  6.24900219e-07  5.99963184e-01  6.24900219e-07  6.90754050e-05  6.24900219e-07  1.61274980e-01  6.24900219e-07  2.40924225e-02 
 7.24900219e-07  7.24900219e-01  7.24900219e-07  1.17556652e-04  7.24900219e-07  7.00150868e-01  7.24900219e-07  7.20984444e-05  7.24900219e-07  9.48753390e-02  7.24900219e-07  2.41579922e-02 
 8.24900219e-07  8.24900219e-01  8.24900219e-07  1.11468493e-04  8.24900219e-07  8.00586184e-01  8.24900219e-07  7.54588830e-05  8.24900219e-07  7.96486181e-02  8.24900219e-07  2.41876571e-02 
 9.24900219e-07  9.24900219e-01  9.24900219e-07  1.05358021e-04  9.24900219e-07  9.01682538e-01  9.24900219e-07  7.89162393e-05  9.24900219e-07  3.70529029e-02  9.24900219e-07  2.42089203e-02 
 1.02490022e-06  1.02490022e+00  1.02490022e-06  9.93376176e-05  1.02490022e-06  1.00736812e+00  1.02490022e-06  8.70321693e-05  1.02490022e-06  7.43370819e-04  1.02490022e-06  2.41093896e-02 
 1.11424691e-06  1.11424691e+00  1.11424691e-06  9.38040500e-05  1.11424691e-06  1.09560089e+00  1.11424691e-06  1.07601768e-04  1.11424691e-06 -3.70684951e-04  1.11424691e-06  2.39083856e-02 
 1.20642229e-06  1.20642229e+00  1.20642229e-06  8.81262001e-05  1.20642229e-06  1.18719523e+00  1.20642229e-06  1.44026311e-04  1.20642229e-06  4.42306785e-04  1.20642229e-06  2.37041683e-02 
 1.30642229e-06  1.30642229e+00  1.30642229e-06  8.20577561e-05  1.30642229e-06  1.28802711e+00  1.30642229e-06  2.40638419e-04  1.30642229e-06 -2.41232135e-04  1.30642229e-06  2.34878098e-02 
 1.40642229e-06  1.40642229e+00  1.40642229e-06  7.61130806e-05  1.40642229e-06  1.38759294e+00  1.40642229e-06  4.55936638e-04  1.40642229e-06  3.10049992e-04  1.40642229e-06  2.32732631e-02 
 1.50642229e-06  1.50642229e+00  1.50642229e-06  7.04853714e-05  1.50642229e-06  1.48657382e+00  1.50642229e-06  8.87864427e-04  1.50642229e-06 -1.77503906e-04  1.50642229e-06  2.30615214e-02 
 1.60642229e-06  1.60642229e+00  1.60642229e-06  6.53800436e-05  1.60642229e-06  1.58371806e+00  1.60642229e-06  1.63427831e-03  1.60642229e-06  2.40148532e-04  1.60642229e-06  2.28514164e-02 
 1.70642229e-06  1.70642229e+00  1.70642229e-06  6.10841735e-05  1.70642229e-06  1.67978087e+00  1.70642229e-06  2.79350637e-03  1.70642229e-06 -1.40791574e-04  1.70642229e-06  2.26436694e-02 
 1.80642229e-06  1.80642229e+00  1.80642229e-06  5.78517476e-05  1.80642229e-06  1.77422500e+00  1.80642229e-06  4.44951444e-03  1.80642229e-06  1.97033886e-04  1.80642229e-06  2.24377466e-02 
 1.90642229e-06  1.90642229e+00  1.90642229e-06  5.59610843e-05  1.90642229e-06  1.86782075e+00  1.90642229e-06  6.68644499e-03  1.90642229e-06 -1.17016843e-04  1.90642229e-06  2.22341781e-02 
 2.00642229e-06  2.00642229e+00  2.00642229e-06  5.56471948e-05  2.00642229e-06  1.96023895e+00  2.00642229e-06  9.57784265e-03  2.00642229e-06  1.67837833e-04  2.00642229e-06  2.20327001e-02 
 2.10642229e-06  2.10642229e+00  2.10642229e-06  5.71575106e-05  2.10642229e-06  2.05209616e+00  2.10642229e-06  1.31985414e-02  2.10642229e-06 -1.00402524e-04  2.10642229e-06  2.18337266e-02 
 2.20642229e-06  2.20642229e+00  2.20642229e-06  6.07020475e-05  2.20642229e-06  2.14311866e+00  2.20642229e-06  1.76134913e-02  2.20642229e-06  1.46783217e-04  2.20642229e-06  2.16371097e-02 
 2.30642229e-06  2.30642229e+00  2.30642229e-06  6.64993767e-05  2.30642229e-06  2.23380540e+00  2.30642229e-06  2.28882450e-02  2.30642229e-06 -8.81539409e-05  2.30642229e-06  2.14431560e-02 
 2.40642229e-06  2.40642229e+00  2.40642229e-06  7.47341981e-05  2.40642229e-06  2.32392140e+00  2.40642229e-06  2.90780942e-02  2.40642229e-06  1.30895338e-04  2.40642229e-06  2.12517470e-02 
 2.50642229e-06  2.50642229e+00  2.50642229e-06  8.55954115e-05  2.50642229e-06  2.41388577e+00  2.50642229e-06  3.62378199e-02  2.50642229e-06 -7.87582312e-05  2.50642229e-06  2.10630946e-02 
 2.60642229e-06  2.60642229e+00  2.60642229e-06  9.92390234e-05  2.60642229e-06  2.50349222e+00  2.60642229e-06  4.44115743e-02  2.60642229e-06  1.18488339e-04  2.60642229e-06  2.08770898e-02 
 2.70642229e-06  2.70642229e+00  2.70642229e-06  1.15821537e-04  2.70642229e-06  2.59309989e+00  2.70642229e-06  5.36425498e-02  2.70642229e-06 -7.13266453e-05  2.70642229e-06  2.06938866e-02 
 2.80642229e-06  2.80642229e+00  2.80642229e-06  1.35468043e-04  2.80642229e-06  2.68252288e+00  2.80642229e-06  6.39638191e-02  2.80642229e-06  1.08255316e-04  2.80642229e-06  2.05133920e-02 
 2.90642229e-06  2.90642229e+00  2.90642229e-06  1.58303094e-04  2.90642229e-06  2.77207184e+00  2.90642229e-06  7.54080299e-02  2.90642229e-06 -6.55679990e-05  2.90642229e-06  2.03357389e-02 
 3.00642229e-06  3.00642229e+00  3.00642229e-06  1.84422917e-04  3.00642229e-06  2.86157499e+00  3.00642229e-06  8.79984021e-02  3.00642229e-06  1.00169998e-04  3.00642229e-06  2.01608790e-02 
 3.10642229e-06  3.10642229e+00  3.10642229e-06  2.13923283e-04  3.10642229e-06  2.95130441e+00  3.10642229e-06  1.01757601e-01  3.10642229e-06 -6.05261637e-05  3.10642229e-06  1.99889460e-02 
 3.20642229e-06  3.20642229e+00  3.20642229e-06  2.46874181e-04  3.20642229e-06  3.04109804e+00  3.20642229e-06  1.16699211e-01  3.20642229e-06  9.34146869e-05  3.20642229e-06  1.98199266e-02 
 3.30642229e-06  3.30642229e+00  3.30642229e-06  2.83345144e-04  3.30642229e-06  3.13119465e+00  3.30642229e-06  1.32835252e-01  3.30642229e-06 -5.62966960e-05  3.30642229e-06  1.96539718e-02 
 3.40642229e-06  3.40642229e+00  3.40642229e-06  3.23381264e-04  3.40642229e-06  3.22143884e+00  3.40642229e-06  1.50166339e-01  3.40642229e-06  8.76883517e-05  3.40642229e-06  1.94911130e-02 
 3.50642229e-06  3.50642229e+00  3.50642229e-06  3.67025021e-04  3.50642229e-06  3.31203822e+00  3.50642229e-06  1.68682731e-01  3.50642229e-06 -5.26976506e-05  3.50642229e-06  1.93315156e-02 
 3.60642229e-06  3.60642229e+00  3.60642229e-06  4.14289063e-04  3.60642229e-06  3.40283185e+00  3.60642229e-06  1.88326277e-01  3.60642229e-06  8.28737180e-05  3.60642229e-06  1.91751878e-02 
 3.70642229e-06  3.70642229e+00  3.70642229e-06  4.65154425e-04  3.70642229e-06  3.49395440e+00  3.70642229e-06  2.08855096e-01  3.70642229e-06 -4.94953054e-05  3.70642229e-06  1.90219398e-02 
 3.80642229e-06  3.80642229e+00  3.80642229e-06  5.19576240e-04  3.80642229e-06  3.58547431e+00  3.80642229e-06  2.31585450e-01  3.80642229e-06  7.85927934e-05  3.80642229e-06  1.88737885e-02 
 3.90642229e-06  3.90642229e+00  3.90642229e-06  5.77897518e-04  3.90642229e-06  3.67735536e+00  3.90642229e-06  2.54322950e-01  3.90642229e-06 -4.68144282e-05  3.90642229e-06  1.87293416e-02 
 4.00642229e-06  4.00642229e+00  4.00642229e-06  6.39864693e-04  4.00642229e-06  3.76948306e+00  4.00642229e-06  2.79132117e-01  4.00642229e-06  7.48478978e-05  4.00642229e-06  1.85901245e-02 
 4.10642229e-06  4.10642229e+00  4.10642229e-06  7.05499099e-04  4.10642229e-06  3.86205949e+00  4.10642229e-06  3.04252191e-01  4.10642229e-06 -4.44571142e-05  4.10642229e-06  1.84546513e-02 
 4.20642229e-06  4.20642229e+00  4.20642229e-06  7.74696548e-04  4.20642229e-06  3.95487145e+00  4.20642229e-06  3.31033859e-01  4.20642229e-06  7.15450133e-05  4.20642229e-06  1.83247602e-02 
 4.30642229e-06  4.30642229e+00  4.30642229e-06  8.47421221e-04  4.30642229e-06  4.04811049e+00  4.30642229e-06  3.58311148e-01  4.30642229e-06 -4.24266013e-05  4.30642229e-06  1.81999374e-02 
 4.40642229e-06  4.40642229e+00  4.40642229e-06  9.23560677e-04  4.40642229e-06  4.14155278e+00  4.40642229e-06  3.86781312e-01  4.40642229e-06  6.85651776e-05  4.40642229e-06  1.80818420e-02 
 4.50642229e-06  4.50642229e+00  4.50642229e-06  1.00299666e-03  4.50642229e-06  4.23533996e+00  4.50642229e-06  4.15697175e-01  4.50642229e-06 -4.05527700e-05  4.50642229e-06  1.79704546e-02 
 4.60642229e-06  4.60642229e+00  4.60642229e-06  1.08554489e-03  4.60642229e-06  4.32922706e+00  4.60642229e-06  4.45168090e-01  4.60642229e-06  6.59875344e-05  4.60642229e-06  1.78668464e-02 
 4.70642229e-06  4.70642229e+00  4.70642229e-06  1.17097318e-03  4.70642229e-06  4.42327385e+00  4.70642229e-06  4.74615652e-01  4.70642229e-06 -3.88271934e-05  4.70642229e-06  1.77711577e-02 
 4.80642229e-06  4.80642229e+00  4.80642229e-06  1.25900271e-03  4.80642229e-06  4.51718297e+00  4.80642229e-06  5.03597663e-01  4.80642229e-06  6.36289873e-05  4.80642229e-06  1.76837499e-02 
 4.90642229e-06  4.90642229e+00  4.90642229e-06  1.34936921e-03  4.90642229e-06  4.61090902e+00  4.90642229e-06  5.31503128e-01  4.90642229e-06 -3.73132871e-05  4.90642229e-06  1.76050248e-02 
 5.00642229e-06  5.00642229e+00  5.00642229e-06  1.44217334e-03  5.00642229e-06  4.70411622e+00  5.00642229e-06  5.57561079e-01  5.00642229e-06  6.14977709e-05  5.00642229e-06  1.75340723e-02 
 5.10642229e-06  5.10642229e+00  5.10642229e-06  1.53799814e-03  5.10642229e-06  4.79675879e+00  5.10642229e-06  5.81437362e-01  5.10642229e-06 -3.59378183e-05  5.10642229e-06  1.74671507e-02 
 5.20642229e-06  5.20642229e+00  5.20642229e-06  1.63728697e-03  5.20642229e-06  4.88868974e+00  5.20642229e-06  6.02991037e-01  5.20642229e-06  5.95635773e-05  5.20642229e-06  1.73985288e-02 
 5.30642229e-06  5.30642229e+00  5.30642229e-06  1.74057999e-03  5.30642229e-06  4.98000584e+00  5.30642229e-06  6.22248673e-01  5.30642229e-06 -3.46815157e-05  5.30642229e-06  1.73241736e-02 
 5.40642229e-06  5.40642229e+00  5.40642229e-06  1.84847384e-03  5.40642229e-06  5.07056151e+00  5.40642229e-06  6.38918127e-01  5.40642229e-06  5.78017325e-05  5.40642229e-06  1.72410934e-02 
 5.50642229e-06  5.50642229e+00  5.50642229e-06  1.96157397e-03  5.50642229e-06  5.16048978e+00  5.50642229e-06  6.53380061e-01  5.50642229e-06 -3.35279375e-05  5.50642229e-06  1.71498340e-02 
 5.60642229e-06  5.60642229e+00  5.60642229e-06  2.08063459e-03  5.60642229e-06  5.24981969e+00  5.60642229e-06  6.65873946e-01  5.60642229e-06  5.61922035e-05  5.60642229e-06  1.70514183e-02 
 5.70642229e-06  5.70642229e+00  5.70642229e-06  2.20656540e-03  5.70642229e-06  5.33876497e+00  5.70642229e-06  6.76903107e-01  5.70642229e-06 -3.24849137e-05  5.70642229e-06  1.69477446e-02 
 5.80642229e-06  5.80642229e+00  5.80642229e-06  2.34045754e-03  5.80642229e-06  5.42735703e+00  5.80642229e-06  6.86681961e-01  5.80642229e-06  5.47027903e-05  5.80642229e-06  1.68397933e-02 
 5.90642229e-06  5.90642229e+00  5.90642229e-06  2.48356670e-03  5.90642229e-06  5.51578431e+00  5.90642229e-06  6.95609609e-01  5.90642229e-06 -3.14925978e-05  5.90642229e-06  1.67290849e-02 
 6.00642229e-06  6.00642229e+00  6.00642229e-06  2.63737396e-03  6.00642229e-06  5.60405921e+00  6.00642229e-06  7.03831209e-01  6.00642229e-06  5.33549443e-05  6.00642229e-06  1.66163119e-02 
 6.10642229e-06  6.10642229e+00  6.10642229e-06  2.80360953e-03  6.10642229e-06  5.69234034e+00  6.10642229e-06  7.11630401e-01  6.10642229e-06 -3.05639064e-05  6.10642229e-06  1.65025713e-02 
 6.20642229e-06  6.20642229e+00  6.20642229e-06  2.98434760e-03  6.20642229e-06  5.78061939e+00  6.20642229e-06  7.19088653e-01  6.20642229e-06  5.21207792e-05  6.20642229e-06  1.63882693e-02 
 6.30642229e-06  6.30642229e+00  6.30642229e-06  3.18207016e-03  6.30642229e-06  5.86903269e+00  6.30642229e-06  7.26407267e-01  6.30642229e-06 -2.96871038e-05  6.30642229e-06  1.62741562e-02 
 6.40642229e-06  6.40642229e+00  6.40642229e-06  3.39979074e-03  6.40642229e-06  5.95756078e+00  6.40642229e-06  7.33632095e-01  6.40642229e-06  5.09936100e-05  6.40642229e-06  1.61604310e-02 
 6.50642229e-06  6.50642229e+00  6.50642229e-06  3.64114986e-03  6.50642229e-06  6.04632596e+00  6.50642229e-06  7.40910001e-01  6.50642229e-06 -2.88504867e-05  6.50642229e-06  1.60475764e-02 
 6.60642229e-06  6.60642229e+00  6.60642229e-06  3.91056793e-03  6.60642229e-06  6.13530360e+00  6.60642229e-06  7.48266793e-01  6.60642229e-06  4.99694299e-05  6.60642229e-06  1.59356362e-02 
 6.70642229e-06  6.70642229e+00  6.70642229e-06  4.21336644e-03  6.70642229e-06  6.22460541e+00  6.70642229e-06  7.55804994e-01  6.70642229e-06 -2.80420369e-05  6.70642229e-06  1.58248727e-02 
 6.80642229e-06  6.80642229e+00  6.80642229e-06  4.55595264e-03  6.80642229e-06  6.31420046e+00  6.80642229e-06  7.63522041e-01  6.80642229e-06  4.90468100e-05  6.80642229e-06  1.57152045e-02 
 6.90642229e-06  6.90642229e+00  6.90642229e-06  4.94597105e-03  6.90642229e-06  6.40418411e+00  6.90642229e-06  7.71456482e-01  6.90642229e-06 -2.72491288e-05  6.90642229e-06  1.56067388e-02 
 7.00000000e-06  7.00000000e+00  7.00000000e-06  5.36185343e-03  7.00000000e-06  6.48869550e+00  7.00000000e-06  7.79019988e-01  7.00000000e-06  4.82424374e-05  7.00000000e-06  1.55062829e-02 
 7.01000000e-06  7.00000000e+00  7.01000000e-06  5.40872900e-03  7.01000000e-06  6.48918867e+00  7.01000000e-06  7.79831849e-01  7.01000000e-06  2.09786321e-06  7.01000000e-06  1.54945442e-02 
 7.03000000e-06  7.00000000e+00  7.03000000e-06  5.50271591e-03  7.03000000e-06  6.48876318e+00  7.03000000e-06  7.81443906e-01  7.03000000e-06  1.60125165e-06  7.03000000e-06  1.54709999e-02 
 7.07000000e-06  7.00000000e+00  7.07000000e-06  5.69585437e-03  7.07000000e-06  6.48379621e+00  7.07000000e-06  7.84601079e-01  7.07000000e-06  2.04968497e-06  7.07000000e-06  1.54237851e-02 
 7.15000000e-06  7.00000000e+00  7.15000000e-06  6.11590866e-03  7.15000000e-06  6.47206683e+00  7.15000000e-06  7.90633107e-01  7.15000000e-06  1.60619038e-06  7.15000000e-06  1.53296679e-02 
 7.25000000e-06  7.00000000e+00  7.25000000e-06  6.70868510e-03  7.25000000e-06  6.45983590e+00  7.25000000e-06  7.97560165e-01  7.25000000e-06  2.04856558e-06  7.25000000e-06  1.52125949e-02 
 7.35000000e-06  7.00000000e+00  7.35000000e-06  7.37323785e-03  7.35000000e-06  6.45001979e+00  7.35000000e-06  8.03751911e-01  7.35000000e-06  1.60718222e-06  7.35000000e-06  1.50960956e-02 
 7.45000000e-06  7.00000000e+00  7.45000000e-06  8.10358803e-03  7.45000000e-06  6.44213897e+00  7.45000000e-06  8.09208967e-01  7.45000000e-06  2.04757736e-06  7.45000000e-06  1.49796905e-02 
 7.55000000e-06  7.00000000e+00  7.55000000e-06  8.89250808e-03  7.55000000e-06  6.43585261e+00  7.55000000e-06  8.13980581e-01  7.55000000e-06  1.60816770e-06  7.55000000e-06  1.48626967e-02 
 7.65000000e-06  7.00000000e+00  7.65000000e-06  9.73218179e-03  7.65000000e-06  6.43085415e+00  7.65000000e-06  8.18136702e-01  7.65000000e-06  2.04659475e-06  7.65000000e-06  1.47448006e-02 
 7.75000000e-06  7.00000000e+00  7.75000000e-06  1.06149085e-02  7.75000000e-06  6.42690266e+00  7.75000000e-06  8.21757125e-01  7.75000000e-06  1.60914747e-06  7.75000000e-06  1.46259561e-02 
 7.85000000e-06  7.00000000e+00  7.85000000e-06  1.15334548e-02  7.85000000e-06  6.42379571e+00  7.85000000e-06  8.24918369e-01  7.85000000e-06  2.04561782e-06  7.85000000e-06  1.45062657e-02 
 7.95000000e-06  7.00000000e+00  7.95000000e-06  1.24812883e-02  7.95000000e-06  6.42137152e+00  7.95000000e-06  8.27692288e-01  7.95000000e-06  1.61012159e-06  7.95000000e-06  1.43859185e-02 
 8.05000000e-06  7.00000000e+00  8.05000000e-06  1.34526703e-02  8.05000000e-06  6.41949598e+00  8.05000000e-06  8.30140891e-01  8.05000000e-06  2.04464651e-06  8.05000000e-06  1.42651284e-02 
 8.15000000e-06  7.00000000e+00  8.15000000e-06  1.44426701e-02  8.15000000e-06  6.41806241e+00  8.15000000e-06  8.32318622e-01  8.15000000e-06  1.61109011e-06  8.15000000e-06  1.41441154e-02 
 8.25000000e-06  7.00000000e+00  8.25000000e-06  1.54471270e-02  8.25000000e-06  6.41698223e+00  8.25000000e-06  8.34270076e-01  8.25000000e-06  2.04368078e-06  8.25000000e-06  1.40230639e-02 
