 time            v(bvdd)         time            v(pvdd)         time            v(gate)         time            v(ea_out)       time            v(startup_done) time            v(ea_en)       
 1.00000000e-09  1.20000000e-02  1.00000000e-09  1.82586655e-04  1.00000000e-09  9.03059391e-03  1.00000000e-09 -2.22563313e-03  1.00000000e-09  7.90900806e-03  1.00000000e-09  7.11935663e-06 
 1.02794807e-09  1.23353768e-02  1.02794807e-09  1.84785869e-04  1.02794807e-09  9.28363929e-03  1.02794807e-09 -2.27089084e-03  1.02794807e-09  8.13388816e-03  1.02794807e-09  7.31975241e-06 
 1.08384421e-09  1.30061305e-02  1.08384421e-09  1.86704948e-04  1.08384421e-09  9.78921660e-03  1.08384421e-09 -2.32716733e-03  1.08384421e-09  8.58428145e-03  1.08384421e-09  7.72186348e-06 
 1.19563649e-09  1.43476379e-02  1.19563649e-09  1.86416736e-04  1.19563649e-09  1.08001421e-02  1.19563649e-09 -2.38944376e-03  1.19563649e-09  9.48707166e-03  1.19563649e-09  8.52830255e-06 
 1.41922106e-09  1.70306527e-02  1.41922106e-09  1.86633924e-04  1.41922106e-09  1.28247586e-02  1.41922106e-09 -2.36536003e-03  1.41922106e-09  1.13005150e-02  1.41922106e-09  1.01518101e-05 
 1.72904814e-09  2.07485777e-02  1.72904814e-09  1.86594570e-04  1.72904814e-09  1.56351862e-02  1.72904814e-09 -2.16085301e-03  1.72904814e-09  1.38273632e-02  1.72904814e-09  1.24178726e-05 
 2.34870231e-09  2.81844277e-02  2.34870231e-09  1.86841301e-04  2.34870231e-09  2.12703888e-02  2.34870231e-09 -1.63605237e-03  2.34870231e-09  1.89159071e-02  2.34870231e-09  1.69858308e-05 
 3.58801064e-09  4.30561277e-02  3.58801064e-09  1.87073330e-04  3.58801064e-09  3.25858828e-02  3.58801064e-09 -8.01593337e-04  3.58801064e-09  2.91790659e-02  3.58801064e-09  2.62206423e-05 
 6.06662730e-09  7.27995276e-02  6.06662730e-09  1.87802345e-04  6.06662730e-09  5.53610604e-02  6.06662730e-09 -5.26843058e-05  6.06662730e-09  4.98718084e-02  6.06662730e-09  4.49816145e-05 
 1.10238606e-08  1.32286328e-01  1.10238606e-08  1.89046010e-04  1.10238606e-08  1.01409802e-01  1.10238606e-08  1.77604762e-04  1.10238606e-08  9.15424199e-02  1.10238606e-08  8.32848847e-05 
 1.81401357e-08  2.17681628e-01  1.81401357e-08  1.91025523e-04  1.81401357e-08  1.68598578e-01  1.81401357e-08  1.55123919e-04  1.81401357e-08  1.51836889e-01  1.81401357e-08  1.39319734e-04 
 3.04797525e-08  3.65757030e-01  3.04797525e-08  1.94248720e-04  3.04797525e-08  2.87936674e-01  3.04797525e-08  1.68335669e-04  3.04797525e-08  2.58153210e-01  3.04797525e-08  2.37929947e-04 
 5.51589861e-08  6.61907833e-01  5.51589861e-08  2.00919838e-04  5.51589861e-08  5.36158339e-01  5.51589861e-08  1.75388548e-04  5.51589861e-08  4.80888359e-01  5.51589861e-08  4.37467566e-04 
 8.86423134e-08  1.06370776e+00  8.86423134e-08  2.09892399e-04  8.86423134e-08  8.89821242e-01  8.86423134e-08  2.33854949e-04  8.86423134e-08  7.36225461e-01  8.86423134e-08  7.08272379e-04 
 1.00000000e-07  1.20000000e+00  1.00000000e-07  2.13263636e-04  1.00000000e-07  1.01356712e+00  1.00000000e-07  3.79306719e-04  1.00000000e-07  7.24381210e-01  1.00000000e-07  7.99173208e-04 
 1.00696375e-07  1.20835650e+00  1.00696375e-07  2.13444749e-04  1.00696375e-07  1.02121108e+00  1.00696375e-07  3.94433757e-04  1.00696375e-07  7.17432994e-01  1.00696375e-07  8.04709006e-04 
 1.02089126e-07  1.22506951e+00  1.02089126e-07  2.13883545e-04  1.02089126e-07  1.03651059e+00  1.02089126e-07  4.28083804e-04  1.02089126e-07  6.99802478e-01  1.02089126e-07  8.15771046e-04 
 1.04874628e-07  1.25849553e+00  1.04874628e-07  2.14815008e-04  1.04874628e-07  1.06717707e+00  1.04874628e-07  5.16311094e-04  1.04874628e-07  6.37936481e-01  1.04874628e-07  8.37833099e-04 
 1.10445631e-07  1.32534757e+00  1.10445631e-07  2.16931890e-04  1.10445631e-07  1.12876818e+00  1.10445631e-07  7.52536084e-04  1.10445631e-07  3.90657923e-01  1.10445631e-07  8.81685487e-04 
 1.17444566e-07  1.40933479e+00  1.17444566e-07  2.20238004e-04  1.17444566e-07  1.20653755e+00  1.17444566e-07  1.18585458e-03  1.17444566e-07  7.34787735e-02  1.17444566e-07  9.36207713e-04 
 1.24969727e-07  1.49963672e+00  1.24969727e-07  2.24423272e-04  1.24969727e-07  1.28523685e+00  1.24969727e-07  1.57592035e-03  1.24969727e-07  1.47499852e+00  1.24969727e-07  9.94098780e-04 
 1.30434048e-07  1.56520858e+00  1.30434048e-07  2.27533849e-04  1.30434048e-07  1.34471449e+00  1.30434048e-07  1.42641280e-03  1.30434048e-07  1.58084133e+00  1.30434048e-07  1.03573196e-03 
 1.36220060e-07  1.63464072e+00  1.36220060e-07  2.29934592e-04  1.36220060e-07  1.41054983e+00  1.36220060e-07  6.49818478e-04  1.36220060e-07  1.61982815e+00  1.36220060e-07  1.07956800e-03 
 1.40436600e-07  1.68523920e+00  1.40436600e-07  2.31268722e-04  1.40436600e-07  1.45804990e+00  1.40436600e-07  6.54569270e-04  1.40436600e-07  1.69563927e+00  1.40436600e-07  1.11142050e-03 
 1.45331960e-07  1.74398351e+00  1.45331960e-07  2.32895451e-04  1.45331960e-07  1.51390336e+00  1.45331960e-07  6.67819335e-04  1.45331960e-07  1.73352911e+00  1.45331960e-07  1.14831113e-03 
 1.51590503e-07  1.81908603e+00  1.51590503e-07  2.34938012e-04  1.51590503e-07  1.58516151e+00  1.51590503e-07  6.53075610e-04  1.51590503e-07  1.82666545e+00  1.51590503e-07  1.19538132e-03 
 1.58567770e-07  1.90281324e+00  1.58567770e-07  2.37227285e-04  1.58567770e-07  1.66516070e+00  1.58567770e-07  7.00375166e-04  1.58567770e-07  1.89497018e+00  1.58567770e-07  1.24778767e-03 
 1.69013322e-07  2.02815986e+00  1.69013322e-07  2.40628299e-04  1.69013322e-07  1.78522847e+00  1.69013322e-07  6.85078129e-04  1.69013322e-07  2.03384778e+00  1.69013322e-07  1.32593698e-03 
 1.82969376e-07  2.19563252e+00  1.82969376e-07  2.45165452e-04  1.82969376e-07  1.94671562e+00  1.82969376e-07  7.52857501e-04  1.82969376e-07  2.18977948e+00  1.82969376e-07  1.42880290e-03 
 2.04011673e-07  2.44814008e+00  2.04011673e-07  2.51959807e-04  2.04011673e-07  2.19169381e+00  2.04011673e-07  7.60495528e-04  2.04011673e-07  2.45228616e+00  2.04011673e-07  1.57840409e-03 
 2.35950980e-07  2.83141176e+00  2.35950980e-07  2.62188026e-04  2.35950980e-07  2.56661496e+00  2.35950980e-07  8.70702829e-04  2.35950980e-07  2.82731858e+00  2.35950980e-07  1.79146798e-03 
 2.77304289e-07  3.32765146e+00  2.77304289e-07  2.75122145e-04  2.77304289e-07  3.05572549e+00  2.77304289e-07  9.06212518e-04  2.77304289e-07  3.33052706e+00  2.77304289e-07  2.04368089e-03 
 3.60010906e-07  4.32013087e+00  3.60010906e-07  2.99748539e-04  3.60010906e-07  4.03849160e+00  3.60010906e-07  1.53985443e-03  3.60010906e-07  4.31741728e+00  3.60010906e-07  2.48307007e-03 
 4.47019755e-07  5.36423706e+00  4.47019755e-07  3.27963116e-04  4.47019755e-07  5.03299709e+00  4.47019755e-07  9.30139803e-03  4.47019755e-07  5.36619202e+00  4.47019755e-07  2.87722188e-03 
 5.29207772e-07  6.35049327e+00  5.29207772e-07  3.66156651e-04  5.29207772e-07  5.85636706e+00  5.29207772e-07  3.02064589e-02  5.29207772e-07  6.34838771e+00  5.29207772e-07  3.21304438e-03 
 5.97111392e-07  7.16533670e+00  5.97111392e-07  6.85573921e-04  5.97111392e-07  6.41623873e+00  5.97111392e-07  6.06033872e-02  5.97111392e-07  7.16724840e+00  5.97111392e-07  3.47871193e-03 
 6.48427889e-07  7.78113466e+00  6.48427889e-07  9.38129450e-03  6.48427889e-07  6.83342114e+00  6.48427889e-07  1.00677954e-01  6.48427889e-07  2.05212387e-03  6.48427889e-07  3.60352423e-03 
 6.77517384e-07  8.13020861e+00  6.77517384e-07  4.07272932e-02  6.77517384e-07  7.02029069e+00  6.77517384e-07  1.52684095e-01  6.77517384e-07 -1.79009908e-03  6.77517384e-07  3.63524877e-03 
 7.07297761e-07  8.48757313e+00  7.07297761e-07  1.36960138e-01  7.07297761e-07  7.22771369e+00  7.07297761e-07  2.63753616e-01  7.07297761e-07  1.89053614e-03  7.07297761e-07  3.67978905e-03 
 7.40882155e-07  8.89058586e+00  7.40882155e-07  3.48115477e-01  7.40882155e-07  7.51150968e+00  7.40882155e-07  4.84537713e-01  7.40882155e-07 -1.74143889e-03  7.40882155e-07  3.74811921e-03 
 7.75069034e-07  9.30082841e+00  7.75069034e-07  6.54506911e-01  7.75069034e-07  7.86657164e+00  7.75069034e-07  7.79886428e-01  7.75069034e-07  1.83072262e-03  7.75069034e-07  3.83345272e-03 
 8.07370356e-07  9.68844427e+00  8.07370356e-07  9.93377810e-01  8.07370356e-07  8.23127338e+00  8.07370356e-07  9.54300448e-01  8.07370356e-07 -1.71442871e-03  8.07370356e-07  3.91811899e-03 
 8.40143825e-07  1.00817259e+01  8.40143825e-07  1.37267203e+00  8.40143825e-07  8.58479724e+00  8.40143825e-07  1.10848224e+00  8.40143825e-07  1.79092645e-03  8.40143825e-07  4.04318014e-03 
 8.65589170e-07  1.03870700e+01  8.65589170e-07  1.69197319e+00  8.65589170e-07  8.85332580e+00  8.65589170e-07  1.26715536e+00  8.65589170e-07 -1.53583687e-03  8.65589170e-07  4.16931858e-03 
 8.75000000e-07  1.05000000e+01  8.75000000e-07  1.81470638e+00  8.75000000e-07  8.95427364e+00  8.75000000e-07  1.34820003e+00  8.75000000e-07  2.88898697e-03  8.75000000e-07  4.22060076e-03 
 8.75261426e-07  1.05000000e+01  8.75261426e-07  1.81812797e+00  8.75261426e-07  8.95468475e+00  8.75261426e-07  1.35007364e+00  8.75261426e-07  1.22209659e-03  8.75261426e-07  4.22201319e-03 
 8.75784277e-07  1.05000000e+01  8.75784277e-07  1.82494634e+00  8.75784277e-07  8.95534646e+00  8.75784277e-07  1.35201168e+00  8.75784277e-07  8.56331229e-04  8.75784277e-07  4.22468820e-03 
 8.76105640e-07  1.05000000e+01  8.76105640e-07  1.82911296e+00  8.76105640e-07  8.95567460e+00  8.76105640e-07  1.35278273e+00  8.76105640e-07  9.61042496e-04  8.76105640e-07  4.22629073e-03 
 8.76367461e-07  1.05000000e+01  8.76367461e-07  1.83249440e+00  8.76367461e-07  8.95595154e+00  8.76367461e-07  1.35412198e+00  8.76367461e-07  8.41412768e-04  8.76367461e-07  4.22764625e-03 
 8.76725561e-07  1.05000000e+01  8.76725561e-07  1.83710024e+00  8.76725561e-07  8.95632177e+00  8.76725561e-07  1.35625753e+00  8.76725561e-07  8.76331262e-04  8.76725561e-07  4.22951709e-03 
 8.77441760e-07  1.05000000e+01  8.77441760e-07  1.84624700e+00  8.77441760e-07  8.95705411e+00  8.77441760e-07  1.36077278e+00  8.77441760e-07  7.42429787e-04  8.77441760e-07  4.23325626e-03 
 8.78874159e-07  1.05000000e+01  8.78874159e-07  1.86428763e+00  8.78874159e-07  8.95848009e+00  8.78874159e-07  1.36968166e+00  8.78874159e-07  6.76075618e-04  8.78874159e-07  4.24064200e-03 
 8.81738958e-07  1.05000000e+01  8.81738958e-07  1.89940892e+00  8.81738958e-07  8.96117096e+00  8.81738958e-07  1.38649775e+00  8.81738958e-07  4.32449810e-04  8.81738958e-07  4.25501762e-03 
 8.87468555e-07  1.05000000e+01  8.87468555e-07  1.96618658e+00  8.87468555e-07  8.96578059e+00  8.87468555e-07  1.41640757e+00  8.87468555e-07  2.68651972e-04  8.87468555e-07  4.28231570e-03 
 8.98927748e-07  1.05000000e+01  8.98927748e-07  2.08843910e+00  8.98927748e-07  8.97078132e+00  8.98927748e-07  1.45939231e+00  8.98927748e-07  6.29184154e-05  8.98927748e-07  4.33175406e-03 
 9.17322396e-07  1.05000000e+01  9.17322396e-07  2.26299748e+00  9.17322396e-07  8.96074531e+00  9.17322396e-07  1.47583901e+00  9.17322396e-07  7.24658688e-05  9.17322396e-07  4.40004203e-03 
 9.34595589e-07  1.05000000e+01  9.34595589e-07  2.41294231e+00  9.34595589e-07  8.92755936e+00  9.34595589e-07  1.46996567e+00  9.34595589e-07  1.41970214e-05  9.34595589e-07  4.45843208e-03 
 9.59043178e-07  1.05000000e+01  9.59043178e-07  2.61603377e+00  9.59043178e-07  8.86316884e+00  9.59043178e-07  1.54815377e+00  9.59043178e-07  6.38321974e-05  9.59043178e-07  4.54224091e-03 
 9.84901278e-07  1.05000000e+01  9.84901278e-07  2.82214110e+00  9.84901278e-07  8.80680422e+00  9.84901278e-07  1.70077444e+00  9.84901278e-07  1.05556653e-05  9.84901278e-07  4.63121104e-03 
 1.01583625e-06  1.05000000e+01  1.01583625e-06  3.05297091e+00  1.01583625e-06  8.76816358e+00  1.01583625e-06  1.88190807e+00  1.01583625e-06  6.01089808e-05  1.01583625e-06  4.73247423e-03 
 1.06923145e-06  1.05000000e+01  1.06923145e-06  3.40529171e+00  1.06923145e-06  8.75097154e+00  1.06923145e-06  2.18776431e+00  1.06923145e-06  2.13797525e-06  1.06923145e-06  4.89272646e-03 
 1.12174488e-06  1.05000000e+01  1.12174488e-06  3.70028280e+00  1.12174488e-06  8.76334280e+00  1.12174488e-06  2.43629341e+00  1.12174488e-06  4.21980520e-05  1.12174488e-06  5.02889790e-03 
 1.17870633e-06  1.05000000e+01  1.17870633e-06  3.98066331e+00  1.17870633e-06  8.76553928e+00  1.17870633e-06  2.63483153e+00  1.17870633e-06 -3.92979574e-05  1.17870633e-06  5.15421780e-03 
 1.22129196e-06  1.05000000e+01  1.22129196e-06  4.17677949e+00  1.22129196e-06  8.74756855e+00  1.22129196e-06  2.75887524e+00  1.22129196e-06  1.51902196e-04  1.22129196e-06  5.23956865e-03 
 1.26326531e-06  1.05000000e+01  1.26326531e-06  4.38792958e+00  1.26326531e-06  8.60615453e+00  1.26326531e-06  2.50355779e+00  1.26326531e-06  1.00956793e+00  1.26326531e-06  5.28866468e-03 
 1.28626278e-06  1.05000000e+01  1.28626278e-06  4.52773953e+00  1.28626278e-06  8.45462638e+00  1.28626278e-06  2.61201241e+00  1.28626278e-06  1.03610931e+01  1.28626278e-06  5.39015228e-03 
 1.30066538e-06  1.05000000e+01  1.30066538e-06  4.62578885e+00  1.30066538e-06  8.40558003e+00  1.30066538e-06  2.64596930e+00  1.30066538e-06  1.05022467e+01  1.30066538e-06  5.48464771e-03 
 1.31326778e-06  1.05000000e+01  1.31326778e-06  4.71500995e+00  1.31326778e-06  8.37052460e+00  1.31326778e-06  2.72146083e+00  1.31326778e-06  1.04896941e+01  1.31326778e-06  5.57604818e-03 
 1.32641218e-06  1.05000000e+01  1.32641218e-06  4.81057158e+00  1.32641218e-06  8.34291416e+00  1.32641218e-06  2.79752246e+00  1.32641218e-06  1.05090008e+01  1.32641218e-06  5.67117971e-03 
 1.33904539e-06  1.05000000e+01  1.33904539e-06  4.90384997e+00  1.33904539e-06  8.32669584e+00  1.33904539e-06  2.87773441e+00  1.33904539e-06  1.04905003e+01  1.33904539e-06  5.76467117e-03 
 1.35548866e-06  1.05000000e+01  1.35548866e-06  5.02546412e+00  1.35548866e-06  8.32165218e+00  1.35548866e-06  2.98140960e+00  1.35548866e-06  1.05094186e+01  1.35548866e-06  5.88615659e-03 
 1.36931355e-06  1.05000000e+01  1.36931355e-06  5.12655575e+00  1.36931355e-06  8.32819109e+00  1.36931355e-06  3.06248531e+00  1.36931355e-06  1.04906358e+01  1.36931355e-06  5.98759745e-03 
 1.38267556e-06  1.05000000e+01  1.38267556e-06  5.22233300e+00  1.38267556e-06  8.34058639e+00  1.38267556e-06  3.13887745e+00  1.38267556e-06  1.05092759e+01  1.38267556e-06  6.08471526e-03 
 1.38684039e-06  1.05000000e+01  1.38684039e-06  5.25170524e+00  1.38684039e-06  8.34615089e+00  1.38684039e-06  3.15882730e+00  1.38684039e-06  1.04909361e+01  1.38684039e-06  6.11441177e-03 
 1.39331793e-06  1.05000000e+01  1.39331793e-06  5.29685451e+00  1.39331793e-06  8.35479530e+00  1.39331793e-06  3.19688246e+00  1.39331793e-06  1.05089057e+01  1.39331793e-06  6.16124676e-03 
 1.40080832e-06  1.05000000e+01  1.40080832e-06  5.34819616e+00  1.40080832e-06  8.36689759e+00  1.40080832e-06  3.23174482e+00  1.40080832e-06  1.04912011e+01  1.40080832e-06  6.21400446e-03 
 1.40801669e-06  1.05000000e+01  1.40801669e-06  5.39666575e+00  1.40801669e-06  8.37902118e+00  1.40801669e-06  3.27134708e+00  1.40801669e-06  1.05086600e+01  1.40801669e-06  6.26522319e-03 
 1.42058789e-06  1.05000000e+01  1.42058789e-06  5.47883297e+00  1.42058789e-06  8.40326780e+00  1.42058789e-06  3.32675445e+00  1.42058789e-06  1.04913962e+01  1.42058789e-06  6.35204678e-03 
 1.43546989e-06  1.05000000e+01  1.43546989e-06  5.57202457e+00  1.43546989e-06  8.43388253e+00  1.43546989e-06  3.39472381e+00  1.43546989e-06  1.05085307e+01  1.43546989e-06  6.45377311e-03 
 1.45782590e-06  1.05000000e+01  1.45782590e-06  5.70342123e+00  1.45782590e-06  8.48334548e+00  1.45782590e-06  3.47587851e+00  1.45782590e-06  1.04914944e+01  1.45782590e-06  6.60096920e-03 
 1.49513334e-06  1.05000000e+01  1.49513334e-06  5.90010499e+00  1.49513334e-06  8.56564278e+00  1.49513334e-06  3.59935776e+00  1.49513334e-06  1.05084685e+01  1.49513334e-06  6.83737306e-03 
 1.54877065e-06  1.05000000e+01  1.54877065e-06  6.13697157e+00  1.54877065e-06  8.68048344e+00  1.54877065e-06  3.74771469e+00  1.54877065e-06  1.04915339e+01  1.54877065e-06  7.15779259e-03 
 1.62644763e-06  1.05000000e+01  1.62644763e-06  6.39627025e+00  1.62644763e-06  8.83610818e+00  1.62644763e-06  3.93726040e+00  1.62644763e-06  1.05084412e+01  1.62644763e-06  7.59014187e-03 
 1.72644763e-06  1.05000000e+01  1.72644763e-06  6.61253911e+00  1.72644763e-06  9.01197791e+00  1.72644763e-06  4.10323552e+00  1.72644763e-06  1.04915537e+01  1.72644763e-06  8.09637144e-03 
 1.82644763e-06  1.05000000e+01  1.82644763e-06  6.73315018e+00  1.82644763e-06  9.14576118e+00  1.82644763e-06  4.20708705e+00  1.82644763e-06  1.05084240e+01  1.82644763e-06  8.56167652e-03 
 1.92644763e-06  1.05000000e+01  1.92644763e-06  6.79470161e+00  1.92644763e-06  9.23617040e+00  1.92644763e-06  4.25950877e+00  1.92644763e-06  1.04915709e+01  1.92644763e-06  8.99969029e-03 
 2.02644763e-06  1.05000000e+01  2.02644763e-06  6.82338537e+00  2.02644763e-06  9.29052701e+00  2.02644763e-06  4.29298264e+00  2.02644763e-06  1.05084068e+01  2.02644763e-06  9.42390804e-03 
 2.12644763e-06  1.05000000e+01  2.12644763e-06  6.83492354e+00  2.12644763e-06  9.32211804e+00  2.12644763e-06  4.30676296e+00  2.12644763e-06  1.04915882e+01  2.12644763e-06  9.83941709e-03 
 2.22644763e-06  1.05000000e+01  2.22644763e-06  6.83766013e+00  2.22644763e-06  9.33943771e+00  2.22644763e-06  4.32003567e+00  2.22644763e-06  1.05083896e+01  2.22644763e-06  1.02518925e-02 
 2.32644763e-06  1.05000000e+01  2.32644763e-06  6.83575133e+00  2.32644763e-06  9.35024947e+00  2.32644763e-06  4.32342641e+00  2.32644763e-06  1.04916054e+01  2.32644763e-06  1.06612869e-02 
 2.42644763e-06  1.05000000e+01  2.42644763e-06  6.83120995e+00  2.42644763e-06  9.35664564e+00  2.42644763e-06  4.33094255e+00  2.42644763e-06  1.05083725e+01  2.42644763e-06  1.10704150e-02 
 2.52644763e-06  1.05000000e+01  2.52644763e-06  6.82505387e+00  2.52644763e-06  9.36169541e+00  2.52644763e-06  4.33092402e+00  2.52644763e-06  1.04916225e+01  2.52644763e-06  1.14778278e-02 
 2.62644763e-06  1.05000000e+01  2.62644763e-06  6.81784692e+00  2.62644763e-06  9.36477507e+00  2.62644763e-06  4.33607585e+00  2.62644763e-06  1.05083554e+01  2.62644763e-06  1.18856712e-02 
 2.72644763e-06  1.05000000e+01  2.72644763e-06  6.80995673e+00  2.72644763e-06  9.36761173e+00  2.72644763e-06  4.33441889e+00  2.72644763e-06  1.04916396e+01  2.72644763e-06  1.22922183e-02 
 2.82644763e-06  1.05000000e+01  2.82644763e-06  6.80164888e+00  2.82644763e-06  9.36902899e+00  2.82644763e-06  4.33829406e+00  2.82644763e-06  1.05083383e+01  2.82644763e-06  1.26994686e-02 
 2.92644763e-06  1.05000000e+01  2.92644763e-06  6.79313023e+00  2.92644763e-06  9.37054044e+00  2.92644763e-06  4.33576353e+00  2.92644763e-06  1.04916567e+01  2.92644763e-06  1.31056375e-02 
 3.02644763e-06  1.05000000e+01  3.02644763e-06  6.78455779e+00  3.02644763e-06  9.37091701e+00  3.02644763e-06  4.33896596e+00  3.02644763e-06  1.05083213e+01  3.02644763e-06  1.35126657e-02 
 3.12644763e-06  1.05000000e+01  3.12644763e-06  6.77604916e+00  3.12644763e-06  9.37163073e+00  3.12644763e-06  4.33603027e+00  3.12644763e-06  1.04916737e+01  3.12644763e-06  1.39187404e-02 
 3.22644763e-06  1.05000000e+01  3.22644763e-06  6.76768557e+00  3.22644763e-06  9.37143584e+00  3.22644763e-06  4.33893032e+00  3.22644763e-06  1.05083044e+01  3.22644763e-06  1.43257599e-02 
 3.32644763e-06  1.05000000e+01  3.32644763e-06  6.75952062e+00  3.32644763e-06  9.37175515e+00  3.32644763e-06  4.33585612e+00  3.32644763e-06  1.04916907e+01  3.32644763e-06  1.47318918e-02 
 3.42644763e-06  1.05000000e+01  3.42644763e-06  6.75158499e+00  3.42644763e-06  9.37131544e+00  3.42644763e-06  4.33864844e+00  3.42644763e-06  1.05082874e+01  3.42644763e-06  1.51390045e-02 
 3.52644763e-06  1.05000000e+01  3.52644763e-06  6.74389402e+00  3.52644763e-06  9.37148907e+00  3.52644763e-06  4.33555993e+00  3.52644763e-06  1.04917077e+01  3.52644763e-06  1.55452558e-02 
