 time            v(bvdd)         time            v(pvdd)         time            v(gate)         time            v(ea_en)       
 1.00000000e-09  1.00000000e-03  1.00000000e-09  1.70948917e-03  1.00000000e-09  6.99015049e-04  1.00000000e-09  1.47994144e-02 
 1.02794906e-09  1.02794906e-03  1.02794906e-09  1.72984587e-03  1.02794906e-09  7.15870814e-04  1.02794906e-09  1.52040017e-02 
 1.08384718e-09  1.08384718e-03  1.08384718e-09  1.74747827e-03  1.08384718e-09  7.48165958e-04  1.08384718e-09  1.60039441e-02 
 1.19564341e-09  1.19564341e-03  1.19564341e-09  1.74448767e-03  1.19564341e-09  8.09289259e-04  1.19564341e-09  1.75890524e-02 
 1.41923588e-09  1.41923588e-03  1.41923588e-09  1.74592130e-03  1.41923588e-09  9.37505805e-04  1.41923588e-09  2.07717142e-02 
 1.72917414e-09  1.72917414e-03  1.72917414e-09  1.74471819e-03  1.72917414e-09  1.12401978e-03  1.72917414e-09  2.52001172e-02 
 2.34905066e-09  2.34905066e-03  2.34905066e-09  1.74542386e-03  2.34905066e-09  1.51078075e-03  2.34905066e-09  3.41109355e-02 
 3.58880371e-09  3.58880371e-03  3.58880371e-09  1.74436517e-03  3.58880371e-09  2.31433381e-03  3.58880371e-09  5.20807819e-02 
 6.06830979e-09  6.06830979e-03  6.06830979e-09  1.74490287e-03  6.06830979e-09  3.78089729e-03  6.06830979e-09  8.83105302e-02 
 1.10273220e-08  1.10273220e-02  1.10273220e-08  1.74526806e-03  1.10273220e-08  6.01063508e-03  1.10273220e-08  1.60342200e-01 
 1.95182379e-08  1.95182379e-02  1.95182379e-08  1.75111211e-03  1.95182379e-08  8.37583202e-03  1.95182379e-08  2.77089828e-01 
 3.02174169e-08  3.02174169e-02  3.02174169e-08  1.76019165e-03  3.02174169e-08  9.96042973e-03  3.02174169e-08  4.07469240e-01 
 4.87849153e-08  4.87849153e-02  4.87849153e-08  1.77910294e-03  4.87849153e-08  1.14562143e-02  4.87849153e-08  5.75717117e-01 
 6.74716215e-08  6.74716215e-02  6.74716215e-08  1.79172131e-03  6.74716215e-08  1.24299512e-02  6.74716215e-08  6.20415833e-01 
 8.54202338e-08  8.54202338e-02  8.54202338e-08  1.80264967e-03  8.54202338e-08  1.33695639e-02  8.54202338e-08  6.08717427e-01 
 1.00000000e-07  1.00000000e-01  1.00000000e-07  1.81107539e-03  1.00000000e-07  1.41905129e-02  1.00000000e-07  6.11812418e-01 
 1.02490022e-07  1.02490022e-01  1.02490022e-07  1.81294626e-03  1.02490022e-07  1.43281786e-02  1.02490022e-07  6.11241799e-01 
 1.07470065e-07  1.07470065e-01  1.07470065e-07  1.81603435e-03  1.07470065e-07  1.46068355e-02  1.07470065e-07  6.10459230e-01 
 1.17430152e-07  1.17430152e-01  1.17430152e-07  1.82231062e-03  1.17430152e-07  1.51696779e-02  1.17430152e-07  6.09866608e-01 
 1.37350326e-07  1.37350326e-01  1.37350326e-07  1.83519132e-03  1.37350326e-07  1.63116385e-02  1.37350326e-07  6.09229143e-01 
 1.77190673e-07  1.77190673e-01  1.77190673e-07  1.86219774e-03  1.77190673e-07  1.86745500e-02  1.77190673e-07  6.08445592e-01 
 2.56871369e-07  2.56871369e-01  2.56871369e-07  1.92281276e-03  2.56871369e-07  2.38547581e-02  2.56871369e-07  6.07941815e-01 
 3.56871369e-07  3.56871369e-01  3.56871369e-07  2.01868325e-03  3.56871369e-07  3.17752594e-02  3.56871369e-07  6.08017036e-01 
 4.56871369e-07  4.56871369e-01  4.56871369e-07  2.15307883e-03  4.56871369e-07  4.23220224e-02  4.56871369e-07  6.08392665e-01 
 5.56871369e-07  5.56871369e-01  5.56871369e-07  2.36066721e-03  5.56871369e-07  5.80437985e-02  5.56871369e-07  6.08887371e-01 
 6.56871369e-07  6.56871369e-01  6.56871369e-07  2.71860771e-03  6.56871369e-07  8.46593284e-02  6.56871369e-07  6.09677876e-01 
 7.56871369e-07  7.56871369e-01  7.56871369e-07  3.34515369e-03  7.56871369e-07  1.26979263e-01  7.56871369e-07  6.10845877e-01 
 8.56871369e-07  8.56871369e-01  8.56871369e-07  4.32958167e-03  8.56871369e-07  1.82507322e-01  8.56871369e-07  6.13926054e-01 
 9.56871369e-07  9.56871369e-01  9.56871369e-07  5.68948024e-03  9.56871369e-07  2.45791309e-01  9.56871369e-07  6.28850365e-01 
 1.05687137e-06  1.05687137e+00  1.05687137e-06  7.42693045e-03  1.05687137e-06  3.13614098e-01  1.05687137e-06  7.13326511e-01 
 1.15687137e-06  1.15687137e+00  1.15687137e-06  9.59681429e-03  1.15687137e-06  3.84384722e-01  1.15687137e-06  1.06713869e+00 
 1.22749330e-06  1.22749330e+00  1.22749330e-06  1.14411764e-02  1.22749330e-06  4.35431211e-01  1.22749330e-06  1.24562268e+00 
 1.30361760e-06  1.30361760e+00  1.30361760e-06  1.38267851e-02  1.30361760e-06  4.91286173e-01  1.30361760e-06  1.28606726e+00 
 1.40361760e-06  1.40361760e+00  1.40361760e-06  1.79262581e-02  1.40361760e-06  5.65089574e-01  1.40361760e-06  1.41099241e+00 
 1.50361760e-06  1.50361760e+00  1.50361760e-06  2.39277973e-02  1.50361760e-06  6.36552556e-01  1.50361760e-06  1.49500810e+00 
 1.60361760e-06  1.60361760e+00  1.60361760e-06  3.43212966e-02  1.60361760e-06  6.99909638e-01  1.60361760e-06  1.60770077e+00 
 1.70361760e-06  1.70361760e+00  1.70361760e-06  5.51482998e-02  1.70361760e-06  7.56812609e-01  1.70361760e-06  1.69807809e+00 
 1.80361760e-06  1.80361760e+00  1.80361760e-06  9.50848554e-02  1.80361760e-06  8.17985296e-01  1.80361760e-06  1.80653281e+00 
 1.90361760e-06  1.90361760e+00  1.90361760e-06  1.59263125e-01  1.90361760e-06  8.89322878e-01  1.90361760e-06  1.89973291e+00 
 2.00361760e-06  2.00361760e+00  2.00361760e-06  2.45709372e-01  2.00361760e-06  9.69370554e-01  2.00361760e-06  2.00593530e+00 
 2.10361760e-06  2.10361760e+00  2.10361760e-06  3.51221462e-01  2.10361760e-06  1.05169801e+00  2.10361760e-06  2.10068558e+00 
 2.20361760e-06  2.20361760e+00  2.20361760e-06  4.81596894e-01  2.20361760e-06  1.12751959e+00  2.20361760e-06  2.20560017e+00 
 2.30361760e-06  2.30361760e+00  2.30361760e-06  6.52641339e-01  2.30361760e-06  1.19626596e+00  2.30361760e-06  2.30146828e+00 
 2.40361760e-06  2.40361760e+00  2.40361760e-06  8.76397948e-01  2.40361760e-06  1.26533215e+00  2.40361760e-06  2.40556743e+00 
 2.50361760e-06  2.50361760e+00  2.50361760e-06  1.15547294e+00  2.50361760e-06  1.33546985e+00  2.50361760e-06  2.50212029e+00 
 2.60361760e-06  2.60361760e+00  2.60361760e-06  1.48737057e+00  2.60361760e-06  1.40662428e+00  2.60361760e-06  2.60556695e+00 
 2.70361760e-06  2.70361760e+00  2.70361760e-06  1.86670168e+00  2.70361760e-06  1.47635765e+00  2.70361760e-06  2.70259185e+00 
 2.79083390e-06  2.79083390e+00  2.79083390e-06  2.22956574e+00  2.79083390e-06  1.53484945e+00  2.79083390e-06  2.79273508e+00 
 2.88192348e-06  2.88192348e+00  2.88192348e-06  2.60919707e+00  2.88192348e-06  1.60308737e+00  2.88192348e-06  2.88093165e+00 
 2.98192348e-06  2.98192348e+00  2.98192348e-06  2.90571354e+00  2.98192348e-06  1.67924988e+00  2.98192348e-06  2.98288709e+00 
 3.08192348e-06  3.08192348e+00  3.08192348e-06  3.04845914e+00  3.08192348e-06  1.75651538e+00  3.08192348e-06  3.08058121e+00 
 3.18192348e-06  3.18192348e+00  3.18192348e-06  3.14841178e+00  3.18192348e-06  1.83342968e+00  3.18192348e-06  3.18268239e+00 
 3.28192348e-06  3.28192348e+00  3.28192348e-06  3.25152923e+00  3.28192348e-06  1.91050497e+00  3.28192348e-06  3.28070404e+00 
 3.38192348e-06  3.38192348e+00  3.38192348e-06  3.35327810e+00  3.38192348e-06  1.98862543e+00  3.38192348e-06  3.38260395e+00 
 3.48192348e-06  3.48192348e+00  3.48192348e-06  3.45484447e+00  3.48192348e-06  2.06684960e+00  3.48192348e-06  3.48080034e+00 
 3.58192348e-06  3.58192348e+00  3.58192348e-06  3.55612899e+00  3.58192348e-06  2.14602861e+00  3.58192348e-06  3.58254106e+00 
 3.68192348e-06  3.68192348e+00  3.68192348e-06  3.65724765e+00  3.68192348e-06  2.22524341e+00  3.68192348e-06  3.68088118e+00 
 3.78192348e-06  3.78192348e+00  3.78192348e-06  3.75823195e+00  3.78192348e-06  2.30521875e+00  3.78192348e-06  3.78248817e+00 
 3.88192348e-06  3.88192348e+00  3.88192348e-06  3.85910765e+00  3.88192348e-06  2.38525312e+00  3.88192348e-06  3.88094992e+00 
 3.98192348e-06  3.98192348e+00  3.98192348e-06  3.95989605e+00  3.98192348e-06  2.46592536e+00  3.98192348e-06  3.98244281e+00 
 4.08192348e-06  4.08192348e+00  4.08192348e-06  4.06060385e+00  4.08192348e-06  2.54689461e+00  4.08192348e-06  4.08100889e+00 
 4.18192348e-06  4.18192348e+00  4.18192348e-06  4.16124102e+00  4.18192348e-06  2.62865922e+00  4.18192348e-06  4.18240321e+00 
 4.28192348e-06  4.28192348e+00  4.28192348e-06  4.26181436e+00  4.28192348e-06  2.71088089e+00  4.28192348e-06  4.28105965e+00 
 4.36261218e-06  4.36261218e+00  4.36261218e-06  4.34290456e+00  4.36261218e-06  2.77884410e+00  4.36261218e-06  4.36305655e+00 
 4.45036093e-06  4.45036093e+00  4.45036093e-06  4.43105627e+00  4.45036093e-06  2.85248617e+00  4.45036093e-06  4.44953933e+00 
 4.54490879e-06  4.54490879e+00  4.54490879e-06  4.52602966e+00  4.54490879e-06  2.93161271e+00  4.54490879e-06  4.54532011e+00 
 4.63198962e-06  4.63198962e+00  4.63198962e-06  4.61347223e+00  4.63198962e-06  3.00493607e+00  4.63198962e-06  4.63120471e+00 
 4.73198962e-06  4.73198962e+00  4.73198962e-06  4.71386428e+00  4.73198962e-06  3.08920575e+00  4.73198962e-06  4.73236883e+00 
 4.83198962e-06  4.83198962e+00  4.83198962e-06  4.81423180e+00  4.83198962e-06  3.17374841e+00  4.83198962e-06  4.83123446e+00 
 4.93198962e-06  4.93198962e+00  4.93198962e-06  4.91457766e+00  4.93198962e-06  3.25845889e+00  4.93198962e-06  4.93233614e+00 
 5.03198962e-06  5.03198962e+00  5.03198962e-06  5.01490426e+00  5.03198962e-06  3.34332939e+00  5.03198962e-06  5.03125496e+00 
 5.13198962e-06  5.13198962e+00  5.13198962e-06  5.11521317e+00  5.13198962e-06  3.42838721e+00  5.13198962e-06  5.13229783e+00 
 5.23198962e-06  5.23198962e+00  5.23198962e-06  5.21550633e+00  5.23198962e-06  3.51353690e+00  5.23198962e-06  5.23126547e+00 
 5.33198962e-06  5.33198962e+00  5.33198962e-06  5.31578490e+00  5.33198962e-06  3.59887454e+00  5.33198962e-06  5.33225630e+00 
 5.43198962e-06  5.43198962e+00  5.43198962e-06  5.41605037e+00  5.43198962e-06  3.68425583e+00  5.43198962e-06  5.43127408e+00 
 5.53198962e-06  5.53198962e+00  5.53198962e-06  5.51630363e+00  5.53198962e-06  3.76981851e+00  5.53198962e-06  5.53222673e+00 
 5.63198962e-06  5.63198962e+00  5.63198962e-06  5.61654578e+00  5.63198962e-06  3.85539607e+00  5.63198962e-06  5.63130535e+00 
 5.73198962e-06  5.73198962e+00  5.73198962e-06  5.71677732e+00  5.73198962e-06  3.94116328e+00  5.73198962e-06  5.73223123e+00 
 5.83198962e-06  5.83198962e+00  5.83198962e-06  5.81699894e+00  5.83198962e-06  4.02695161e+00  5.83198962e-06  5.83136400e+00 
 5.93198962e-06  5.93198962e+00  5.93198962e-06  5.91721092e+00  5.93198962e-06  4.11295747e+00  5.93198962e-06  5.93223902e+00 
 6.03198962e-06  6.03198962e+00  6.03198962e-06  6.01741392e+00  6.03198962e-06  4.19899859e+00  6.03198962e-06  6.03140085e+00 
 6.13198962e-06  6.13198962e+00  6.13198962e-06  6.11760834e+00  6.13198962e-06  4.28526098e+00  6.13198962e-06  6.13221422e+00 
 6.23198962e-06  6.23198962e+00  6.23198962e-06  6.21779483e+00  6.23198962e-06  4.37155758e+00  6.23198962e-06  6.23143826e+00 
 6.31249269e-06  6.31249269e+00  6.31249269e-06  6.29844255e+00  6.31249269e-06  4.44119647e+00  6.31249269e-06  6.31272308e+00 
 6.39045130e-06  6.39045130e+00  6.39045130e-06  6.37653687e+00  6.39045130e-06  4.50862339e+00  6.39045130e-06  6.38994093e+00 
 6.41658387e-06  6.41658387e+00  6.41658387e-06  6.40271401e+00  6.41658387e-06  4.53129294e+00  6.41658387e-06  6.41679204e+00 
 6.45155115e-06  6.45155115e+00  6.45155115e-06  6.43774020e+00  6.45155115e-06  4.56155429e+00  6.45155115e-06  6.45106616e+00 
 6.49449237e-06  6.49449237e+00  6.49449237e-06  6.48075272e+00  6.49449237e-06  4.59880713e+00  6.49449237e-06  6.49468374e+00 
 6.54438262e-06  6.54438262e+00  6.54438262e-06  6.53072431e+00  6.54438262e-06  4.64204878e+00  6.54438262e-06  6.54391390e+00 
 6.64416312e-06  6.64416312e+00  6.64416312e-06  6.63066305e+00  6.64416312e-06  4.72869746e+00  6.64416312e-06  6.64434381e+00 
 6.74416312e-06  6.74416312e+00  6.74416312e-06  6.73081583e+00  6.74416312e-06  4.81558389e+00  6.74416312e-06  6.74370685e+00 
 6.84416312e-06  6.84416312e+00  6.84416312e-06  6.83096330e+00  6.84416312e-06  4.90262123e+00  6.84416312e-06  6.84433541e+00 
 6.94416312e-06  6.94416312e+00  6.94416312e-06  6.93110561e+00  6.94416312e-06  4.98969885e+00  6.94416312e-06  6.94371837e+00 
 7.04416312e-06  7.04416312e+00  7.04416312e-06  7.03124322e+00  7.04416312e-06  5.07691461e+00  7.04416312e-06  7.04432778e+00 
 7.14416312e-06  7.14416312e+00  7.14416312e-06  7.13137627e+00  7.14416312e-06  5.16416265e+00  7.14416312e-06  7.14372910e+00 
 7.24416312e-06  7.24416312e+00  7.24416312e-06  7.23150515e+00  7.24416312e-06  5.25153580e+00  7.24416312e-06  7.24432060e+00 
 7.34416312e-06  7.34416312e+00  7.34416312e-06  7.33162997e+00  7.34416312e-06  5.33893229e+00  7.34416312e-06  7.34373914e+00 
 7.44416312e-06  7.44416312e+00  7.44416312e-06  7.43175109e+00  7.44416312e-06  5.42644047e+00  7.44416312e-06  7.44431383e+00 
 7.54416312e-06  7.54416312e+00  7.54416312e-06  7.53186861e+00  7.54416312e-06  5.51396225e+00  7.54416312e-06  7.54374854e+00 
 7.64416312e-06  7.64416312e+00  7.64416312e-06  7.63198284e+00  7.64416312e-06  5.60158185e+00  7.64416312e-06  7.64430742e+00 
 7.74416312e-06  7.74416312e+00  7.74416312e-06  7.73209386e+00  7.74416312e-06  5.68920459e+00  7.74416312e-06  7.74375738e+00 
 7.84416312e-06  7.84416312e+00  7.84416312e-06  7.83220196e+00  7.84416312e-06  5.77691090e+00  7.84416312e-06  7.84430135e+00 
 7.94416312e-06  7.94416312e+00  7.94416312e-06  7.93230719e+00  7.94416312e-06  5.86460934e+00  7.94416312e-06  7.94376569e+00 
 8.04416312e-06  8.04416312e+00  8.04416312e-06  8.03240982e+00  8.04416312e-06  5.95237679e+00  8.04416312e-06  8.04429557e+00 
 8.14416312e-06  8.14416312e+00  8.14416312e-06  8.13250990e+00  8.14416312e-06  6.04012497e+00  8.14416312e-06  8.14377353e+00 
 8.24416312e-06  8.24416312e+00  8.24416312e-06  8.23260766e+00  8.24416312e-06  6.12792741e+00  8.24416312e-06  8.24429008e+00 
 8.34416312e-06  8.34416312e+00  8.34416312e-06  8.33270314e+00  8.34416312e-06  6.21569903e+00  8.34416312e-06  8.34378094e+00 
 8.44416312e-06  8.44416312e+00  8.44416312e-06  8.43279656e+00  8.44416312e-06  6.30351016e+00  8.44416312e-06  8.44428483e+00 
 8.54416312e-06  8.54416312e+00  8.54416312e-06  8.53288792e+00  8.54416312e-06  6.39127897e+00  8.54416312e-06  8.54378794e+00 
 8.64416312e-06  8.64416312e+00  8.64416312e-06  8.63297745e+00  8.64416312e-06  6.47907274e+00  8.64416312e-06  8.64427981e+00 
 8.74416312e-06  8.74416312e+00  8.74416312e-06  8.73306513e+00  8.74416312e-06  6.56681291e+00  8.74416312e-06  8.74379458e+00 
 8.84416312e-06  8.84416312e+00  8.84416312e-06  8.83315117e+00  8.84416312e-06  6.65456391e+00  8.84416312e-06  8.84427500e+00 
 8.94416312e-06  8.94416312e+00  8.94416312e-06  8.93323554e+00  8.94416312e-06  6.74225050e+00  8.94416312e-06  8.94380089e+00 
 9.04416312e-06  9.04416312e+00  9.04416312e-06  9.03331843e+00  9.04416312e-06  6.82993434e+00  9.04416312e-06  9.04427039e+00 
 9.14416312e-06  9.14416312e+00  9.14416312e-06  9.13339981e+00  9.14416312e-06  6.91754360e+00  9.14416312e-06  9.14380688e+00 
 9.24416312e-06  9.24416312e+00  9.24416312e-06  9.23347985e+00  9.24416312e-06  7.00513728e+00  9.24416312e-06  9.24426595e+00 
 9.34416312e-06  9.34416312e+00  9.34416312e-06  9.33355852e+00  9.34416312e-06  7.09264693e+00  9.34416312e-06  9.34381258e+00 
 9.44416312e-06  9.44416312e+00  9.44416312e-06  9.43363596e+00  9.44416312e-06  7.18012904e+00  9.44416312e-06  9.44426168e+00 
 9.54416312e-06  9.54416312e+00  9.54416312e-06  9.53371214e+00  9.54416312e-06  7.26751848e+00  9.54416312e-06  9.54381801e+00 
 9.64416312e-06  9.64416312e+00  9.64416312e-06  9.63378720e+00  9.64416312e-06  7.35486933e+00  9.64416312e-06  9.64425756e+00 
 9.74416312e-06  9.74416312e+00  9.74416312e-06  9.73386109e+00  9.74416312e-06  7.44211974e+00  9.74416312e-06  9.74382319e+00 
 9.84416312e-06  9.84416312e+00  9.84416312e-06  9.83393394e+00  9.84416312e-06  7.52932144e+00  9.84416312e-06  9.84425357e+00 
 9.94416312e-06  9.94416312e+00  9.94416312e-06  9.93400569e+00  9.94416312e-06  7.61641573e+00  9.94416312e-06  9.94382814e+00 
 1.00441631e-05  1.00441631e+01  1.00441631e-05  1.00340765e+01  1.00441631e-05  7.70345208e+00  1.00441631e-05  1.00442497e+01 
 1.01441631e-05  1.01441631e+01  1.01441631e-05  1.01341462e+01  1.01441631e-05  7.79037480e+00  1.01441631e-05  1.01438329e+01 
 1.02441631e-05  1.02441631e+01  1.02441631e-05  1.02342151e+01  1.02441631e-05  7.87723115e+00  1.02441631e-05  1.02442460e+01 
 1.03441631e-05  1.03441631e+01  1.03441631e-05  1.03342829e+01  1.03441631e-05  7.96396828e+00  1.03441631e-05  1.03438374e+01 
 1.04441631e-05  1.04441631e+01  1.04441631e-05  1.04343499e+01  1.04441631e-05  8.05063127e+00  1.04441631e-05  1.04442424e+01 
 1.05000000e-05  1.05000000e+01  1.05000000e-05  1.04902238e+01  1.05000000e-05  8.09895933e+00  1.05000000e-05  1.04996796e+01 
 1.05100000e-05  1.05000000e+01  1.05100000e-05  1.04950865e+01  1.05100000e-05  8.09899736e+00  1.05100000e-05  1.05000172e+01 
 1.05300000e-05  1.05000000e+01  1.05300000e-05  1.04998089e+01  1.05300000e-05  8.09906239e+00  1.05300000e-05  1.05000057e+01 
 1.05700000e-05  1.05000000e+01  1.05700000e-05  1.04996601e+01  1.05700000e-05  8.09914688e+00  1.05700000e-05  1.04999938e+01 
 1.06500000e-05  1.05000000e+01  1.06500000e-05  1.04997674e+01  1.06500000e-05  8.09927663e+00  1.06500000e-05  1.05000054e+01 
 1.07500000e-05  1.05000000e+01  1.07500000e-05  1.04997212e+01  1.07500000e-05  8.09941118e+00  1.07500000e-05  1.04999931e+01 
 1.08500000e-05  1.05000000e+01  1.08500000e-05  1.04997758e+01  1.08500000e-05  8.09954259e+00  1.08500000e-05  1.05000052e+01 
 1.09500000e-05  1.05000000e+01  1.09500000e-05  1.04997503e+01  1.09500000e-05  8.09967886e+00  1.09500000e-05  1.04999930e+01 
 1.10500000e-05  1.05000000e+01  1.10500000e-05  1.04997743e+01  1.10500000e-05  8.09980370e+00  1.10500000e-05  1.05000051e+01 
 1.11500000e-05  1.05000000e+01  1.11500000e-05  1.04997616e+01  1.11500000e-05  8.09993452e+00  1.11500000e-05  1.04999930e+01 
 1.12500000e-05  1.05000000e+01  1.12500000e-05  1.04997724e+01  1.12500000e-05  8.10005111e+00  1.12500000e-05  1.05000050e+01 
 1.13500000e-05  1.05000000e+01  1.13500000e-05  1.04997663e+01  1.13500000e-05  8.10017415e+00  1.13500000e-05  1.04999930e+01 
 1.14500000e-05  1.05000000e+01  1.14500000e-05  1.04997712e+01  1.14500000e-05  8.10028322e+00  1.14500000e-05  1.05000049e+01 
 1.15500000e-05  1.05000000e+01  1.15500000e-05  1.04997682e+01  1.15500000e-05  8.10039797e+00  1.15500000e-05  1.04999931e+01 
 1.16500000e-05  1.05000000e+01  1.16500000e-05  1.04997705e+01  1.16500000e-05  8.10050063e+00  1.16500000e-05  1.05000048e+01 
 1.17500000e-05  1.05000000e+01  1.17500000e-05  1.04997690e+01  1.17500000e-05  8.10060727e+00  1.17500000e-05  1.04999932e+01 
 1.18500000e-05  1.05000000e+01  1.18500000e-05  1.04997700e+01  1.18500000e-05  8.10070438e+00  1.18500000e-05  1.05000047e+01 
 1.19500000e-05  1.05000000e+01  1.19500000e-05  1.04997692e+01  1.19500000e-05  8.10080351e+00  1.19500000e-05  1.04999932e+01 
 1.20500000e-05  1.05000000e+01  1.20500000e-05  1.04997696e+01  1.20500000e-05  8.10089562e+00  1.20500000e-05  1.05000046e+01 
 1.21500000e-05  1.05000000e+01  1.21500000e-05  1.04997691e+01  1.21500000e-05  8.10098805e+00  1.21500000e-05  1.04999933e+01 
 1.22500000e-05  1.05000000e+01  1.22500000e-05  1.04997692e+01  1.22500000e-05  8.10107546e+00  1.22500000e-05  1.05000045e+01 
 1.23500000e-05  1.05000000e+01  1.23500000e-05  1.04997689e+01  1.23500000e-05  8.10116208e+00  1.23500000e-05  1.04999934e+01 
 1.24500000e-05  1.05000000e+01  1.24500000e-05  1.04997689e+01  1.24500000e-05  8.10124501e+00  1.24500000e-05  1.05000044e+01 
 1.25500000e-05  1.05000000e+01  1.25500000e-05  1.04997686e+01  1.25500000e-05  8.10132659e+00  1.25500000e-05  1.04999935e+01 
 1.26500000e-05  1.05000000e+01  1.26500000e-05  1.04997685e+01  1.26500000e-05  8.10140529e+00  1.26500000e-05  1.05000043e+01 
 1.27500000e-05  1.05000000e+01  1.27500000e-05  1.04997683e+01  1.27500000e-05  8.10148248e+00  1.27500000e-05  1.04999935e+01 
