 time            v(bvdd)         time            v(pvdd)         time            v(gate)         time            v(ea_en)       
 5.00000000e-09  5.00000000e-04  5.00000000e-09  1.73571664e-03  5.00000000e-09  6.75824696e-04  5.00000000e-09  7.24886367e-02 
 5.13998464e-09  5.13998464e-04  5.13998464e-09  1.74197221e-03  5.13998464e-09  6.89511391e-04  5.13998464e-09  7.45345371e-02 
 5.41995391e-09  5.41995391e-04  5.41995391e-09  1.74346952e-03  5.41995391e-09  7.19850502e-04  5.41995391e-09  7.86226495e-02 
 5.97989246e-09  5.97989246e-04  5.97989246e-09  1.74176084e-03  5.97989246e-09  8.02866610e-04  5.97989246e-09  8.68010580e-02 
 7.09976957e-09  7.09976957e-04  7.09976957e-09  1.74218728e-03  7.09976957e-09  1.00863685e-03  7.09976957e-09  1.03156739e-01 
 9.33952377e-09  9.33952377e-04  9.33952377e-09  1.73964396e-03  9.33952377e-09  1.38499028e-03  9.33952377e-09  1.35724660e-01 
 1.38190322e-08  1.38190322e-03  1.38190322e-08  1.73824334e-03  1.38190322e-08  1.86718858e-03  1.38190322e-08  1.99554193e-01 
 2.27780490e-08  2.27780490e-03  2.27780490e-08  1.73320928e-03  2.27780490e-08  2.23580960e-03  2.27780490e-08  3.18239567e-01 
 3.77244002e-08  3.77244002e-03  3.77244002e-08  1.72872966e-03  3.77244002e-08  2.30195014e-03  3.77244002e-08  4.87761993e-01 
 5.44576073e-08  5.44576073e-03  5.44576073e-08  1.71803452e-03  5.44576073e-08  2.22503528e-03  5.44576073e-08  5.93925220e-01 
 7.19578633e-08  7.19578633e-03  7.19578633e-08  1.70364340e-03  7.19578633e-08  2.13323588e-03  7.19578633e-08  6.00738847e-01 
 8.91024193e-08  8.91024193e-03  8.91024193e-08  1.68652479e-03  8.91024193e-08  2.15634167e-03  8.91024193e-08  5.88272337e-01 
 1.10594283e-07  1.10594283e-02  1.10594283e-07  1.66817849e-03  1.10594283e-07  2.19949520e-03  1.10594283e-07  5.83847502e-01 
 1.44872065e-07  1.44872065e-02  1.44872065e-07  1.63643479e-03  1.44872065e-07  2.24070572e-03  1.44872065e-07  5.74236744e-01 
 1.98712198e-07  1.98712198e-02  1.98712198e-07  1.59011242e-03  1.98712198e-07  2.32387340e-03  1.98712198e-07  5.66148684e-01 
 3.02965686e-07  3.02965686e-02  3.02965686e-07  1.49852827e-03  3.02965686e-07  2.46387574e-03  3.02965686e-07  5.54685136e-01 
 4.71218951e-07  4.71218951e-02  4.71218951e-07  1.35477580e-03  4.71218951e-07  2.70018487e-03  4.71218951e-07  5.46381992e-01 
 5.00000000e-07  5.00000000e-02  5.00000000e-07  1.32901498e-03  5.00000000e-07  2.73511613e-03  5.00000000e-07  5.44935107e-01 
 5.23841350e-07  5.23841350e-02  5.23841350e-07  1.30906964e-03  5.23841350e-07  2.76920645e-03  5.23841350e-07  5.44405176e-01 
 5.71524049e-07  5.71524049e-02  5.71524049e-07  1.26814393e-03  5.71524049e-07  2.83376052e-03  5.71524049e-07  5.43181401e-01 
 6.66889447e-07  6.66889447e-02  6.66889447e-07  1.18629612e-03  6.66889447e-07  2.96196217e-03  6.66889447e-07  5.41139475e-01 
 8.57620244e-07  8.57620244e-02  8.57620244e-07  1.02262364e-03  8.57620244e-07  3.21530880e-03  8.57620244e-07  5.38548260e-01 
 1.23908184e-06  1.23908184e-01  1.23908184e-06  6.95208021e-04  1.23908184e-06  3.70950132e-03  1.23908184e-06  5.36066034e-01 
 1.73908184e-06  1.73908184e-01  1.73908184e-06  2.65830597e-04  1.73908184e-06  4.33495007e-03  1.73908184e-06  5.35267036e-01 
 2.23908184e-06  2.23908184e-01  2.23908184e-06 -1.63801869e-04  2.23908184e-06  4.93801779e-03  2.23908184e-06  5.35293050e-01 
 2.73908184e-06  2.73908184e-01  2.73908184e-06 -5.93611144e-04  2.73908184e-06  5.52249848e-03  2.73908184e-06  5.35616003e-01 
 3.23908184e-06  3.23908184e-01  3.23908184e-06 -1.02349928e-03  3.23908184e-06  6.09174321e-03  3.23908184e-06  5.35963193e-01 
 3.73908184e-06  3.73908184e-01  3.73908184e-06 -1.45328182e-03  3.73908184e-06  6.64971952e-03  3.73908184e-06  5.36385747e-01 
 4.23908184e-06  4.23908184e-01  4.23908184e-06 -1.88258477e-03  4.23908184e-06  7.20038854e-03  4.23908184e-06  5.36769787e-01 
 4.73908184e-06  4.73908184e-01  4.73908184e-06 -2.31037835e-03  4.73908184e-06  7.74926536e-03  4.73908184e-06  5.37204331e-01 
 5.23908184e-06  5.23908184e-01  5.23908184e-06 -2.73369698e-03  5.23908184e-06  8.30398966e-03  5.23908184e-06  5.37588936e-01 
 5.73908184e-06  5.73908184e-01  5.73908184e-06 -3.14363210e-03  5.73908184e-06  8.87949352e-03  5.73908184e-06  5.38035406e-01 
 6.23908184e-06  6.23908184e-01  6.23908184e-06 -3.51355393e-03  6.23908184e-06  9.50897763e-03  6.23908184e-06  5.38392205e-01 
 6.73908184e-06  6.73908184e-01  6.73908184e-06 -3.76489382e-03  6.73908184e-06  1.02790278e-02  6.73908184e-06  5.38678352e-01 
 7.23908184e-06  7.23908184e-01  7.23908184e-06 -3.67339390e-03  7.23908184e-06  1.14212760e-02  7.23908184e-06  5.38666812e-01 
 7.73908184e-06  7.73908184e-01  7.73908184e-06 -2.63662259e-03  7.73908184e-06  1.35407335e-02  7.73908184e-06  5.38162428e-01 
 8.23908184e-06  8.23908184e-01  8.23908184e-06  7.90751680e-04  8.23908184e-06  1.80583127e-02  8.23908184e-06  5.36490269e-01 
 8.73908184e-06  8.73908184e-01  8.73908184e-06  9.42506918e-03  8.73908184e-06  2.76778004e-02  8.73908184e-06  5.32320587e-01 
 9.23908184e-06  9.23908184e-01  9.23908184e-06  2.70411428e-02  9.23908184e-06  4.58762965e-02  9.23908184e-06  5.22154069e-01 
 9.73908184e-06  9.73908184e-01  9.73908184e-06  5.61002723e-02  9.73908184e-06  7.45332896e-02  9.73908184e-06  4.98544198e-01 
 1.02390818e-05  1.02390818e+00  1.02390818e-05  9.59093828e-02  1.02390818e-05  1.11787814e-01  1.02390818e-05  4.48225536e-01 
 1.07390818e-05  1.07390818e+00  1.07390818e-05  1.44366219e-01  1.07390818e-05  1.52980488e-01  1.07390818e-05  3.47692166e-01 
 1.12390818e-05  1.12390818e+00  1.12390818e-05  2.01112101e-01  1.12390818e-05  1.93982597e-01  1.12390818e-05  3.99442961e-02 
 1.16350429e-05  1.16350429e+00  1.16350429e-05  2.52841460e-01  1.16350429e-05  2.26034275e-01  1.16350429e-05 -1.84641636e-03 
 1.20482589e-05  1.20482589e+00  1.20482589e-05  3.13789274e-01  1.20482589e-05  2.60164812e-01  1.20482589e-05  2.09438143e-03 
 1.25482589e-05  1.25482589e+00  1.25482589e-05  3.96365613e-01  1.25482589e-05  3.02891062e-01  1.25482589e-05 -1.11930540e-03 
 1.30482589e-05  1.30482589e+00  1.30482589e-05  4.87547940e-01  1.30482589e-05  3.46511111e-01  1.30482589e-05  1.03407409e-03 
 1.35482589e-05  1.35482589e+00  1.35482589e-05  5.86533700e-01  1.35482589e-05  3.90625756e-01  1.35482589e-05 -6.32540002e-04 
 1.40482589e-05  1.40482589e+00  1.40482589e-05  6.92906490e-01  1.40482589e-05  4.34863110e-01  1.40482589e-05  6.71308149e-04 
 1.45482589e-05  1.45482589e+00  1.45482589e-05  8.06376044e-01  1.45482589e-05  4.79248627e-01  1.45482589e-05 -4.22712106e-04 
 1.50482589e-05  1.50482589e+00  1.50482589e-05  9.25755462e-01  1.50482589e-05  5.24491908e-01  1.50482589e-05  5.09013414e-04 
 1.55482589e-05  1.55482589e+00  1.55482589e-05  1.04077092e+00  1.55482589e-05  5.79044572e-01  1.55482589e-05 -3.08340595e-04 
 1.60482589e-05  1.60482589e+00  1.60482589e-05  1.12430608e+00  1.60482589e-05  6.60720709e-01  1.60482589e-05  3.85954528e-04 
 1.65482589e-05  1.65482589e+00  1.65482589e-05  1.16590918e+00  1.65482589e-05  7.52009203e-01  1.65482589e-05 -2.84916087e-04 
 1.70482589e-05  1.70482589e+00  1.70482589e-05  1.18605510e+00  1.70482589e-05  8.16183698e-01  1.70482589e-05  2.96241076e-04 
 1.75482589e-05  1.75482589e+00  1.75482589e-05  1.20440639e+00  1.75482589e-05  8.53493469e-01  1.75482589e-05 -2.43815147e-04 
 1.80482589e-05  1.80482589e+00  1.80482589e-05  1.23120793e+00  1.80482589e-05  8.82927013e-01  1.80482589e-05  2.59812718e-04 
 1.85482589e-05  1.85482589e+00  1.85482589e-05  1.27042332e+00  1.85482589e-05  9.15879415e-01  1.85482589e-05 -1.99338555e-04 
 1.90482589e-05  1.90482589e+00  1.90482589e-05  1.32182217e+00  1.90482589e-05  9.51722820e-01  1.90482589e-05  2.38272661e-04 
 1.95482589e-05  1.95482589e+00  1.95482589e-05  1.38372846e+00  1.95482589e-05  9.89890708e-01  1.95482589e-05 -1.65851244e-04 
 2.00482589e-05  2.00482589e+00  2.00482589e-05  1.45425730e+00  2.00482589e-05  1.02909739e+00  2.00482589e-05  2.20202480e-04 
 2.05482589e-05  2.05482589e+00  2.05482589e-05  1.53136005e+00  2.05482589e-05  1.06952445e+00  2.05482589e-05 -1.42524238e-04 
 2.10482589e-05  2.10482589e+00  2.10482589e-05  1.61298404e+00  2.10482589e-05  1.11048275e+00  2.10482589e-05  2.02910121e-04 
 2.15482589e-05  2.15482589e+00  2.15482589e-05  1.69725770e+00  2.15482589e-05  1.15215824e+00  2.15482589e-05 -1.26273443e-04 
 2.20482589e-05  2.20482589e+00  2.20482589e-05  1.78288305e+00  2.20482589e-05  1.19383690e+00  2.20482589e-05  1.86788978e-04 
 2.25482589e-05  2.25482589e+00  2.25482589e-05  1.86911573e+00  2.25482589e-05  1.23577709e+00  2.25482589e-05 -1.14676739e-04 
 2.30482589e-05  2.30482589e+00  2.30482589e-05  1.95561393e+00  2.30482589e-05  1.27748471e+00  2.30482589e-05  1.72613172e-04 
 2.35482589e-05  2.35482589e+00  2.35482589e-05  2.04219080e+00  2.35482589e-05  1.31932275e+00  2.35482589e-05 -1.05555869e-04 
 2.40482589e-05  2.40482589e+00  2.40482589e-05  2.12872127e+00  2.40482589e-05  1.36087870e+00  2.40482589e-05  1.60489380e-04 
 2.45482589e-05  2.45482589e+00  2.45482589e-05  2.21504601e+00  2.45482589e-05  1.40247374e+00  2.45482589e-05 -9.81401812e-05 
 2.50482589e-05  2.50482589e+00  2.50482589e-05  2.30093927e+00  2.50482589e-05  1.44365769e+00  2.50482589e-05  1.49976590e-04 
 2.55482589e-05  2.55482589e+00  2.55482589e-05  2.38590713e+00  2.55482589e-05  1.48455305e+00  2.55482589e-05 -9.23110762e-05 
 2.60482589e-05  2.60482589e+00  2.60482589e-05  2.46860098e+00  2.60482589e-05  1.52417415e+00  2.60482589e-05  1.39961157e-04 
 2.65482589e-05  2.65482589e+00  2.65482589e-05  2.54611079e+00  2.65482589e-05  1.56143996e+00  2.65482589e-05 -8.97368795e-05 
 2.70482589e-05  2.70482589e+00  2.70482589e-05  2.61606140e+00  2.70482589e-05  1.59491077e+00  2.70482589e-05  1.28510443e-04 
 2.75482589e-05  2.75482589e+00  2.75482589e-05  2.67961284e+00  2.75482589e-05  1.62549385e+00  2.75482589e-05 -8.83994628e-05 
 2.80482589e-05  2.80482589e+00  2.80482589e-05  2.73915896e+00  2.80482589e-05  1.65401955e+00  2.80482589e-05  1.20335552e-04 
 2.85482589e-05  2.85482589e+00  2.85482589e-05  2.79616992e+00  2.85482589e-05  1.68147113e+00  2.85482589e-05 -8.55690622e-05 
 2.90482589e-05  2.90482589e+00  2.90482589e-05  2.85146833e+00  2.90482589e-05  1.70795668e+00  2.90482589e-05  1.14328968e-04 
 2.95482589e-05  2.95482589e+00  2.95482589e-05  2.90556767e+00  2.95482589e-05  1.73401032e+00  2.95482589e-05 -8.25884742e-05 
 3.00482589e-05  3.00482589e+00  3.00482589e-05  2.95879553e+00  3.00482589e-05  1.75951444e+00  3.00482589e-05  1.09511511e-04 
 3.05482589e-05  3.05482589e+00  3.05482589e-05  3.01138269e+00  3.05482589e-05  1.78485502e+00  3.05482589e-05 -7.98513342e-05 
 3.10482589e-05  3.10482589e+00  3.10482589e-05  3.06347976e+00  3.10482589e-05  1.80983797e+00  3.10482589e-05  1.05562194e-04 
 3.15482589e-05  3.15482589e+00  3.15482589e-05  3.11520479e+00  3.15482589e-05  1.83478559e+00  3.15482589e-05 -7.75034181e-05 
 3.20482589e-05  3.20482589e+00  3.20482589e-05  3.16663322e+00  3.20482589e-05  1.85947522e+00  3.20482589e-05  1.02356391e-04 
 3.25482589e-05  3.25482589e+00  3.25482589e-05  3.21783117e+00  3.25482589e-05  1.88419663e+00  3.25482589e-05 -7.56243727e-05 
 3.30482589e-05  3.30482589e+00  3.30482589e-05  3.26883872e+00  3.30482589e-05  1.90871638e+00  3.30482589e-05  9.98696995e-05 
 3.35482589e-05  3.35482589e+00  3.35482589e-05  3.31969556e+00  3.35482589e-05  1.93330575e+00  3.35482589e-05 -7.42816459e-05 
 3.40482589e-05  3.40482589e+00  3.40482589e-05  3.37042398e+00  3.40482589e-05  1.95772741e+00  3.40482589e-05  9.81933977e-05 
 3.45482589e-05  3.45482589e+00  3.45482589e-05  3.42104922e+00  3.45482589e-05  1.98224174e+00  3.45482589e-05 -7.34389424e-05 
 3.50482589e-05  3.50482589e+00  3.50482589e-05  3.47158415e+00  3.50482589e-05  2.00660965e+00  3.50482589e-05  9.80678921e-05 
 3.55482589e-05  3.55482589e+00  3.55482589e-05  3.52204553e+00  3.55482589e-05  2.03108568e+00  3.55482589e-05 -7.16710589e-05 
 3.60482589e-05  3.60482589e+00  3.60482589e-05  3.57244153e+00  3.60482589e-05  2.05542485e+00  3.60482589e-05  1.15900568e-04 
 3.65482589e-05  3.65482589e+00  3.65482589e-05  3.62278472e+00  3.65482589e-05  2.07986562e+00  3.65482589e-05  2.36295995e-05 
 3.70482589e-05  3.70482589e+00  3.70482589e-05  3.67309055e+00  3.70482589e-05  2.10402543e+00  3.70482589e-05  8.04587938e-04 
 3.75482589e-05  3.75482589e+00  3.75482589e-05  3.72342506e+00  3.75482589e-05  2.12735934e+00  3.75482589e-05  4.43529412e-03 
 3.80482589e-05  3.80482589e+00  3.80482589e-05  3.77392393e+00  3.80482589e-05  2.14767694e+00  3.80482589e-05  1.79636609e-02 
 3.85482589e-05  3.85482589e+00  3.85482589e-05  3.82469986e+00  3.85482589e-05  2.16333915e+00  3.85482589e-05  4.63908296e-02 
 3.90482589e-05  3.90482589e+00  3.90482589e-05  3.87591191e+00  3.90482589e-05  2.17068144e+00  3.90482589e-05  9.97296498e-02 
 3.95482589e-05  3.95482589e+00  3.95482589e-05  3.92801324e+00  3.95482589e-05  2.16011346e+00  3.95482589e-05  2.02276647e-01 
 4.00482589e-05  4.00482589e+00  4.00482589e-05  3.98290551e+00  4.00482589e-05  2.08193392e+00  4.00482589e-05  4.67693979e-01 
 4.05482589e-05  4.05482589e+00  4.05482589e-05  4.05297286e+00  4.05482589e-05  9.78115563e-01  4.05482589e-05  3.41924851e+00 
 4.08892541e-05  4.08892541e+00  4.08892541e-05  4.08848877e+00  4.08892541e-05  8.00015897e-01  4.08892541e-05  3.81646034e+00 
 4.11972601e-05  4.11972601e+00  4.11972601e-05  4.11859839e+00  4.11972601e-05  7.93102644e-01  4.11972601e-05  3.98795548e+00 
 4.15701066e-05  4.15701066e+00  4.15701066e-05  4.15658575e+00  4.15701066e-05  7.56237603e-01  4.15701066e-05  4.14154811e+00 
 4.20504624e-05  4.20504624e+00  4.20504624e-05  4.20401271e+00  4.20504624e-05  8.01084748e-01  4.20504624e-05  4.19960707e+00 
 4.25504624e-05  4.25504624e+00  4.25504624e-05  4.25460333e+00  4.25504624e-05  7.91138376e-01  4.25504624e-05  4.25978475e+00 
 4.29617721e-05  4.29617721e+00  4.29617721e-05  4.29518305e+00  4.29617721e-05  8.09892242e-01  4.29617721e-05  4.29153827e+00 
 4.33602367e-05  4.33602367e+00  4.33602367e-05  4.33555420e+00  4.33602367e-05  7.92628596e-01  4.33602367e-05  4.34057912e+00 
 4.36396251e-05  4.36396251e+00  4.36396251e-05  4.36302163e+00  4.36396251e-05  8.09851588e-01  4.36396251e-05  4.35941262e+00 
 4.39010617e-05  4.39010617e+00  4.39010617e-05  4.38960005e+00  4.39010617e-05  7.94192168e-01  4.39010617e-05  4.39457509e+00 
 4.42417611e-05  4.42417611e+00  4.42417611e-05  4.42328247e+00  4.42417611e-05  8.10088327e-01  4.42417611e-05  4.41970968e+00 
 4.45959204e-05  4.45959204e+00  4.45959204e-05  4.45906603e+00  4.45959204e-05  7.95908823e-01  4.45959204e-05  4.46397552e+00 
 4.50670548e-05  4.50670548e+00  4.50670548e-05  4.50584826e+00  4.50670548e-05  8.10521502e-01  4.50670548e-05  4.50232776e+00 
 4.55670548e-05  4.55670548e+00  4.55670548e-05  4.55617295e+00  4.55670548e-05  7.97658735e-01  4.55670548e-05  4.56099601e+00 
 4.60670548e-05  4.60670548e+00  4.60670548e-05  4.60587971e+00  4.60670548e-05  8.11245086e-01  4.60670548e-05  4.60241944e+00 
 4.65670548e-05  4.65670548e+00  4.65670548e-05  4.65616893e+00  4.65670548e-05  7.99453048e-01  4.65670548e-05  4.66090790e+00 
 4.70670548e-05  4.70670548e+00  4.70670548e-05  4.70590783e+00  4.70670548e-05  8.12273289e-01  4.70670548e-05  4.70250532e+00 
 4.75670548e-05  4.75670548e+00  4.75670548e-05  4.75616615e+00  4.75670548e-05  8.01434307e-01  4.75670548e-05  4.76082530e+00 
 4.80670548e-05  4.80670548e+00  4.80670548e-05  4.80593305e+00  4.80670548e-05  8.13570824e-01  4.80670548e-05  4.80258609e+00 
 4.85670548e-05  4.85670548e+00  4.85670548e-05  4.85616440e+00  4.85670548e-05  8.03625863e-01  4.85670548e-05  4.86074753e+00 
 4.90670548e-05  4.90670548e+00  4.90670548e-05  4.90595575e+00  4.90670548e-05  8.15170069e-01  4.90670548e-05  4.90266227e+00 
 4.95670548e-05  4.95670548e+00  4.95670548e-05  4.95616347e+00  4.95670548e-05  8.06066262e-01  4.95670548e-05  4.96067409e+00 
 5.00670548e-05  5.00670548e+00  5.00670548e-05  5.00597626e+00  5.00670548e-05  8.17120371e-01  5.00670548e-05  5.00273431e+00 
 5.05670548e-05  5.05670548e+00  5.05670548e-05  5.05616323e+00  5.05670548e-05  8.08901010e-01  5.05670548e-05  5.06060457e+00 
 5.10670548e-05  5.10670548e+00  5.10670548e-05  5.10599491e+00  5.10670548e-05  8.19826171e-01  5.10670548e-05  5.10280259e+00 
 5.15670548e-05  5.15670548e+00  5.15670548e-05  5.15616361e+00  5.15670548e-05  8.12983388e-01  5.15670548e-05  5.16053864e+00 
 5.20670548e-05  5.20670548e+00  5.20670548e-05  5.20601186e+00  5.20670548e-05  8.24356693e-01  5.20670548e-05  5.20286740e+00 
 5.25670548e-05  5.25670548e+00  5.25670548e-05  5.25616418e+00  5.25670548e-05  8.18610561e-01  5.25670548e-05  5.26047598e+00 
 5.30670548e-05  5.30670548e+00  5.30670548e-05  5.30602701e+00  5.30670548e-05  8.29610379e-01  5.30670548e-05  5.30292900e+00 
 5.35670548e-05  5.35670548e+00  5.35670548e-05  5.35616497e+00  5.35670548e-05  8.24346443e-01  5.35670548e-05  5.36041636e+00 
 5.40670548e-05  5.40670548e+00  5.40670548e-05  5.40604088e+00  5.40670548e-05  8.34901574e-01  5.40670548e-05  5.40298766e+00 
 5.45670548e-05  5.45670548e+00  5.45670548e-05  5.45616606e+00  5.45670548e-05  8.30126793e-01  5.45670548e-05  5.46035954e+00 
 5.50670548e-05  5.50670548e+00  5.50670548e-05  5.50605360e+00  5.50670548e-05  8.40275324e-01  5.50670548e-05  5.50304357e+00 
 5.55670548e-05  5.55670548e+00  5.55670548e-05  5.55616736e+00  5.55670548e-05  8.35933090e-01  5.55670548e-05  5.56030534e+00 
 5.60670548e-05  5.60670548e+00  5.60670548e-05  5.60606528e+00  5.60670548e-05  8.45688752e-01  5.60670548e-05  5.60309693e+00 
 5.65670548e-05  5.65670548e+00  5.65670548e-05  5.65616938e+00  5.65670548e-05  8.42463698e-01  5.65670548e-05  5.66028390e+00 
 5.70670548e-05  5.70670548e+00  5.70670548e-05  5.70607627e+00  5.70670548e-05  8.51946149e-01  5.70670548e-05  5.70315980e+00 
 5.75670548e-05  5.75670548e+00  5.75670548e-05  5.75617014e+00  5.75670548e-05  8.47679542e-01  5.75670548e-05  5.76020404e+00 
 5.80670548e-05  5.80670548e+00  5.80670548e-05  5.80608642e+00  5.80670548e-05  8.57320499e-01  5.80670548e-05  5.80320780e+00 
 5.85670548e-05  5.85670548e+00  5.85670548e-05  5.85617176e+00  5.85670548e-05  8.53537703e-01  5.85670548e-05  5.86015664e+00 
 5.90670548e-05  5.90670548e+00  5.90670548e-05  5.90609540e+00  5.90670548e-05  8.62744051e-01  5.90670548e-05  5.90325389e+00 
 5.95670548e-05  5.95670548e+00  5.95670548e-05  5.95617346e+00  5.95670548e-05  8.59420605e-01  5.95670548e-05  5.96011124e+00 
 6.00670548e-05  6.00670548e+00  6.00670548e-05  6.00610366e+00  6.00670548e-05  8.68316420e-01  6.00670548e-05  6.00329807e+00 
 6.05670548e-05  6.05670548e+00  6.05670548e-05  6.05617511e+00  6.05670548e-05  8.65441305e-01  6.05670548e-05  6.06006772e+00 
 6.10670548e-05  6.10670548e+00  6.10670548e-05  6.10611121e+00  6.10670548e-05  8.74098659e-01  6.10670548e-05  6.10334046e+00 
 6.15670548e-05  6.15670548e+00  6.15670548e-05  6.15617667e+00  6.15670548e-05  8.71681927e-01  6.15670548e-05  6.16002594e+00 
 6.20670548e-05  6.20670548e+00  6.20670548e-05  6.20611810e+00  6.20670548e-05  8.80180913e-01  6.20670548e-05  6.20338118e+00 
 6.25670548e-05  6.25670548e+00  6.25670548e-05  6.25617809e+00  6.25670548e-05  8.78249289e-01  6.25670548e-05  6.25998582e+00 
 6.30670548e-05  6.30670548e+00  6.30670548e-05  6.30612431e+00  6.30670548e-05  8.86679191e-01  6.30670548e-05  6.30342032e+00 
 6.35670548e-05  6.35670548e+00  6.35670548e-05  6.35617932e+00  6.35670548e-05  8.85275975e-01  6.35670548e-05  6.35994726e+00 
 6.40670548e-05  6.40670548e+00  6.40670548e-05  6.40612987e+00  6.40670548e-05  8.93736149e-01  6.40670548e-05  6.40345797e+00 
 6.45670548e-05  6.45670548e+00  6.45670548e-05  6.45618030e+00  6.45670548e-05  8.92920714e-01  6.45670548e-05  6.45991016e+00 
 6.50670548e-05  6.50670548e+00  6.50670548e-05  6.50613475e+00  6.50670548e-05  9.01520864e-01  6.50670548e-05  6.50349422e+00 
