 time            v(bvdd)         time            v(pvdd)         time            v(gate)         time            v(ea_en)       
 1.00000000e-09  1.00000000e-03  1.00000000e-09  1.71010838e-03  1.00000000e-09  6.23031802e-04  1.00000000e-09  1.47939666e-02 
 1.02794902e-09  1.02794902e-03  1.02794902e-09  1.73047114e-03  1.02794902e-09  6.34996964e-04  1.02794902e-09  1.51981845e-02 
 1.08384707e-09  1.08384707e-03  1.08384707e-09  1.74810656e-03  1.08384707e-09  6.56217036e-04  1.08384707e-09  1.59972923e-02 
 1.19564317e-09  1.19564317e-03  1.19564317e-09  1.74510646e-03  1.19564317e-09  6.92199118e-04  1.19564317e-09  1.75805028e-02 
 1.41923535e-09  1.41923535e-03  1.41923535e-09  1.74652421e-03  1.41923535e-09  7.78012419e-04  1.41923535e-09  2.07599745e-02 
 1.72917335e-09  1.72917335e-03  1.72917335e-09  1.74529791e-03  1.72917335e-09  9.17645108e-04  1.72917335e-09  2.51848582e-02 
 2.34904934e-09  2.34904934e-03  2.34904934e-09  1.74595625e-03  2.34904934e-09  1.23175130e-03  2.34904934e-09  3.40902606e-02 
 3.58880132e-09  3.58880132e-03  3.58880132e-09  1.74480017e-03  3.58880132e-09  1.92820687e-03  3.58880132e-09  5.20557217e-02 
 6.06830529e-09  6.06830529e-03  6.06830529e-09  1.74504578e-03  6.06830529e-09  3.13797266e-03  6.06830529e-09  8.82684213e-02 
 1.10273132e-08  1.10273132e-02  1.10273132e-08  1.74429543e-03  1.10273132e-08  4.56684505e-03  1.10273132e-08  1.60249409e-01 
 1.94862620e-08  1.94862620e-02  1.94862620e-08  1.74663086e-03  1.94862620e-08  5.53321880e-03  1.94862620e-08  2.76506041e-01 
 2.88680946e-08  2.88680946e-02  2.88680946e-08  1.74877218e-03  2.88680946e-08  5.84306934e-03  2.88680946e-08  3.91728279e-01 
 4.49428448e-08  4.49428448e-02  4.49428448e-08  1.75397850e-03  4.49428448e-08  6.16172321e-03  4.49428448e-08  5.53113096e-01 
 6.11705804e-08  6.11705804e-02  6.11705804e-08  1.75291797e-03  6.11705804e-08  6.36020101e-03  6.11705804e-08  6.16894966e-01 
 7.73799956e-08  7.73799956e-02  7.73799956e-08  1.74957153e-03  7.73799956e-08  6.61023595e-03  7.73799956e-08  6.11629986e-01 
 9.40545364e-08  9.40545364e-02  9.40545364e-08  1.74495119e-03  9.40545364e-08  6.96087804e-03  9.40545364e-08  6.11356836e-01 
 1.00000000e-07  1.00000000e-01  1.00000000e-07  1.74422272e-03  1.00000000e-07  7.07321956e-03  1.00000000e-07  6.10685407e-01 
 1.01829940e-07  1.01829940e-01  1.01829940e-07  1.74345168e-03  1.01829940e-07  7.10945874e-03  1.01829940e-07  6.10536893e-01 
 1.05489819e-07  1.05489819e-01  1.05489819e-07  1.74257902e-03  1.05489819e-07  7.18080754e-03  1.05489819e-07  6.10277323e-01 
 1.12809577e-07  1.12809577e-01  1.12809577e-07  1.74086325e-03  1.12809577e-07  7.32389220e-03  1.12809577e-07  6.09890599e-01 
 1.27449093e-07  1.27449093e-01  1.27449093e-07  1.73741479e-03  1.27449093e-07  7.60931253e-03  1.27449093e-07  6.09320871e-01 
 1.56728125e-07  1.56728125e-01  1.56728125e-07  1.73051371e-03  1.56728125e-07  8.17558603e-03  1.56728125e-07  6.08570924e-01 
 2.15286189e-07  2.15286189e-01  2.15286189e-07  1.71639222e-03  2.15286189e-07  9.29278683e-03  2.15286189e-07  6.07863608e-01 
 3.15286189e-07  3.15286189e-01  3.15286189e-07  1.69096998e-03  3.15286189e-07  1.11681454e-02  3.15286189e-07  6.07612439e-01 
 4.15286189e-07  4.15286189e-01  4.15286189e-07  1.66386079e-03  4.15286189e-07  1.30327882e-02  4.15286189e-07  6.07773977e-01 
 5.15286189e-07  5.15286189e-01  5.15286189e-07  1.63598930e-03  5.15286189e-07  1.49135140e-02  5.15286189e-07  6.08039478e-01 
 6.15286189e-07  6.15286189e-01  6.15286189e-07  1.61336511e-03  6.15286189e-07  1.68741445e-02  6.15286189e-07  6.08328332e-01 
 7.15286189e-07  7.15286189e-01  7.15286189e-07  1.64445964e-03  7.15286189e-07  1.90247323e-02  7.15286189e-07  6.08816946e-01 
 8.15286189e-07  8.15286189e-01  8.15286189e-07  2.10173048e-03  8.15286189e-07  2.18187994e-02  8.15286189e-07  6.09976526e-01 
 9.15286189e-07  9.15286189e-01  9.15286189e-07  5.35457657e-03  9.15286189e-07  2.75738248e-02  9.15286189e-07  6.16986889e-01 
 1.01528619e-06  1.01528619e+00  1.01528619e-06  2.10701181e-02  1.01528619e-06  4.52452212e-02  1.01528619e-06  6.61170282e-01 
 1.11528619e-06  1.11528619e+00  1.11528619e-06  6.49806169e-02  1.11528619e-06  8.95782887e-02  1.11528619e-06  7.86360084e-01 
 1.19599364e-06  1.19599364e+00  1.19599364e-06  1.23979490e-01  1.19599364e-06  1.48375751e-01  1.19599364e-06  1.18835895e+00 
 1.26290595e-06  1.26290595e+00  1.26290595e-06  1.83359833e-01  1.26290595e-06  2.07296149e-01  1.26290595e-06  1.26350200e+00 
 1.33319190e-06  1.33319190e+00  1.33319190e-06  2.50419685e-01  1.33319190e-06  2.74254162e-01  1.33319190e-06  1.33011080e+00 
 1.41997053e-06  1.41997053e+00  1.41997053e-06  3.35879116e-01  1.41997053e-06  3.59351294e-01  1.41997053e-06  1.42002974e+00 
 1.51997053e-06  1.51997053e+00  1.51997053e-06  4.35695874e-01  1.51997053e-06  4.58846511e-01  1.51997053e-06  1.51825957e+00 
 1.61997053e-06  1.61997053e+00  1.61997053e-06  5.36062377e-01  1.61997053e-06  5.58420961e-01  1.61997053e-06  1.61993179e+00 
 1.71997053e-06  1.71997053e+00  1.71997053e-06  6.37090977e-01  1.71997053e-06  6.57699132e-01  1.71997053e-06  1.71875638e+00 
 1.81997053e-06  1.81997053e+00  1.81997053e-06  7.41201703e-01  1.81997053e-06  7.53218292e-01  1.81997053e-06  1.81991392e+00 
 1.91997053e-06  1.91997053e+00  1.91997053e-06  8.59670653e-01  1.91997053e-06  8.35440219e-01  1.91997053e-06  1.91913667e+00 
 2.01997053e-06  2.01997053e+00  2.01997053e-06  1.01766226e+00  2.01997053e-06  8.99120022e-01  2.01997053e-06  2.02018760e+00 
 2.11997053e-06  2.11997053e+00  2.11997053e-06  1.24358194e+00  2.11997053e-06  9.53625727e-01  2.11997053e-06  2.11977131e+00 
 2.21997053e-06  2.21997053e+00  2.21997053e-06  1.55036829e+00  2.21997053e-06  1.00725978e+00  2.21997053e-06  2.22067835e+00 
 2.31997053e-06  2.31997053e+00  2.31997053e-06  1.95774196e+00  2.31997053e-06  1.02959125e+00  2.31997053e-06  2.32038642e+00 
 2.39004941e-06  2.39004941e+00  2.39004941e-06  2.26157975e+00  2.39004941e-06  9.84020443e-01  2.39004941e-06  2.39032754e+00 
 2.46109602e-06  2.46109602e+00  2.46109602e-06  2.43637311e+00  2.46109602e-06  1.00516872e+00  2.46109602e-06  2.46059691e+00 
 2.51831082e-06  2.51831082e+00  2.51831082e-06  2.49368253e+00  2.51831082e-06  9.89149892e-01  2.51831082e-06  2.51806977e+00 
 2.58468158e-06  2.58468158e+00  2.58468158e-06  2.56407450e+00  2.58468158e-06  9.75374292e-01  2.58468158e-06  2.58423145e+00 
 2.66653620e-06  2.66653620e+00  2.66653620e-06  2.64870070e+00  2.66653620e-06  9.60275250e-01  2.66653620e-06  2.66630046e+00 
 2.74892279e-06  2.74892279e+00  2.74892279e-06  2.73318893e+00  2.74892279e-06  9.41249998e-01  2.74892279e-06  2.74850339e+00 
 2.83511717e-06  2.83511717e+00  2.83511717e-06  2.82088839e+00  2.83511717e-06  9.37709504e-01  2.83511717e-06  2.83490027e+00 
 2.93511717e-06  2.93511717e+00  2.93511717e-06  2.92222494e+00  2.93511717e-06  9.21300583e-01  2.93511717e-06  2.93472501e+00 
 3.03511717e-06  3.03511717e+00  3.03511717e-06  3.02325814e+00  3.03511717e-06  9.21976515e-01  3.03511717e-06  3.03491951e+00 
 3.13511717e-06  3.13511717e+00  3.13511717e-06  3.12406683e+00  3.13511717e-06  9.11003607e-01  3.13511717e-06  3.13474952e+00 
 3.23511717e-06  3.23511717e+00  3.23511717e-06  3.22475899e+00  3.23511717e-06  9.13515028e-01  3.23511717e-06  3.23493471e+00 
 3.33511717e-06  3.33511717e+00  3.33511717e-06  3.32531484e+00  3.33511717e-06  9.05779069e-01  3.33511717e-06  3.33477020e+00 
 3.43511717e-06  3.43511717e+00  3.43511717e-06  3.42581801e+00  3.43511717e-06  9.08580582e-01  3.43511717e-06  3.43494670e+00 
 3.53511717e-06  3.53511717e+00  3.53511717e-06  3.52623024e+00  3.53511717e-06  9.02756620e-01  3.53511717e-06  3.53478790e+00 
 3.63511717e-06  3.63511717e+00  3.63511717e-06  3.62661393e+00  3.63511717e-06  9.05353139e-01  3.63511717e-06  3.63495625e+00 
 3.73511717e-06  3.73511717e+00  3.73511717e-06  3.72693404e+00  3.73511717e-06  9.00825247e-01  3.73511717e-06  3.73480320e+00 
 3.83511717e-06  3.83511717e+00  3.83511717e-06  3.82723682e+00  3.83511717e-06  9.03055853e-01  3.83511717e-06  3.83496384e+00 
 3.93511717e-06  3.93511717e+00  3.93511717e-06  3.92749347e+00  3.93511717e-06  8.99505316e-01  3.93511717e-06  3.93481650e+00 
 4.03511717e-06  4.03511717e+00  4.03511717e-06  4.02773847e+00  4.03511717e-06  9.01381173e-01  4.03511717e-06  4.03496976e+00 
 4.13511717e-06  4.13511717e+00  4.13511717e-06  4.12794912e+00  4.13511717e-06  8.98651206e-01  4.13511717e-06  4.13482811e+00 
 4.23511717e-06  4.23511717e+00  4.23511717e-06  4.22815122e+00  4.23511717e-06  9.00291776e-01  4.23511717e-06  4.23497417e+00 
 4.33511717e-06  4.33511717e+00  4.33511717e-06  4.32832720e+00  4.33511717e-06  8.98374941e-01  4.33511717e-06  4.33483818e+00 
 4.43511717e-06  4.43511717e+00  4.43511717e-06  4.42849640e+00  4.43511717e-06  9.00040516e-01  4.43511717e-06  4.43497687e+00 
 4.53511717e-06  4.53511717e+00  4.53511717e-06  4.52864541e+00  4.53511717e-06  8.99111154e-01  4.53511717e-06  4.53484728e+00 
 4.63511717e-06  4.63511717e+00  4.63511717e-06  4.62878866e+00  4.63511717e-06  9.01244448e-01  4.63511717e-06  4.63497714e+00 
 4.73511717e-06  4.73511717e+00  4.73511717e-06  4.72891607e+00  4.73511717e-06  9.01602363e-01  4.73511717e-06  4.73485435e+00 
 4.83511717e-06  4.83511717e+00  4.83511717e-06  4.82903854e+00  4.83511717e-06  9.04400100e-01  4.83511717e-06  4.83497966e+00 
 4.92349332e-06  4.92349332e+00  4.92349332e-06  4.91751215e+00  4.92349332e-06  9.05585940e-01  4.92349332e-06  4.92325933e+00 
 5.01106211e-06  5.01106211e+00  5.01106211e-06  5.00517490e+00  5.01106211e-06  9.08406036e-01  5.01106211e-06  5.01094525e+00 
 5.04533138e-06  5.04533138e+00  5.04533138e-06  5.03947774e+00  5.04533138e-06  9.08933596e-01  5.04533138e-06  5.04510304e+00 
 5.09559346e-06  5.09559346e+00  5.09559346e-06  5.08978996e+00  5.09559346e-06  9.10822020e-01  5.09559346e-06  5.09547652e+00 
 5.19559346e-06  5.19559346e+00  5.19559346e-06  5.18988254e+00  5.19559346e-06  9.17208465e-01  5.19559346e-06  5.19537084e+00 
 5.29559346e-06  5.29559346e+00  5.29559346e-06  5.28996843e+00  5.29559346e-06  9.31788537e-01  5.29559346e-06  5.29548041e+00 
 5.39559346e-06  5.39559346e+00  5.39559346e-06  5.39004508e+00  5.39559346e-06  9.43222103e-01  5.39559346e-06  5.39537598e+00 
 5.49559346e-06  5.49559346e+00  5.49559346e-06  5.49011843e+00  5.49559346e-06  9.49976000e-01  5.49559346e-06  5.49548148e+00 
 5.59559346e-06  5.59559346e+00  5.59559346e-06  5.59018852e+00  5.59559346e-06  9.56901528e-01  5.59559346e-06  5.59538121e+00 
 5.69559346e-06  5.69559346e+00  5.69559346e-06  5.69025591e+00  5.69559346e-06  9.62477126e-01  5.69559346e-06  5.69548297e+00 
 5.79559346e-06  5.79559346e+00  5.79559346e-06  5.79032033e+00  5.79559346e-06  9.68304778e-01  5.79559346e-06  5.79538594e+00 
 5.89559346e-06  5.89559346e+00  5.89559346e-06  5.89038182e+00  5.89559346e-06  9.73163753e-01  5.89559346e-06  5.89548439e+00 
 5.99559346e-06  5.99559346e+00  5.99559346e-06  5.99044073e+00  5.99559346e-06  9.78525387e-01  5.99559346e-06  5.99539030e+00 
 6.09559346e-06  6.09559346e+00  6.09559346e-06  6.09049668e+00  6.09559346e-06  9.83088816e-01  6.09559346e-06  6.09548570e+00 
 6.19559346e-06  6.19559346e+00  6.19559346e-06  6.19055041e+00  6.19559346e-06  9.88274407e-01  6.19559346e-06  6.19539431e+00 
 6.29559346e-06  6.29559346e+00  6.29559346e-06  6.29060130e+00  6.29559346e-06  9.92732839e-01  6.29559346e-06  6.29548689e+00 
 6.39559346e-06  6.39559346e+00  6.39559346e-06  6.39065032e+00  6.39559346e-06  9.97858572e-01  6.39559346e-06  6.39539798e+00 
 6.49559346e-06  6.49559346e+00  6.49559346e-06  6.49069666e+00  6.49559346e-06  1.00228925e+00  6.49559346e-06  6.49548797e+00 
 6.59559346e-06  6.59559346e+00  6.59559346e-06  6.59074143e+00  6.59559346e-06  1.00739673e+00  6.59559346e-06  6.59540137e+00 
 6.69559346e-06  6.69559346e+00  6.69559346e-06  6.69078373e+00  6.69559346e-06  1.01182999e+00  6.69559346e-06  6.69548895e+00 
 6.79559346e-06  6.79559346e+00  6.79559346e-06  6.79082471e+00  6.79559346e-06  1.01693254e+00  6.79559346e-06  6.79540448e+00 
 6.89559346e-06  6.89559346e+00  6.89559346e-06  6.89086341e+00  6.89559346e-06  1.02138080e+00  6.89559346e-06  6.89548984e+00 
 6.99559346e-06  6.99559346e+00  6.99559346e-06  6.99090101e+00  6.99559346e-06  1.02648199e+00  6.99559346e-06  6.99540735e+00 
 7.09559346e-06  7.09559346e+00  7.09559346e-06  7.09093652e+00  7.09559346e-06  1.03095122e+00  7.09559346e-06  7.09549064e+00 
 7.19559346e-06  7.19559346e+00  7.19559346e-06  7.19097108e+00  7.19559346e-06  1.03605198e+00  7.19559346e-06  7.19541001e+00 
 7.29559346e-06  7.29559346e+00  7.29559346e-06  7.29100373e+00  7.29559346e-06  1.04054611e+00  7.29559346e-06  7.29549137e+00 
 7.39559346e-06  7.39559346e+00  7.39559346e-06  7.39103558e+00  7.39559346e-06  1.04564730e+00  7.39559346e-06  7.39541246e+00 
 7.49559346e-06  7.49559346e+00  7.49559346e-06  7.49106565e+00  7.49559346e-06  1.05016996e+00  7.49559346e-06  7.49549204e+00 
 7.59559346e-06  7.59559346e+00  7.59559346e-06  7.59109505e+00  7.59559346e-06  1.05527341e+00  7.59559346e-06  7.59541474e+00 
 7.69559346e-06  7.69559346e+00  7.69559346e-06  7.69112281e+00  7.69559346e-06  1.05982866e+00  7.69559346e-06  7.69549264e+00 
 7.79559346e-06  7.79559346e+00  7.79559346e-06  7.79114998e+00  7.79559346e-06  1.06493749e+00  7.79559346e-06  7.79541685e+00 
 7.89559346e-06  7.89559346e+00  7.89559346e-06  7.89117565e+00  7.89559346e-06  1.06953020e+00  7.89559346e-06  7.89549319e+00 
 7.99559346e-06  7.99559346e+00  7.99559346e-06  7.99120080e+00  7.99559346e-06  1.07464903e+00  7.99559346e-06  7.99541880e+00 
 8.09559346e-06  8.09559346e+00  8.09559346e-06  8.09122456e+00  8.09559346e-06  1.07928511e+00  8.09559346e-06  8.09549370e+00 
 8.19559346e-06  8.19559346e+00  8.19559346e-06  8.19124787e+00  8.19559346e-06  1.08442021e+00  8.19559346e-06  8.19542062e+00 
 8.29559346e-06  8.29559346e+00  8.29559346e-06  8.29126989e+00  8.29559346e-06  1.08910682e+00  8.29559346e-06  8.29549415e+00 
 8.39559346e-06  8.39559346e+00  8.39559346e-06  8.39129150e+00  8.39559346e-06  1.09426615e+00  8.39559346e-06  8.39542231e+00 
 8.49559346e-06  8.49559346e+00  8.49559346e-06  8.49131193e+00  8.49559346e-06  1.09901191e+00  8.49559346e-06  8.49549456e+00 
 8.59559346e-06  8.59559346e+00  8.59559346e-06  8.59133198e+00  8.59559346e-06  1.10420532e+00  8.59559346e-06  8.59542387e+00 
 8.69559346e-06  8.69559346e+00  8.69559346e-06  8.69135094e+00  8.69559346e-06  1.10902054e+00  8.69559346e-06  8.69549494e+00 
 8.79559346e-06  8.79559346e+00  8.79559346e-06  8.79136956e+00  8.79559346e-06  1.11425994e+00  8.79559346e-06  8.79542533e+00 
 8.89559346e-06  8.89559346e+00  8.89559346e-06  8.89138716e+00  8.89559346e-06  1.11915688e+00  8.89559346e-06  8.89549527e+00 
 8.99559346e-06  8.99559346e+00  8.99559346e-06  8.99140443e+00  8.99559346e-06  1.12445645e+00  8.99559346e-06  8.99542669e+00 
 9.09559346e-06  9.09559346e+00  9.09559346e-06  9.09142077e+00  9.09559346e-06  1.12944960e+00  9.09559346e-06  9.09549558e+00 
 9.19559346e-06  9.19559346e+00  9.19559346e-06  9.19143680e+00  9.19559346e-06  1.13482609e+00  9.19559346e-06  9.19542796e+00 
 9.29559346e-06  9.29559346e+00  9.29559346e-06  9.29145195e+00  9.29559346e-06  1.13993255e+00  9.29559346e-06  9.29549585e+00 
 9.39559346e-06  9.39559346e+00  9.39559346e-06  9.39146681e+00  9.39559346e-06  1.14540562e+00  9.39559346e-06  9.39542913e+00 
 9.49559346e-06  9.49559346e+00  9.49559346e-06  9.49148085e+00  9.49559346e-06  1.15064550e+00  9.49559346e-06  9.49549610e+00 
 9.59559346e-06  9.59559346e+00  9.59559346e-06  9.59149461e+00  9.59559346e-06  1.15623814e+00  9.59559346e-06  9.59543023e+00 
 9.69559346e-06  9.69559346e+00  9.69559346e-06  9.69150760e+00  9.69559346e-06  1.16163505e+00  9.69559346e-06  9.69549632e+00 
 9.79559346e-06  9.79559346e+00  9.79559346e-06  9.79152032e+00  9.79559346e-06  1.16737406e+00  9.79559346e-06  9.79543125e+00 
 9.89559346e-06  9.89559346e+00  9.89559346e-06  9.89153231e+00  9.89559346e-06  1.17295570e+00  9.89559346e-06  9.89549651e+00 
 9.99559346e-06  9.99559346e+00  9.99559346e-06  9.99154402e+00  9.99559346e-06  1.17887233e+00  9.99559346e-06  9.99543220e+00 
 1.00955935e-05  1.00955935e+01  1.00955935e-05  1.00915551e+01  1.00955935e-05  1.18467113e+00  1.00955935e-05  1.00954967e+01 
 1.01955935e-05  1.01955935e+01  1.01955935e-05  1.01915658e+01  1.01955935e-05  1.19080178e+00  1.01955935e-05  1.01954331e+01 
 1.02955935e-05  1.02955935e+01  1.02955935e-05  1.02915759e+01  1.02955935e-05  1.19685571e+00  1.02955935e-05  1.02954968e+01 
 1.03955935e-05  1.03955935e+01  1.03955935e-05  1.03915858e+01  1.03955935e-05  1.20324272e+00  1.03955935e-05  1.03954339e+01 
 1.04955935e-05  1.04955935e+01  1.04955935e-05  1.04915950e+01  1.04955935e-05  1.20959617e+00  1.04955935e-05  1.04954970e+01 
 1.05000000e-05  1.05000000e+01  1.05000000e-05  1.04960019e+01  1.05000000e-05  1.20993528e+00  1.05000000e-05  1.04998428e+01 
 1.05088131e-05  1.05000000e+01  1.05088131e-05  1.04986392e+01  1.05088131e-05  1.20764966e+00  1.05088131e-05  1.05000095e+01 
 1.05264393e-05  1.05000000e+01  1.05264393e-05  1.05002244e+01  1.05264393e-05  1.20354315e+00  1.05264393e-05  1.04999960e+01 
 1.05616916e-05  1.05000000e+01  1.05616916e-05  1.04995031e+01  1.05616916e-05  1.19461806e+00  1.05616916e-05  1.04999980e+01 
 1.06321963e-05  1.05000000e+01  1.06321963e-05  1.05000614e+01  1.06321963e-05  1.17818172e+00  1.06321963e-05  1.04999985e+01 
 1.07321963e-05  1.05000000e+01  1.07321963e-05  1.04996496e+01  1.07321963e-05  1.16369583e+00  1.07321963e-05  1.04999977e+01 
 1.08321963e-05  1.05000000e+01  1.08321963e-05  1.05000447e+01  1.08321963e-05  1.15551182e+00  1.08321963e-05  1.04999999e+01 
 1.09321963e-05  1.05000000e+01  1.09321963e-05  1.04997303e+01  1.09321963e-05  1.15079303e+00  1.09321963e-05  1.04999973e+01 
 1.10321963e-05  1.05000000e+01  1.10321963e-05  1.05000168e+01  1.10321963e-05  1.14806476e+00  1.10321963e-05  1.05000006e+01 
 1.11321963e-05  1.05000000e+01  1.11321963e-05  1.04997804e+01  1.11321963e-05  1.14669111e+00  1.11321963e-05  1.04999970e+01 
 1.12321963e-05  1.05000000e+01  1.12321963e-05  1.04999902e+01  1.12321963e-05  1.14601191e+00  1.12321963e-05  1.05000011e+01 
 1.13321963e-05  1.05000000e+01  1.13321963e-05  1.04998136e+01  1.13321963e-05  1.14595073e+00  1.13321963e-05  1.04999967e+01 
 1.14321963e-05  1.05000000e+01  1.14321963e-05  1.04999681e+01  1.14321963e-05  1.14610324e+00  1.14321963e-05  1.05000014e+01 
 1.15321963e-05  1.05000000e+01  1.15321963e-05  1.04998368e+01  1.15321963e-05  1.14658638e+00  1.15321963e-05  1.04999965e+01 
 1.16321963e-05  1.05000000e+01  1.16321963e-05  1.04999508e+01  1.16321963e-05  1.14709908e+00  1.16321963e-05  1.05000015e+01 
 1.17321963e-05  1.05000000e+01  1.17321963e-05  1.04998533e+01  1.17321963e-05  1.14782144e+00  1.17321963e-05  1.04999964e+01 
 1.18321963e-05  1.05000000e+01  1.18321963e-05  1.04999375e+01  1.18321963e-05  1.14850363e+00  1.18321963e-05  1.05000017e+01 
 1.19321963e-05  1.05000000e+01  1.19321963e-05  1.04998652e+01  1.19321963e-05  1.14933879e+00  1.19321963e-05  1.04999963e+01 
 1.20321963e-05  1.05000000e+01  1.20321963e-05  1.04999275e+01  1.20321963e-05  1.15011016e+00  1.20321963e-05  1.05000017e+01 
 1.21321963e-05  1.05000000e+01  1.21321963e-05  1.04998739e+01  1.21321963e-05  1.15100377e+00  1.21321963e-05  1.04999962e+01 
 1.22321963e-05  1.05000000e+01  1.22321963e-05  1.04999200e+01  1.22321963e-05  1.15182879e+00  1.22321963e-05  1.05000018e+01 
 1.23321963e-05  1.05000000e+01  1.23321963e-05  1.04998803e+01  1.23321963e-05  1.15275625e+00  1.23321963e-05  1.04999962e+01 
 1.24321963e-05  1.05000000e+01  1.24321963e-05  1.04999143e+01  1.24321963e-05  1.15361878e+00  1.24321963e-05  1.05000018e+01 
 1.25321963e-05  1.05000000e+01  1.25321963e-05  1.04998849e+01  1.25321963e-05  1.15456890e+00  1.25321963e-05  1.04999962e+01 
