 time            v(bvdd)         time            v(pvdd)         time            v(gate)         time            v(ea_out)       time            ibvdd           time            p_pass         
 1.00000000e-09  1.00000000e-03  1.00000000e-09  1.82233127e-04  1.00000000e-09  7.87452430e-04  1.00000000e-09 -2.30229964e-03  1.00000000e-09  5.05366834e-07  1.00000000e-09  4.13272256e-10 
 1.02794806e-09  1.02794806e-03  1.02794806e-09  1.84422558e-04  1.02794806e-09  8.08757982e-04  1.02794806e-09 -2.34854567e-03  1.02794806e-09  5.37710743e-07  1.02794806e-09  4.53572724e-10 
 1.08384418e-09  1.08384418e-03  1.08384418e-09  1.86322077e-04  1.08384418e-09  8.50807803e-04  1.08384418e-09 -2.40450975e-03  1.08384418e-09  5.66280199e-07  1.08384418e-09  5.08248994e-10 
 1.19563641e-09  1.19563641e-03  1.19563641e-09  1.85994773e-04  1.19563641e-09  9.34003208e-04  1.19563641e-09 -2.46351291e-03  1.19563641e-09  5.61690958e-07  1.19563641e-09  5.67106581e-10 
 1.41922089e-09  1.41922089e-03  1.41922089e-09  1.86133895e-04  1.41922089e-09  1.10074640e-03  1.41922089e-09 -2.42878262e-03  1.41922089e-09  5.63388208e-07  1.41922089e-09  6.94706672e-10 
 1.72904795e-09  1.72904795e-03  1.72904795e-09  1.85986603e-04  1.72904795e-09  1.33207098e-03  1.72904795e-09 -2.21088665e-03  1.72904795e-09  5.62140674e-07  1.72904795e-09  8.67417546e-10 
 2.34870208e-09  2.34870208e-03  2.34870208e-09  1.86018085e-04  2.34870208e-09  1.79589349e-03  2.34870208e-09 -1.67572609e-03  2.34870208e-09  5.63445770e-07  2.34870208e-09  1.21855515e-09 
 3.58801033e-09  3.58801033e-03  3.58801033e-09  1.85820992e-04  3.58801033e-09  2.72760977e-03  3.58801033e-09 -8.46094359e-04  3.58801033e-09  5.63799814e-07  3.58801033e-09  1.91815371e-09 
 6.06662683e-09  6.06662683e-03  6.06662683e-09  1.85693955e-04  6.06662683e-09  4.60652528e-03  6.06662683e-09 -1.10433425e-04  6.06662683e-09  5.66938961e-07  6.06662683e-09  3.33412997e-09 
 1.10238598e-08  1.10238598e-02  1.10238598e-08  1.85229315e-04  1.10238598e-08  8.41977970e-03  1.10238598e-08  1.16514291e-04  1.10238598e-08  5.71883205e-07  1.10238598e-08  6.19843076e-09 
 1.81726439e-08  1.81726439e-02  1.81726439e-08  1.84759361e-04  1.81726439e-08  1.40325201e-02  1.81726439e-08  8.65552530e-05  1.81726439e-08  5.81932949e-07  1.81726439e-08  1.04677427e-08 
 3.05676192e-08  3.05676192e-02  3.05676192e-08  1.83750153e-04  3.05676192e-08  2.40334294e-02  3.05676192e-08  9.63572957e-05  3.05676192e-08  5.98400268e-07  3.05676192e-08  1.81817154e-08 
 5.53575699e-08  5.53575699e-02  5.53575699e-08  1.82008943e-04  5.53575699e-08  4.48662156e-02  5.53575699e-08  9.15018063e-05  5.53575699e-08  6.33096375e-07  5.53575699e-08  3.49314477e-08 
 1.00000000e-07  1.00000000e-01  1.00000000e-07  1.78793956e-04  1.00000000e-07  8.44633688e-02  1.00000000e-07  9.88069036e-05  1.00000000e-07  6.88103732e-07  1.00000000e-07  6.86873444e-08 
 1.04957990e-07  1.04957990e-01  1.04957990e-07  1.78491890e-04  1.04957990e-07  8.90108660e-02  1.04957990e-07  9.65623027e-05  1.04957990e-07  6.94306285e-07  1.04957990e-07  7.27490642e-08 
 1.14873970e-07  1.14873970e-01  1.14873970e-07  1.77815844e-04  1.14873970e-07  9.81463601e-02  1.14873970e-07  9.61442923e-05  1.14873970e-07  7.05172893e-07  1.14873970e-07  8.08806191e-08 
 1.34705931e-07  1.34705931e-01  1.34705931e-07  1.76475482e-04  1.34705931e-07  1.16636198e-01  1.34705931e-07  9.64902481e-05  1.34705931e-07  7.26950195e-07  1.34705931e-07  9.77962139e-08 
 1.74369852e-07  1.74369852e-01  1.74369852e-07  1.73834082e-04  1.74369852e-07  1.54307587e-01  1.74369852e-07  9.58926261e-05  1.74369852e-07  7.66451944e-07  1.74369852e-07  1.33512877e-07 
 2.53697694e-07  2.53697694e-01  2.53697694e-07  1.68637990e-04  2.53697694e-07  2.31420146e-01  2.53697694e-07  9.41961392e-05  2.53697694e-07  8.36588453e-07  2.53697694e-07  2.12099481e-07 
 3.53697694e-07  3.53697694e-01  3.53697694e-07  1.62155381e-04  3.53697694e-07  3.30392966e-01  3.53697694e-07  9.04601051e-05  3.53697694e-07  9.10555053e-07  3.53697694e-07  3.21913571e-07 
 4.53697694e-07  4.53697694e-01  4.53697694e-07  1.55676795e-04  4.53697694e-07  4.30123857e-01  4.53697694e-07  8.67835220e-05  4.53697694e-07  9.74038330e-07  4.53697694e-07  4.41767309e-07 
 5.53697694e-07  5.53697694e-01  5.53697694e-07  1.49177603e-04  5.53697694e-07  5.30085962e-01  5.53697694e-07  8.27379296e-05  5.53697694e-07  1.02854173e-06  5.53697694e-07  5.69347746e-07 
 6.53697694e-07  6.53697694e-01  6.53697694e-07  1.42651138e-04  6.53697694e-07  6.30113620e-01  6.53697694e-07  7.93116029e-05  6.53697694e-07  1.07696816e-06  6.53697694e-07  7.03857969e-07 
 7.53697694e-07  7.53697694e-01  7.53697694e-07  1.36098644e-04  7.53697694e-07  7.30156158e-01  7.53697694e-07  7.58817487e-05  7.53697694e-07  1.11944531e-06  7.53697694e-07  8.43570992e-07 
 8.53697694e-07  8.53697694e-01  8.53697694e-07  1.29519135e-04  8.53697694e-07  8.30198928e-01  8.53697694e-07  7.32852259e-05  8.53697694e-07  1.15843792e-06  8.53697694e-07  9.88805739e-07 
 9.53697694e-07  9.53697694e-01  9.53697694e-07  1.22909696e-04  9.53697694e-07  9.30236984e-01  9.53697694e-07  7.05205675e-05  9.53697694e-07  1.19420711e-06  9.53697694e-07  1.13876578e-06 
 1.05369769e-06  1.05369769e+00  1.05369769e-06  1.16244348e-04  1.05369769e-06  1.03026430e+00  1.05369769e-06  6.64664410e-05  1.05369769e-06  1.23159305e-06  1.05369769e-06  1.29758359e-06 
 1.15369769e-06  1.15369769e+00  1.15369769e-06  1.09434284e-04  1.15369769e-06  1.13052334e+00  1.15369769e-06  5.20009495e-05  1.15369769e-06  1.34865278e-06  1.15369769e-06  1.55579002e-06 
 1.25369769e-06  1.25369769e+00  1.25369769e-06  1.02700467e-04  1.25369769e-06  1.23682805e+00  1.25369769e-06  4.97888579e-05  1.25369769e-06  2.07730144e-06  1.25369769e-06  2.60409469e-06 
 1.33092016e-06  1.33092016e+00  1.33092016e-06  9.74459354e-05  1.33092016e-06  1.31116234e+00  1.33092016e-06  7.47834354e-05  1.33092016e-06  6.37772946e-07  1.33092016e-06  8.48762723e-07 
 1.41282275e-06  1.41282275e+00  1.41282275e-06  9.19195351e-05  1.41282275e-06  1.39089423e+00  1.41282275e-06  9.52644332e-05  1.41282275e-06  2.02469326e-06  1.41282275e-06  2.86034658e-06 
 1.51282275e-06  1.51282275e+00  1.51282275e-06  8.52855761e-05  1.51282275e-06  1.48960054e+00  1.51282275e-06  2.45414355e-04  1.51282275e-06  7.63878765e-07  1.51282275e-06  1.15554802e-06 
 1.61282275e-06  1.61282275e+00  1.61282275e-06  7.89341804e-05  1.61282275e-06  1.58634274e+00  1.61282275e-06  6.57923208e-04  1.61282275e-06  2.08521926e-06  1.61282275e-06  3.36292446e-06 
 1.71282275e-06  1.71282275e+00  1.71282275e-06  7.32548805e-05  1.71282275e-06  1.68005728e+00  1.71282275e-06  1.60366325e-03  1.71282275e-06  9.74591117e-07  1.71282275e-06  1.66923044e-06 
 1.81282275e-06  1.81282275e+00  1.81282275e-06  6.87268256e-05  1.81282275e-06  1.76839349e+00  1.81282275e-06  3.24533204e-03  1.81282275e-06  2.33071088e-06  1.81282275e-06  4.22500551e-06 
 1.91282275e-06  1.91282275e+00  1.91282275e-06  6.58857280e-05  1.91282275e-06  1.85153112e+00  1.91282275e-06  5.78579463e-03  1.91282275e-06  1.37708487e-06  1.91282275e-06  2.63402854e-06 
 2.01282275e-06  2.01282275e+00  2.01282275e-06  6.52231062e-05  2.01282275e-06  1.92884746e+00  2.01282275e-06  9.34394508e-03  2.01282275e-06  2.78708651e-06  2.01282275e-06  5.60972933e-06 
 2.11282275e-06  2.11282275e+00  2.11282275e-06  6.72223541e-05  2.11282275e-06  2.00119107e+00  2.11282275e-06  1.40904852e-02  2.11282275e-06  1.96813865e-06  2.11282275e-06  4.15819580e-06 
 2.21282275e-06  2.21282275e+00  2.21282275e-06  7.23090234e-05  2.21282275e-06  2.06839725e+00  2.21282275e-06  2.01204840e-02  2.21282275e-06  3.42853893e-06  2.21282275e-06  7.58650101e-06 
 2.31282275e-06  2.31282275e+00  2.31282275e-06  8.08903010e-05  2.31282275e-06  2.13136828e+00  2.31282275e-06  2.75741842e-02  2.31282275e-06  2.72186977e-06  2.31282275e-06  6.29498215e-06 
 2.41282275e-06  2.41282275e+00  2.41282275e-06  9.33133465e-05  2.41282275e-06  2.19010399e+00  2.41282275e-06  3.65196285e-02  2.41282275e-06  4.22348138e-06  2.41282275e-06  1.01901178e-05 
 2.51282275e-06  2.51282275e+00  2.51282275e-06  1.09901915e-04  2.51282275e-06  2.24550790e+00  2.51282275e-06  4.70659068e-02  2.51282275e-06  3.60758279e-06  2.51282275e-06  9.06481962e-06 
 2.61282275e-06  2.61282275e+00  2.61282275e-06  1.30920847e-04  2.61282275e-06  2.29767343e+00  2.61282275e-06  5.92539649e-02  2.61282275e-06  5.13840037e-06  2.61282275e-06  1.34250566e-05 
 2.71282275e-06  2.71282275e+00  2.71282275e-06  1.56614159e-04  2.71282275e-06  2.34748071e+00  2.71282275e-06  7.31632807e-02  2.71282275e-06  4.59375986e-06  2.71282275e-06  1.24613368e-05 
 2.81282275e-06  2.81282275e+00  2.81282275e-06  1.87184576e-04  2.81282275e-06  2.39505969e+00  2.81282275e-06  8.88097344e-02  2.81282275e-06  6.14444323e-06  2.81282275e-06  1.72820795e-05 
 2.91282275e-06  2.91282275e+00  2.91282275e-06  2.22870416e-04  2.91282275e-06  2.44123622e+00  2.91282275e-06  1.06246323e-01  2.91282275e-06  5.66733585e-06  2.91282275e-06  1.65066817e-05 
 3.01282275e-06  3.01282275e+00  3.01282275e-06  2.64070057e-04  3.01282275e-06  2.48614613e+00  3.01282275e-06  1.25466706e-01  3.01282275e-06  7.27991595e-06  3.01282275e-06  2.19311740e-05 
 3.11282275e-06  3.11282275e+00  3.11282275e-06  3.11914687e-04  3.11282275e-06  2.53054306e+00  3.11282275e-06  1.46501765e-01  3.11282275e-06  7.04813269e-06  3.11282275e-06  2.19373893e-05 
 3.21282275e-06  3.21282275e+00  3.21282275e-06  3.70095865e-04  3.21282275e-06  2.57453647e+00  3.21282275e-06  1.69329201e-01  3.21282275e-06  9.38822336e-06  3.21282275e-06  3.01592230e-05 
 3.31282275e-06  3.31282275e+00  3.31282275e-06  4.50829124e-04  3.31282275e-06  2.61878390e+00  3.31282275e-06  1.93970028e-01  3.31282275e-06  1.16335415e-05  3.31282275e-06  3.85346160e-05 
 3.41282275e-06  3.41282275e+00  3.41282275e-06  5.92538937e-04  3.41282275e-06  2.66334837e+00  3.41282275e-06  2.20415705e-01  3.41282275e-06  2.17011398e-05  3.41282275e-06  7.40492847e-05 
 3.51282275e-06  3.51282275e+00  3.51282275e-06  9.06182054e-04  3.51282275e-06  2.70881368e+00  3.51282275e-06  2.48751396e-01  3.51282275e-06  4.63173319e-05  3.51282275e-06  1.62662605e-04 
 3.61282275e-06  3.61282275e+00  3.61282275e-06  1.68299882e-03  3.61282275e-06  2.75529464e+00  3.61282275e-06  2.79126990e-01  3.61282275e-06  1.15053759e-04  3.61282275e-06  4.15475202e-04 
 3.71282275e-06  3.71282275e+00  3.71282275e-06  3.58967188e-03  3.71282275e-06  2.80367020e+00  3.71282275e-06  3.12144440e-01  3.71282275e-06  2.74016098e-04  3.71282275e-06  1.01638957e-03 
 3.81282275e-06  3.81282275e+00  3.81282275e-06  7.88354634e-03  3.81282275e-06  2.85490115e+00  3.81282275e-06  3.48934521e-01  3.81282275e-06  5.96062465e-04  3.81282275e-06  2.26798144e-03 
 3.91282275e-06  3.91282275e+00  3.91282275e-06  1.63259225e-02  3.91282275e-06  2.91087342e+00  3.91282275e-06  3.90590095e-01  3.91282275e-06  1.10991579e-03  3.91282275e-06  4.32478335e-03 
 4.01282275e-06  4.01282275e+00  4.01282275e-06  3.05779806e-02  4.01282275e-06  2.97330214e+00  4.01282275e-06  4.38658264e-01  4.01282275e-06  1.76668486e-03  4.01282275e-06  7.03537154e-03 
 4.11282275e-06  4.11282275e+00  4.11282275e-06  5.13961249e-02  4.11282275e-06  3.04396460e+00  4.11282275e-06  4.93077409e-01  4.11282275e-06  2.43298922e-03  4.11282275e-06  9.88140720e-03 
 4.21282275e-06  4.21282275e+00  4.21282275e-06  7.83615669e-02  4.21282275e-06  3.12284129e+00  4.21282275e-06  5.53067685e-01  4.21282275e-06  3.00543453e-03  4.21282275e-06  1.24258524e-02 
 4.31282275e-06  4.31282275e+00  4.31282275e-06  1.10283201e-01  4.31282275e-06  3.20888827e+00  4.31282275e-06  6.16241361e-01  4.31282275e-06  3.43186257e-03  4.31282275e-06  1.44225382e-02 
 4.41282275e-06  4.41282275e+00  4.41282275e-06  1.45999591e-01  4.41282275e-06  3.29881043e+00  4.41282275e-06  6.79477320e-01  4.41282275e-06  3.77053191e-03  4.41282275e-06  1.60881929e-02 
 4.51282275e-06  4.51282275e+00  4.51282275e-06  1.85203330e-01  4.51282275e-06  3.38831331e+00  4.51282275e-06  7.38632398e-01  4.51282275e-06  4.13562085e-03  4.51282275e-06  1.78973931e-02 
 4.61282275e-06  4.61282275e+00  4.61282275e-06  2.29091059e-01  4.61282275e-06  3.47187274e+00  4.61282275e-06  7.90351887e-01  4.61282275e-06  4.71665493e-03  4.61282275e-06  2.06765497e-02 
 4.71282275e-06  4.71282275e+00  4.71282275e-06  2.80625173e-01  4.71282275e-06  3.54572458e+00  4.71282275e-06  8.33870271e-01  4.71282275e-06  5.68077911e-03  4.71282275e-06  2.51783354e-02 
 4.81282275e-06  4.81282275e+00  4.81282275e-06  3.44310642e-01  4.81282275e-06  3.60822541e+00  4.81282275e-06  8.70355957e-01  4.81282275e-06  7.17228526e-03  4.81282275e-06  3.20494435e-02 
 4.91282275e-06  4.91282275e+00  4.91282275e-06  4.25673288e-01  4.91282275e-06  3.66015496e+00  4.91282275e-06  9.01178783e-01  4.91282275e-06  9.25344873e-03  4.91282275e-06  4.15216074e-02 
 5.01282275e-06  5.01282275e+00  5.01282275e-06  5.30626453e-01  5.01282275e-06  3.70308872e+00  5.01282275e-06  9.28743823e-01  5.01282275e-06  1.19403638e-02  5.01282275e-06  5.35190543e-02 
 5.11282275e-06  5.11282275e+00  5.11282275e-06  6.64700711e-01  5.11282275e-06  3.73988685e+00  5.11282275e-06  9.54658473e-01  5.11282275e-06  1.51394407e-02  5.11282275e-06  6.73420799e-02 
 5.21282275e-06  5.21282275e+00  5.21282275e-06  8.32181452e-01  5.21282275e-06  3.77381546e+00  5.21282275e-06  9.81277867e-01  5.21282275e-06  1.86918024e-02  5.21282275e-06  8.18820812e-02 
 5.31282275e-06  5.31282275e+00  5.31282275e-06  1.03458629e+00  5.31282275e-06  3.81111528e+00  5.31282275e-06  1.00942257e+00  5.31282275e-06  2.21983682e-02  5.31282275e-06  9.49698682e-02 
 5.41282275e-06  5.41282275e+00  5.41282275e-06  1.26559486e+00  5.41282275e-06  3.86945562e+00  5.41282275e-06  1.06933934e+00  5.41282275e-06  2.45004694e-02  5.41282275e-06  1.01609030e-01 
 5.51282275e-06  5.51282275e+00  5.51282275e-06  1.50745935e+00  5.51282275e-06  3.96502822e+00  5.51282275e-06  1.17042481e+00  5.51282275e-06  2.44948581e-02  5.51282275e-06  9.81108082e-02 
 5.61282275e-06  5.61282275e+00  5.61282275e-06  1.74300259e+00  5.61282275e-06  4.07822250e+00  5.61282275e-06  1.25797885e+00  5.61282275e-06  2.34222736e-02  5.61282275e-06  9.06399864e-02 
 5.71167100e-06  5.71167100e+00  5.71167100e-06  1.96464460e+00  5.71167100e-06  4.18893563e+00  5.71167100e-06  1.34053073e+00  5.71167100e-06  2.24709453e-02  5.71167100e-06  8.41992251e-02 
 5.81167100e-06  5.81167100e+00  5.81167100e-06  2.17498652e+00  5.81167100e-06  4.31217925e+00  5.81167100e-06  1.44739160e+00  5.81167100e-06  2.08950708e-02  5.81167100e-06  7.59887799e-02 
 5.91167100e-06  5.91167100e+00  5.91167100e-06  2.36561690e+00  5.91167100e-06  4.44648524e+00  5.91167100e-06  1.54116344e+00  5.91167100e-06  1.87718936e-02  5.91167100e-06  6.65661502e-02 
 6.01167100e-06  6.01167100e+00  6.01167100e-06  2.53487579e+00  6.01167100e-06  4.57923849e+00  6.01167100e-06  1.63200882e+00  6.01167100e-06  1.68586782e-02  6.01167100e-06  5.86141715e-02 
 6.11167100e-06  6.11167100e+00  6.11167100e-06  2.68616806e+00  6.11167100e-06  4.70494990e+00  6.11167100e-06  1.71037427e+00  6.11167100e-06  1.54101162e-02  6.11167100e-06  5.27873985e-02 
 6.21167100e-06  6.21167100e+00  6.21167100e-06  2.82484757e+00  6.21167100e-06  4.82009023e+00  6.21167100e-06  1.78512807e+00  6.21167100e-06  1.45672707e-02  6.21167100e-06  4.93367735e-02 
 6.31167100e-06  6.31167100e+00  6.31167100e-06  2.95626269e+00  6.31167100e-06  4.92655412e+00  6.31167100e-06  1.85449319e+00  6.31167100e-06  1.41919369e-02  6.31167100e-06  4.76197429e-02 
 6.41167100e-06  6.41167100e+00  6.41167100e-06  3.08447969e+00  6.41167100e-06  5.02617138e+00  6.41167100e-06  1.92298633e+00  6.41167100e-06  1.41715274e-02  6.41167100e-06  4.71513828e-02 
 6.51167100e-06  6.51167100e+00  6.51167100e-06  3.21212132e+00  6.51167100e-06  5.12221365e+00  6.51167100e-06  1.99104504e+00  6.51167100e-06  1.43313724e-02  6.51167100e-06  4.72870752e-02 
 6.61167100e-06  6.61167100e+00  6.61167100e-06  3.34047312e+00  6.61167100e-06  5.21651004e+00  6.61167100e-06  2.05966444e+00  6.61167100e-06  1.45800358e-02  6.61167100e-06  4.76941823e-02 
 6.71167100e-06  6.71167100e+00  6.71167100e-06  3.46991719e+00  6.71167100e-06  5.31078070e+00  6.71167100e-06  2.12943595e+00  6.71167100e-06  1.48273145e-02  6.71167100e-06  4.80665032e-02 
 6.81167100e-06  6.81167100e+00  6.81167100e-06  3.60029918e+00  6.81167100e-06  5.40545293e+00  6.81167100e-06  2.19953758e+00  6.81167100e-06  1.50582039e-02  6.81167100e-06  4.83574916e-02 
 6.91167100e-06  6.91167100e+00  6.91167100e-06  3.73147120e+00  6.91167100e-06  5.50015896e+00  6.91167100e-06  2.26911869e+00  6.91167100e-06  1.53094999e-02  6.91167100e-06  4.86872683e-02 
 7.00000000e-06  7.00000000e+00  7.00000000e-06  3.84826619e+00  7.00000000e-06  5.58253383e+00  7.00000000e-06  2.32843446e+00  7.00000000e-06  1.56314850e-02  7.00000000e-06  4.92662796e-02 
 7.01000000e-06  7.00000000e+00  7.01000000e-06  3.86148496e+00  7.01000000e-06  5.58321981e+00  7.01000000e-06  2.33516486e+00  7.01000000e-06  1.55814087e-02  7.01000000e-06  4.89024857e-02 
 7.03000000e-06  7.00000000e+00  7.03000000e-06  3.88779582e+00  7.03000000e-06  5.58432346e+00  7.03000000e-06  2.34818708e+00  7.03000000e-06  1.54988477e-02  7.03000000e-06  4.82355785e-02 
 7.07000000e-06  7.00000000e+00  7.07000000e-06  3.93978793e+00  7.07000000e-06  5.58532643e+00  7.07000000e-06  2.37300338e+00  7.07000000e-06  1.54042064e-02  7.07000000e-06  4.71401383e-02 
 7.15000000e-06  7.00000000e+00  7.15000000e-06  4.04259121e+00  7.15000000e-06  5.58239020e+00  7.15000000e-06  2.41355505e+00  7.15000000e-06  1.55061126e-02  7.15000000e-06  4.58579136e-02 
 7.23151193e-06  7.00000000e+00  7.23151193e-06  4.16665171e+00  7.23151193e-06  5.48830134e+00  7.23151193e-06  2.35261080e+00  7.23151193e-06  2.06478168e-02  7.23151193e-06  5.85024564e-02 
 7.28756755e-06  7.00000000e+00  7.28756755e-06  4.26783421e+00  7.28756755e-06  5.46822441e+00  7.28756755e-06  2.42086157e+00  7.28756755e-06  2.11083615e-02  7.28756755e-06  5.76715431e-02 
 7.33977416e-06  7.00000000e+00  7.33977416e-06  4.36279898e+00  7.33977416e-06  5.47210477e+00  7.33977416e-06  2.45555132e+00  7.33977416e-06  2.06442951e-02  7.33977416e-06  5.44431561e-02 
 7.40625091e-06  7.00000000e+00  7.40625091e-06  4.47699491e+00  7.40625091e-06  5.49283785e+00  7.40625091e-06  2.52501779e+00  7.40625091e-06  1.90872651e-02  7.40625091e-06  4.81572670e-02 
 7.44468410e-06  7.00000000e+00  7.44468410e-06  4.53777392e+00  7.44468410e-06  5.51242682e+00  7.44468410e-06  2.55152344e+00  7.44468410e-06  1.80293943e-02  7.44468410e-06  4.43924450e-02 
 7.47507506e-06  7.00000000e+00  7.47507506e-06  4.58243053e+00  7.47507506e-06  5.52913165e+00  7.47507506e-06  2.58155982e+00  7.47507506e-06  1.69660052e-02  7.47507506e-06  4.10164961e-02 
 7.50543363e-06  7.00000000e+00  7.50543363e-06  4.62389981e+00  7.50543363e-06  5.54757109e+00  7.50543363e-06  2.60140608e+00  7.50543363e-06  1.60178349e-02  7.50543363e-06  3.80599805e-02 
 7.53685577e-06  7.00000000e+00  7.53685577e-06  4.66349025e+00  7.53685577e-06  5.56647736e+00  7.53685577e-06  2.62696189e+00  7.53685577e-06  1.49305650e-02  7.53685577e-06  3.48854106e-02 
 7.56792043e-06  7.00000000e+00  7.56792043e-06  4.69938144e+00  7.56792043e-06  5.58571283e+00  7.56792043e-06  2.64565439e+00  7.56792043e-06  1.39791253e-02  7.56792043e-06  3.21606351e-02 
 7.60192466e-06  7.00000000e+00  7.60192466e-06  4.73513185e+00  7.60192466e-06  5.60570653e+00  7.60192466e-06  2.66838559e+00  7.60192466e-06  1.29185160e-02  7.60192466e-06  2.92587353e-02 
 7.63918837e-06  7.00000000e+00  7.63918837e-06  4.77034671e+00  7.63918837e-06  5.62724782e+00  7.63918837e-06  2.68858069e+00  7.63918837e-06  1.19041399e-02  7.63918837e-06  2.65421046e-02 
