 time            v(bvdd)         time            v(pvdd)         time            v(gate)         time            v(ea_out)       time            v(startup_done) time            v(ea_en)       
 1.00000000e-09  1.00000000e-03  1.00000000e-09  1.82233387e-04  1.00000000e-09  7.87378880e-04  1.00000000e-09 -2.25814028e-03  1.00000000e-09  6.37336625e-04  1.00000000e-09  7.11801754e-06 
 1.02794806e-09  1.02794806e-03  1.02794806e-09  1.84422832e-04  1.02794806e-09  8.08682153e-04  1.02794806e-09 -2.30435322e-03  1.02794806e-09  6.55200212e-04  1.02794806e-09  7.31837454e-06 
 1.08384419e-09  1.08384419e-03  1.08384419e-09  1.86322390e-04  1.08384419e-09  8.50727436e-04  1.08384419e-09 -2.36239672e-03  1.08384419e-09  6.91091316e-04  1.08384419e-09  7.72041331e-06 
 1.19563645e-09  1.19563645e-03  1.19563645e-09  1.85995172e-04  1.19563645e-09  9.33913900e-04  1.19563645e-09 -2.42757044e-03  1.19563645e-09  7.63099416e-04  1.19563645e-09  8.52673176e-06 
 1.41922097e-09  1.41922097e-03  1.41922097e-09  1.86134471e-04  1.41922097e-09  1.10064147e-03  1.41922097e-09 -2.40752861e-03  1.41922097e-09  9.08446220e-04  1.41922097e-09  1.01500636e-05 
 1.72904809e-09  1.72904809e-03  1.72904809e-09  1.85987402e-04  1.72904809e-09  1.33194765e-03  1.72904809e-09 -2.20642883e-03  1.72904809e-09  1.11142326e-03  1.72904809e-09  1.24159646e-05 
 2.34870232e-09  2.34870232e-03  2.34870232e-09  1.86019241e-04  2.34870232e-09  1.79573817e-03  2.34870232e-09 -1.68571235e-03  2.34870232e-09  1.51914581e-03  2.34870232e-09  1.69837000e-05 
 3.58801079e-09  3.58801079e-03  3.58801079e-09  1.85822701e-04  3.58801079e-09  2.72739215e-03  3.58801079e-09 -8.56223905e-04  3.58801079e-09  2.33596376e-03  3.58801079e-09  2.62181809e-05 
 6.06662772e-09  6.06662772e-03  6.06662772e-09  1.85696700e-04  6.06662772e-09  4.60617319e-03  6.06662772e-09 -1.12339892e-04  6.06662772e-09  3.97328884e-03  6.06662772e-09  4.49786603e-05 
 1.10238616e-08  1.10238616e-02  1.10238616e-08  1.85234245e-04  1.10238616e-08  8.41914824e-03  1.10238616e-08  1.19752985e-04  1.10238616e-08  7.27392984e-03  1.10238616e-08  8.32812964e-05 
 1.81673159e-08  1.81673159e-02  1.81673159e-08  1.84767994e-04  1.81673159e-08  1.40272749e-02  1.81673159e-08  9.05807425e-05  1.81673159e-08  1.20903054e-02  1.81673159e-08  1.39530108e-04 
 3.04934371e-08  3.04934371e-02  3.04934371e-08  1.83769552e-04  3.04934371e-08  2.39710685e-02  3.04934371e-08  9.98369413e-05  3.04934371e-08  2.05113482e-02  3.04934371e-08  2.38031326e-04 
 5.51456796e-08  5.51456796e-02  5.51456796e-08  1.82049242e-04  5.51456796e-08  4.46815787e-02  5.51456796e-08  9.60672878e-05  5.51456796e-08  3.75549521e-02  5.51456796e-08  4.37340243e-04 
 1.00000000e-07  1.00000000e-01  1.00000000e-07  1.78839040e-04  1.00000000e-07  8.44577828e-02  1.00000000e-07  1.03824292e-04  1.00000000e-07  6.88149694e-02  1.00000000e-07  7.98083018e-04 
 1.04930448e-07  1.04930448e-01  1.04930448e-07  1.78541041e-04  1.04930448e-07  8.89798844e-02  1.04930448e-07  1.01821598e-04  1.04930448e-07  7.22605320e-02  1.04930448e-07  8.37043679e-04 
 1.14791345e-07  1.14791345e-01  1.14791345e-07  1.77873105e-04  1.14791345e-07  9.80641617e-02  1.14791345e-07  1.01657532e-04  1.14791345e-07  7.91564094e-02  1.14791345e-07  9.14364656e-04 
 1.34513139e-07  1.34513139e-01  1.34513139e-07  1.76548791e-04  1.34513139e-07  1.16449376e-01  1.34513139e-07  1.02373958e-04  1.34513139e-07  9.29639763e-02  1.34513139e-07  1.06462675e-03 
 1.73956727e-07  1.73956727e-01  1.73956727e-07  1.73938980e-04  1.73956727e-07  1.53905436e-01  1.73956727e-07  1.02535700e-04  1.73956727e-07  1.20639913e-01  1.73956727e-07  1.34314201e-03 
 2.52843903e-07  2.52843903e-01  2.52843903e-07  1.68804887e-04  2.52843903e-07  2.30575696e-01  2.52843903e-07  1.02334199e-04  2.52843903e-07  1.76256775e-01  2.52843903e-07  1.80251051e-03 
 3.52843903e-07  3.52843903e-01  3.52843903e-07  1.62363512e-04  3.52843903e-07  3.29537118e-01  3.52843903e-07  1.00435258e-04  3.52843903e-07  2.47372590e-01  3.52843903e-07  2.21461558e-03 
 4.52843903e-07  4.52843903e-01  4.52843903e-07  1.55925352e-04  4.52843903e-07  4.29264219e-01  4.52843903e-07  9.85648097e-05  4.52843903e-07  3.19165210e-01  4.52843903e-07  2.48114650e-03 
 5.52843903e-07  5.52843903e-01  5.52843903e-07  1.49465710e-04  5.52843903e-07  5.29224923e-01  5.52843903e-07  9.63113857e-05  5.52843903e-07  3.90863664e-01  5.52843903e-07  2.64976054e-03 
 6.52843903e-07  6.52843903e-01  6.52843903e-07  1.42978180e-04  6.52843903e-07  6.29251953e-01  6.52843903e-07  9.46962636e-05  6.52843903e-07  4.59649582e-01  6.52843903e-07  2.75535913e-03 
 7.52843903e-07  7.52843903e-01  7.52843903e-07  1.36464442e-04  7.52843903e-07  7.29294432e-01  7.52843903e-07  9.30852067e-05  7.52843903e-07  5.18299909e-01  7.52843903e-07  2.82116439e-03 
 8.52843903e-07  8.52843903e-01  8.52843903e-07  1.29923658e-04  8.52843903e-07  8.29339283e-01  8.52843903e-07  9.22351206e-05  8.52843903e-07  5.52053823e-01  8.52843903e-07  2.86205745e-03 
 9.52843903e-07  9.52843903e-01  9.52843903e-07  1.23350872e-04  9.52843903e-07  9.29391358e-01  9.52843903e-07  9.06498707e-05  9.52843903e-07  5.34554157e-01  9.52843903e-07  2.88742907e-03 
 1.05284390e-06  1.05284390e+00  1.05284390e-06  1.16707985e-04  1.05284390e-06  1.02951888e+00  1.05284390e-06  8.51062279e-05  1.05284390e-06  3.27047482e-01  1.05284390e-06  2.90315944e-03 
 1.15284390e-06  1.15284390e+00  1.15284390e-06  1.09881885e-04  1.15284390e-06  1.13118048e+00  1.15284390e-06  6.03422662e-05  1.15284390e-06  6.25335213e-04  1.15284390e-06  2.91294630e-03 
 1.25284390e-06  1.25284390e+00  1.25284390e-06  1.02787159e-04  1.25284390e-06  1.23501983e+00  1.25284390e-06  1.98462350e-05  1.25284390e-06 -3.29862983e-04  1.25284390e-06  2.91897726e-03 
 1.33822149e-06  1.33822149e+00  1.33822149e-06  9.69312708e-05  1.33822149e-06  1.31763688e+00  1.33822149e-06  9.73879805e-05  1.33822149e-06  3.45394472e-04  1.33822149e-06  2.92217275e-03 
 1.42612197e-06  1.42612197e+00  1.42612197e-06  9.10321247e-05  1.42612197e-06  1.40387483e+00  1.42612197e-06  8.62940921e-05  1.42612197e-06 -2.32167036e-04  1.42612197e-06  2.92431188e-03 
 1.52612197e-06  1.52612197e+00  1.52612197e-06  8.44109371e-05  1.52612197e-06  1.50251140e+00  1.52612197e-06  2.94029356e-04  1.52612197e-06  2.52182061e-04  1.52612197e-06  2.92584277e-03 
 1.62612197e-06  1.62612197e+00  1.62612197e-06  7.81258819e-05  1.62612197e-06  1.59910442e+00  1.62612197e-06  7.25330476e-04  1.62612197e-06 -1.74823251e-04  1.62612197e-06  2.92675531e-03 
 1.72612197e-06  1.72612197e+00  1.72612197e-06  7.25538879e-05  1.72612197e-06  1.69218498e+00  1.72612197e-06  1.77738902e-03  1.72612197e-06  1.97866738e-04  1.72612197e-06  2.92730403e-03 
 1.82612197e-06  1.82612197e+00  1.82612197e-06  6.82065580e-05  1.82612197e-06  1.77995957e+00  1.82612197e-06  3.48880423e-03  1.82612197e-06 -1.41213213e-04  1.82612197e-06  2.92763573e-03 
 1.92612197e-06  1.92612197e+00  1.92612197e-06  6.55981476e-05  1.92612197e-06  1.86235458e+00  1.92612197e-06  6.17150210e-03  1.92612197e-06  1.64057748e-04  1.92612197e-06  2.92785494e-03 
 2.02612197e-06  2.02612197e+00  2.02612197e-06  6.52329814e-05  2.02612197e-06  1.93910421e+00  2.02612197e-06  9.83682740e-03  2.02612197e-06 -1.19204229e-04  2.02612197e-06  2.92801829e-03 
 2.12612197e-06  2.12612197e+00  2.12612197e-06  6.75751567e-05  2.12612197e-06  2.01079467e+00  2.12612197e-06  1.47545189e-02  2.12612197e-06  1.41040208e-04  2.12612197e-06  2.92817228e-03 
 2.22612197e-06  2.22612197e+00  2.22612197e-06  7.30580568e-05  2.22612197e-06  2.07752137e+00  2.22612197e-06  2.09214101e-02  2.22612197e-06 -1.03713626e-04  2.22612197e-06  2.92833837e-03 
 2.32612197e-06  2.32612197e+00  2.32612197e-06  8.20720221e-05  2.32612197e-06  2.13995854e+00  2.32612197e-06  2.85683364e-02  2.32612197e-06  1.24395018e-04  2.32612197e-06  2.92853953e-03 
 2.42612197e-06  2.42612197e+00  2.42612197e-06  9.49692978e-05  2.42612197e-06  2.19832601e+00  2.42612197e-06  3.76723888e-02  2.42612197e-06 -9.22439824e-05  2.42612197e-06  2.92878304e-03 
 2.52612197e-06  2.52612197e+00  2.52612197e-06  1.12058433e-04  2.52612197e-06  2.25332892e+00  2.52612197e-06  4.84265418e-02  2.52612197e-06  1.11434464e-04  2.52612197e-06  2.92908200e-03 
 2.62612197e-06  2.62612197e+00  2.62612197e-06  1.33608030e-04  2.62612197e-06  2.30525014e+00  2.62612197e-06  6.07871913e-02  2.62612197e-06 -8.37995031e-05  2.62612197e-06  2.92943807e-03 
 2.72612197e-06  2.72612197e+00  2.72612197e-06  1.59849394e-04  2.72612197e-06  2.35478358e+00  2.72612197e-06  7.49124921e-02  2.72612197e-06  1.01743051e-04  2.72612197e-06  2.92986021e-03 
 2.82612197e-06  2.82612197e+00  2.82612197e-06  1.90991895e-04  2.82612197e-06  2.40223346e+00  2.82612197e-06  9.07388854e-02  2.82612197e-06 -7.67211247e-05  2.82612197e-06  2.93034796e-03 
 2.92612197e-06  2.92612197e+00  2.92612197e-06  2.27274602e-04  2.92612197e-06  2.44825839e+00  2.92612197e-06  1.08393525e-01  2.92612197e-06  9.39662427e-05  2.92612197e-06  2.93090855e-03 
 3.02612197e-06  3.02612197e+00  3.02612197e-06  2.69144905e-04  3.02612197e-06  2.49314673e+00  3.02612197e-06  1.27795659e-01  3.02612197e-06 -7.10060264e-05  3.02612197e-06  2.93154116e-03 
 3.12612197e-06  3.12612197e+00  3.12612197e-06  3.17884921e-04  3.12612197e-06  2.53749702e+00  3.12612197e-06  1.49046321e-01  3.12612197e-06  8.76018729e-05  3.12612197e-06  2.93225314e-03 
 3.22612197e-06  3.22612197e+00  3.22612197e-06  3.77730273e-04  3.22612197e-06  2.58155752e+00  3.22612197e-06  1.72053515e-01  3.22612197e-06 -6.63024657e-05  3.22612197e-06  2.93304574e-03 
 3.32612197e-06  3.32612197e+00  3.32612197e-06  4.62616294e-04  3.32612197e-06  2.62584395e+00  3.32612197e-06  1.96905958e-01  3.32612197e-06  8.23088228e-05  3.32612197e-06  2.93393127e-03 
 3.42612197e-06  3.42612197e+00  3.42612197e-06  6.15974066e-04  3.42612197e-06  2.67054697e+00  3.42612197e-06  2.23533005e-01  3.42612197e-06 -6.23699329e-05  3.42612197e-06  2.93492448e-03 
 3.52612197e-06  3.52612197e+00  3.52612197e-06  9.61956037e-04  3.52612197e-06  2.71612649e+00  3.52612197e-06  2.52092535e-01  3.52612197e-06  7.78472422e-05  3.52612197e-06  2.93607124e-03 
 3.62612197e-06  3.62612197e+00  3.62612197e-06  1.82189512e-03  3.62612197e-06  2.76282481e+00  3.62612197e-06  2.82680039e-01  3.62612197e-06 -5.89387463e-05  3.62612197e-06  2.93746444e-03 
 3.72612197e-06  3.72612197e+00  3.72612197e-06  3.91815500e-03  3.72612197e-06  2.81147874e+00  3.72612197e-06  3.16096646e-01  3.72612197e-06  7.40438509e-05  3.72612197e-06  2.93932694e-03 
 3.82612197e-06  3.82612197e+00  3.82612197e-06  8.57444700e-03  3.82612197e-06  2.86318993e+00  3.82612197e-06  3.53274991e-01  3.82612197e-06 -5.61034463e-05  3.82612197e-06  2.94203849e-03 
 3.92612197e-06  3.92612197e+00  3.92612197e-06  1.75780951e-02  3.92612197e-06  2.91978903e+00  3.92612197e-06  3.95618996e-01  3.92612197e-06  7.08253830e-05  3.92612197e-06  2.94613211e-03 
 4.02612197e-06  4.02612197e+00  4.02612197e-06  3.25224050e-02  4.02612197e-06  2.98310615e+00  4.02612197e-06  4.44313286e-01  4.02612197e-06 -5.36499516e-05  4.02612197e-06  2.95213337e-03 
 4.12612197e-06  4.12612197e+00  4.12612197e-06  5.40369378e-02  4.12612197e-06  3.05467156e+00  4.12612197e-06  4.99410446e-01  4.12612197e-06  6.79735162e-05  4.12612197e-06  2.96036400e-03 
 4.22612197e-06  4.22612197e+00  4.22612197e-06  8.15913920e-02  4.22612197e-06  3.13443211e+00  4.22612197e-06  5.59766240e-01  4.22612197e-06 -5.15097528e-05  4.22612197e-06  2.97089996e-03 
 4.32612197e-06  4.32612197e+00  4.32612197e-06  1.13970771e-01  4.32612197e-06  3.22097890e+00  4.32612197e-06  6.22990295e-01  4.32612197e-06  6.54815990e-05  4.32612197e-06  2.98359521e-03 
 4.42612197e-06  4.42612197e+00  4.42612197e-06  1.50106067e-01  4.42612197e-06  3.31086303e+00  4.42612197e-06  6.85565556e-01  4.42612197e-06 -4.96297106e-05  4.42612197e-06  2.99802686e-03 
 4.52612197e-06  4.52612197e+00  4.52612197e-06  1.89921118e-01  4.52612197e-06  3.39930632e+00  4.52612197e-06  7.43215545e-01  4.52612197e-06  6.32905664e-05  4.52612197e-06  3.01337093e-03 
 4.62612197e-06  4.62612197e+00  4.62612197e-06  2.34971547e-01  4.62612197e-06  3.48080155e+00  4.62612197e-06  7.92813378e-01  4.62612197e-06 -4.79679606e-05  4.62612197e-06  3.02870787e-03 
 4.72612197e-06  4.72612197e+00  4.72612197e-06  2.88619709e-01  4.72612197e-06  3.55187678e+00  4.72612197e-06  8.34321097e-01  4.72612197e-06  6.13536830e-05  4.72612197e-06  3.04374257e-03 
 4.82612197e-06  4.82612197e+00  4.82612197e-06  3.55651628e-01  4.82612197e-06  3.61178751e+00  4.82612197e-06  8.69552071e-01  4.82612197e-06 -4.64910174e-05  4.82612197e-06  3.05886177e-03 
 4.92612197e-06  4.92612197e+00  4.92612197e-06  4.41584844e-01  4.92612197e-06  3.66199171e+00  4.92612197e-06  9.00294876e-01  4.92612197e-06  5.96335594e-05  4.92612197e-06  3.07471646e-03 
 5.02612197e-06  5.02612197e+00  5.02612197e-06  5.51960438e-01  5.02612197e-06  3.70460500e+00  5.02612197e-06  9.28738731e-01  5.02612197e-06 -4.51716887e-05  5.02612197e-06  3.09218502e-03 
 5.12612197e-06  5.12612197e+00  5.12612197e-06  6.91721905e-01  5.12612197e-06  3.74217365e+00  5.12612197e-06  9.55770173e-01  5.12612197e-06  5.80818430e-05  5.12612197e-06  3.11187489e-03 
 5.22612197e-06  5.22612197e+00  5.22612197e-06  8.64519580e-01  5.22612197e-06  3.77783893e+00  5.22612197e-06  9.83637335e-01  5.22612197e-06 -4.39875413e-05  5.22612197e-06  3.13516943e-03 
 5.32612197e-06  5.32612197e+00  5.32612197e-06  1.07082638e+00  5.32612197e-06  3.81892257e+00  5.32612197e-06  1.01632388e+00  5.32612197e-06  5.67286830e-05  5.32612197e-06  3.17367584e-03 
 5.42612197e-06  5.42612197e+00  5.42612197e-06  1.29989705e+00  5.42612197e-06  3.89262802e+00  5.42612197e-06  1.10756924e+00  5.42612197e-06 -4.29197092e-05  5.42612197e-06  3.24156900e-03 
 5.52612197e-06  5.52612197e+00  5.52612197e-06  1.52700743e+00  5.52612197e-06  4.01485901e+00  5.52612197e-06  1.23523051e+00  5.52612197e-06  5.54996737e-05  5.52612197e-06  3.32396968e-03 
 5.62612197e-06  5.62612197e+00  5.62612197e-06  1.73141683e+00  5.62612197e-06  4.15813440e+00  5.62612197e-06  1.33939099e+00  5.62612197e-06 -4.19520055e-05  5.62612197e-06  3.40169220e-03 
 5.72457815e-06  5.72457815e+00  5.72457815e-06  1.90600103e+00  5.72457815e-06  4.29784172e+00  5.72457815e-06  1.43384633e+00  5.72457815e-06  5.44034962e-05  5.72457815e-06  3.47016223e-03 
 5.82457815e-06  5.82457815e+00  5.82457815e-06  2.05850518e+00  5.82457815e-06  4.43917207e+00  5.82457815e-06  1.53314555e+00  5.82457815e-06 -4.10750887e-05  5.82457815e-06  3.53240259e-03 
 5.92457815e-06  5.92457815e+00  5.92457815e-06  2.18916222e+00  5.92457815e-06  4.57489815e+00  5.92457815e-06  1.61618622e+00  5.92457815e-06  5.34138201e-05  5.92457815e-06  3.58600143e-03 
 6.02457815e-06  6.02457815e+00  6.02457815e-06  2.30366875e+00  6.02457815e-06  4.69803472e+00  6.02457815e-06  1.69360054e+00  6.02457815e-06 -4.02828328e-05  6.02457815e-06  3.63377218e-03 
 6.12457815e-06  6.12457815e+00  6.12457815e-06  2.40870586e+00  6.12457815e-06  4.80893454e+00  6.12457815e-06  1.76188697e+00  6.12457815e-06  5.25201315e-05  6.12457815e-06  3.67741916e-03 
 6.22457815e-06  6.22457815e+00  6.22457815e-06  2.50974193e+00  6.22457815e-06  4.91011710e+00  6.22457815e-06  1.82988127e+00  6.22457815e-06 -3.95327144e-05  6.22457815e-06  3.71979157e-03 
 6.32457815e-06  6.32457815e+00  6.32457815e-06  2.61034421e+00  6.32457815e-06  5.00595130e+00  6.32457815e-06  1.89566096e+00  6.32457815e-06  5.17326565e-05  6.32457815e-06  3.76180870e-03 
 6.42457815e-06  6.42457815e+00  6.42457815e-06  2.71226312e+00  6.42457815e-06  5.09943514e+00  6.42457815e-06  1.96386960e+00  6.42457815e-06 -3.88321279e-05  6.42457815e-06  3.80465436e-03 
 6.52457815e-06  6.52457815e+00  6.52457815e-06  2.81596347e+00  6.52457815e-06  5.19300141e+00  6.52457815e-06  2.03222857e+00  6.52457815e-06  5.10372939e-05  6.52457815e-06  3.84817473e-03 
 6.62457815e-06  6.62457815e+00  6.62457815e-06  2.92114072e+00  6.62457815e-06  5.28749100e+00  6.62457815e-06  2.10278771e+00  6.62457815e-06 -3.81694066e-05  6.62457815e-06  3.89255731e-03 
 6.72457815e-06  6.72457815e+00  6.72457815e-06  3.02718489e+00  6.72457815e-06  5.38338181e+00  6.72457815e-06  2.17352351e+00  6.72457815e-06  5.04317547e-05  6.72457815e-06  3.93731533e-03 
 6.82457815e-06  6.82457815e+00  6.82457815e-06  3.13345505e+00  6.82457815e-06  5.48035805e+00  6.82457815e-06  2.24547095e+00  6.82457815e-06 -3.75326217e-05  6.82457815e-06  3.98238954e-03 
 6.92457815e-06  6.92457815e+00  6.92457815e-06  3.23939653e+00  6.92457815e-06  5.57845004e+00  6.92457815e-06  2.31771939e+00  6.92457815e-06  4.99160055e-05  6.92457815e-06  4.02746471e-03 
 7.00000000e-06  7.00000000e+00  7.00000000e-06  3.31875509e+00  7.00000000e-06  5.65323904e+00  7.00000000e-06  2.37340346e+00  7.00000000e-06 -3.69510081e-05  7.00000000e-06  4.06150846e-03 
 7.01000000e-06  7.00000000e+00  7.01000000e-06  3.32913365e+00  7.01000000e-06  5.65474039e+00  7.01000000e-06  2.38081183e+00  7.01000000e-06  1.10949062e-06  7.01000000e-06  4.06598280e-03 
 7.03000000e-06  7.00000000e+00  7.03000000e-06  3.34969714e+00  7.03000000e-06  5.65758702e+00  7.03000000e-06  2.39556113e+00  7.03000000e-06  1.30531859e-06  7.03000000e-06  4.07486116e-03 
 7.07000000e-06  7.00000000e+00  7.07000000e-06  3.38972034e+00  7.07000000e-06  5.66280996e+00  7.07000000e-06  2.42496505e+00  7.07000000e-06  1.13574836e-06  7.07000000e-06  4.09225784e-03 
 7.15000000e-06  7.00000000e+00  7.15000000e-06  3.46544120e+00  7.15000000e-06  5.67389711e+00  7.15000000e-06  2.48275911e+00  7.15000000e-06  1.30707397e-06  7.15000000e-06  4.12554253e-03 
 7.23352505e-06  7.00000000e+00  7.23352505e-06  3.53790193e+00  7.23352505e-06  5.68843484e+00  7.23352505e-06  2.54020102e+00  7.23352505e-06  1.13603896e-06  7.23352505e-06  4.15777601e-03 
 7.33166725e-06  7.00000000e+00  7.33166725e-06  3.61247058e+00  7.33166725e-06  5.71395812e+00  7.33166725e-06  2.61184432e+00  7.33166725e-06  1.30705104e-06  7.33166725e-06  4.19304789e-03 
 7.42850964e-06  7.00000000e+00  7.42850964e-06  3.67217527e+00  7.42850964e-06  5.74880052e+00  7.42850964e-06  2.67802612e+00  7.42850964e-06  1.13624190e-06  7.42850964e-06  4.22285272e-03 
 7.51671793e-06  7.00000000e+00  7.51671793e-06  3.71462454e+00  7.51671793e-06  5.77537957e+00  7.51671793e-06  2.70943882e+00  7.51671793e-06  1.30680530e-06  7.51671793e-06  4.24142200e-03 
 7.60760468e-06  7.00000000e+00  7.60760468e-06  3.75040524e+00  7.60760468e-06  5.79022663e+00  7.60760468e-06  2.73856174e+00  7.60760468e-06  1.13647755e-06  7.60760468e-06  4.25751061e-03 
 7.70760468e-06  7.00000000e+00  7.70760468e-06  3.78504181e+00  7.70760468e-06  5.79799738e+00  7.70760468e-06  2.76109112e+00  7.70760468e-06  1.30660662e-06  7.70760468e-06  4.27209570e-03 
 7.80760468e-06  7.00000000e+00  7.80760468e-06  3.81774805e+00  7.80760468e-06  5.79828862e+00  7.80760468e-06  2.77695700e+00  7.80760468e-06  1.13680886e-06  7.80760468e-06  4.28492420e-03 
 7.90760468e-06  7.00000000e+00  7.90760468e-06  3.85095296e+00  7.90760468e-06  5.79312164e+00  7.90760468e-06  2.78711851e+00  7.90760468e-06  1.30643790e-06  7.90760468e-06  4.29693056e-03 
 8.00760468e-06  7.00000000e+00  8.00760468e-06  3.88745164e+00  8.00760468e-06  5.77856275e+00  8.00760468e-06  2.78105327e+00  8.00760468e-06  1.12838621e-06  8.00760468e-06  4.30726128e-03 
 8.10760468e-06  7.00000000e+00  8.10760468e-06  3.93605340e+00  8.10760468e-06  5.73026083e+00  8.10760468e-06  2.72088273e+00  8.10760468e-06 -2.58253817e-06  8.10760468e-06  4.31297634e-03 
 8.20760468e-06  7.00000000e+00  8.20760468e-06  4.06188823e+00  8.20760468e-06  5.46396701e+00  8.20760468e-06  2.37839883e+00  8.20760468e-06  6.99728498e+00  8.20760468e-06  4.44488813e-03 
