 time            v(bvdd)         time            v(pvdd)         time            v(gate)         time            v(ea_en)       
 1.00000000e-10  1.20000000e-03  1.00000000e-10  1.44322741e-03  1.00000000e-10  9.96009570e-04  1.00000000e-10  2.12182975e-03 
 1.02724263e-10  1.23269116e-03  1.02724263e-10  1.47770705e-03  1.02724263e-10  1.01787224e-03  1.02724263e-10  2.17492799e-03 
 1.08172790e-10  1.29807349e-03  1.08172790e-10  1.53849673e-03  1.08172790e-10  1.06941375e-03  1.08172790e-10  2.28171151e-03 
 1.19069844e-10  1.42883813e-03  1.19069844e-10  1.62249106e-03  1.19069844e-10  1.17408848e-03  1.19069844e-10  2.47788505e-03 
 1.40863952e-10  1.69036743e-03  1.40863952e-10  1.70570164e-03  1.40863952e-10  1.36879298e-03  1.40863952e-10  2.83274963e-03 
 1.76806032e-10  2.12167238e-03  1.76806032e-10  1.74265780e-03  1.76806032e-10  1.67357661e-03  1.76806032e-10  3.37268469e-03 
 2.32547135e-10  2.79056563e-03  2.32547135e-10  1.74697526e-03  2.32547135e-10  2.14529146e-03  2.32547135e-10  4.18226950e-03 
 3.11875306e-10  3.74250367e-03  3.11875306e-10  1.74663837e-03  3.11875306e-10  2.81490797e-03  3.11875306e-10  5.33161998e-03 
 4.70531647e-10  5.64637976e-03  4.70531647e-10  1.74746188e-03  4.70531647e-10  4.14271781e-03  4.70531647e-10  7.63610406e-03 
 7.87844328e-10  9.45413194e-03  7.87844328e-10  1.74858294e-03  7.87844328e-10  6.75353519e-03  7.87844328e-10  1.22687981e-02 
 1.42246969e-09  1.70696363e-02  1.42246969e-09  1.75163452e-03  1.42246969e-09  1.17997286e-02  1.42246969e-09  2.16121869e-02 
 2.69172042e-09  3.23006450e-02  2.69172042e-09  1.75852240e-03  2.69172042e-09  2.11442796e-02  2.69172042e-09  4.04973202e-02 
 5.23022187e-09  6.27626624e-02  5.23022187e-09  1.77778462e-03  5.23022187e-09  3.72785502e-02  5.23022187e-09  7.85919629e-02 
 9.06446775e-09  1.08773613e-01  9.06446775e-09  1.81694064e-03  9.06446775e-09  5.64091494e-02  9.06446775e-09  1.35838756e-01 
 1.00000000e-08  1.20000000e-01  1.00000000e-08  1.82822519e-03  1.00000000e-08  6.02348107e-02  1.00000000e-08  1.49624253e-01 
 1.07668492e-08  1.29202190e-01  1.07668492e-08  1.83787066e-03  1.07668492e-08  6.30871532e-02  1.07668492e-08  1.60845849e-01 
 1.23005475e-08  1.47606570e-01  1.23005475e-08  1.85784700e-03  1.23005475e-08  6.84871617e-02  1.23005475e-08  1.83077922e-01 
 1.53679442e-08  1.84415331e-01  1.53679442e-08  1.90091723e-03  1.53679442e-08  7.76889397e-02  1.53679442e-08  2.26504600e-01 
 2.15027377e-08  2.58032852e-01  2.15027377e-08  1.99643077e-03  2.15027377e-08  9.17953202e-02  2.15027377e-08  3.08471503e-01 
 3.15027377e-08  3.78032852e-01  3.15027377e-08  2.17146113e-03  3.15027377e-08  1.09663877e-01  3.15027377e-08  4.29023089e-01 
 4.15027377e-08  4.98032852e-01  4.15027377e-08  2.36781532e-03  4.15027377e-08  1.28572966e-01  4.15027377e-08  5.36403535e-01 
 5.15027377e-08  6.18032852e-01  5.15027377e-08  2.58800899e-03  5.15027377e-08  1.51854322e-01  5.15027377e-08  6.07350185e-01 
 6.15027377e-08  7.38032852e-01  6.15027377e-08  2.83708757e-03  6.15027377e-08  1.79343027e-01  6.15027377e-08  6.26506484e-01 
 7.15027377e-08  8.58032852e-01  7.15027377e-08  3.12444286e-03  7.15027377e-08  2.11848038e-01  7.15027377e-08  6.25729582e-01 
 8.15027377e-08  9.78032852e-01  8.15027377e-08  3.47312153e-03  8.15027377e-08  2.54900357e-01  8.15027377e-08  6.31425464e-01 
 9.15027377e-08  1.09803285e+00  9.15027377e-08  3.93717973e-03  9.15027377e-08  3.15052818e-01  9.15027377e-08  6.65667486e-01 
 1.01502738e-07  1.21803285e+00  1.01502738e-07  4.59941616e-03  1.01502738e-07  3.89898506e-01  1.01502738e-07  7.74319793e-01 
 1.11502738e-07  1.33803285e+00  1.11502738e-07  5.57660319e-03  1.11502738e-07  4.71155356e-01  1.11502738e-07  9.81366603e-01 
 1.21502738e-07  1.45803285e+00  1.21502738e-07  7.06642778e-03  1.21502738e-07  5.54897500e-01  1.21502738e-07  1.42352939e+00 
 1.30935321e-07  1.57122385e+00  1.30935321e-07  9.23564094e-03  1.30935321e-07  6.34533972e-01  1.30935321e-07  1.55869205e+00 
 1.40935321e-07  1.69122385e+00  1.40935321e-07  1.32225052e-02  1.40935321e-07  7.13959274e-01  1.40935321e-07  1.67482792e+00 
 1.50935321e-07  1.81122385e+00  1.50935321e-07  2.15479557e-02  1.50935321e-07  7.79475844e-01  1.50935321e-07  1.80115796e+00 
 1.60935321e-07  1.93122385e+00  1.60935321e-07  3.95943344e-02  1.60935321e-07  8.38939676e-01  1.60935321e-07  1.92111680e+00 
 1.70935321e-07  2.05122385e+00  1.70935321e-07  7.37718137e-02  1.70935321e-07  9.03270719e-01  1.70935321e-07  2.04425168e+00 
 1.80935321e-07  2.17122385e+00  1.80935321e-07  1.27758136e-01  1.80935321e-07  9.76638617e-01  1.80935321e-07  2.16418934e+00 
 1.90935321e-07  2.29122385e+00  1.90935321e-07  2.00545069e-01  1.90935321e-07  1.05981966e+00  1.90935321e-07  2.28603316e+00 
 2.00935321e-07  2.41122385e+00  2.00935321e-07  2.88000348e-01  2.00935321e-07  1.15095196e+00  2.00935321e-07  2.40586093e+00 
 2.10935321e-07  2.53122385e+00  2.10935321e-07  3.85565216e-01  2.10935321e-07  1.24767641e+00  2.10935321e-07  2.52701648e+00 
 2.20935321e-07  2.65122385e+00  2.20935321e-07  4.89868435e-01  2.20935321e-07  1.34792889e+00  2.20935321e-07  2.64675337e+00 
 2.30935321e-07  2.77122385e+00  2.30935321e-07  5.98773018e-01  2.30935321e-07  1.45049174e+00  2.30935321e-07  2.76759175e+00 
 2.40935321e-07  2.89122385e+00  2.40935321e-07  7.11000784e-01  2.40935321e-07  1.55440086e+00  2.40935321e-07  2.88730376e+00 
 2.50935321e-07  3.01122385e+00  2.50935321e-07  8.26037642e-01  2.50935321e-07  1.65909158e+00  2.50935321e-07  3.00797491e+00 
 2.60935321e-07  3.13122385e+00  2.60935321e-07  9.43881143e-01  2.60935321e-07  1.76404733e+00  2.60935321e-07  3.12769714e+00 
 2.70935321e-07  3.25122385e+00  2.70935321e-07  1.06494539e+00  2.70935321e-07  1.86875415e+00  2.70935321e-07  3.24827802e+00 
 2.80935321e-07  3.37122385e+00  2.80935321e-07  1.19012285e+00  2.80935321e-07  1.97233560e+00  2.80935321e-07  3.36806084e+00 
 2.90935321e-07  3.49122385e+00  2.90935321e-07  1.32097787e+00  2.90935321e-07  2.07356751e+00  2.90935321e-07  3.48869877e+00 
 3.00935321e-07  3.61122385e+00  3.00935321e-07  1.45954754e+00  3.00935321e-07  2.17209257e+00  3.00935321e-07  3.60867522e+00 
 3.10935321e-07  3.73122385e+00  3.10935321e-07  1.60742038e+00  3.10935321e-07  2.26936187e+00  3.10935321e-07  3.72929711e+00 
 3.20935321e-07  3.85122385e+00  3.20935321e-07  1.76521908e+00  3.20935321e-07  2.36640122e+00  3.20935321e-07  3.84922681e+00 
 3.30935321e-07  3.97122385e+00  3.30935321e-07  1.93278579e+00  3.30935321e-07  2.46391882e+00  3.30935321e-07  3.96975736e+00 
 3.40935321e-07  4.09122385e+00  3.40935321e-07  2.10956454e+00  3.40935321e-07  2.56179431e+00  3.40935321e-07  4.08965816e+00 
 3.50935321e-07  4.21122385e+00  3.50935321e-07  2.29488716e+00  3.50935321e-07  2.66010879e+00  3.50935321e-07  4.21012145e+00 
 3.60935321e-07  4.33122385e+00  3.60935321e-07  2.48802154e+00  3.60935321e-07  2.75903840e+00  3.60935321e-07  4.32999539e+00 
 3.70935321e-07  4.45122385e+00  3.70935321e-07  2.68833645e+00  3.70935321e-07  2.85834595e+00  3.70935321e-07  4.45040071e+00 
 3.80935321e-07  4.57122385e+00  3.80935321e-07  2.89477281e+00  3.80935321e-07  2.96037713e+00  3.80935321e-07  4.57024702e+00 
 3.90935321e-07  4.69122385e+00  3.90935321e-07  3.10525725e+00  3.90935321e-07  3.06743642e+00  3.90935321e-07  4.69057037e+00 
 4.00935321e-07  4.81122385e+00  4.00935321e-07  3.31942203e+00  4.00935321e-07  3.17084745e+00  4.00935321e-07  4.81038255e+00 
 4.10935321e-07  4.93122385e+00  4.10935321e-07  3.53889732e+00  4.10935321e-07  3.27054791e+00  4.10935321e-07  4.93072939e+00 
 4.20935321e-07  5.05122385e+00  4.20935321e-07  3.76362123e+00  4.20935321e-07  3.37250974e+00  4.20935321e-07  5.05055741e+00 
 4.30935321e-07  5.17122385e+00  4.30935321e-07  3.99253023e+00  4.30935321e-07  3.47409104e+00  4.30935321e-07  5.17084852e+00 
 4.40935321e-07  5.29122385e+00  4.40935321e-07  4.22487006e+00  4.40935321e-07  3.57549233e+00  4.40935321e-07  5.29065905e+00 
 4.50935321e-07  5.41122385e+00  4.50935321e-07  4.45941070e+00  4.50935321e-07  3.67732543e+00  4.50935321e-07  5.41090811e+00 
 4.60935321e-07  5.53122385e+00  4.60935321e-07  4.69450632e+00  4.60935321e-07  3.77941341e+00  4.60935321e-07  5.53068210e+00 
 4.70935321e-07  5.65122385e+00  4.70935321e-07  4.92815194e+00  4.70935321e-07  3.88143994e+00  4.70935321e-07  5.65087342e+00 
 4.80935321e-07  5.77122385e+00  4.80935321e-07  5.15762032e+00  4.80935321e-07  3.98360049e+00  4.80935321e-07  5.77058590e+00 
 4.90935321e-07  5.89122385e+00  4.90935321e-07  5.37902169e+00  4.90935321e-07  4.08564634e+00  4.90935321e-07  5.89067009e+00 
 5.00935321e-07  6.01122385e+00  5.00935321e-07  5.58754257e+00  5.00935321e-07  4.18743317e+00  5.00935321e-07  6.01024616e+00 
 5.10935321e-07  6.13122385e+00  5.10935321e-07  5.77944275e+00  5.10935321e-07  4.28897218e+00  5.10935321e-07  6.13020641e+00 
 5.20935321e-07  6.25122385e+00  5.20935321e-07  5.95394622e+00  5.20935321e-07  4.39065359e+00  5.20935321e-07  6.24978792e+00 
 5.30935321e-07  6.37122385e+00  5.30935321e-07  6.11296534e+00  5.30935321e-07  4.49284585e+00  5.30935321e-07  6.36985743e+00 
 5.40935321e-07  6.49122385e+00  5.40935321e-07  6.25993871e+00  5.40935321e-07  4.59556656e+00  5.40935321e-07  6.48956315e+00 
 5.50935321e-07  6.61122385e+00  5.50935321e-07  6.39835960e+00  5.50935321e-07  4.69878082e+00  5.50935321e-07  6.60972981e+00 
 5.60935321e-07  6.73122385e+00  5.60935321e-07  6.53099281e+00  5.60935321e-07  4.80240183e+00  5.60935321e-07  6.72948947e+00 
 5.70935321e-07  6.85122385e+00  5.70935321e-07  6.65989979e+00  5.70935321e-07  4.90636819e+00  5.70935321e-07  6.84969718e+00 
 5.80935321e-07  6.97122385e+00  5.80935321e-07  6.78646106e+00  5.80935321e-07  5.01058397e+00  5.80935321e-07  6.96947767e+00 
 5.90935321e-07  7.09122385e+00  5.90935321e-07  6.91155675e+00  5.90935321e-07  5.11501450e+00  5.90935321e-07  7.08970136e+00 
 6.00935321e-07  7.21122385e+00  6.00935321e-07  7.03572972e+00  6.00935321e-07  5.21960022e+00  6.00935321e-07  7.20948751e+00 
 6.10935321e-07  7.33122385e+00  6.10935321e-07  7.15930858e+00  6.10935321e-07  5.32432910e+00  6.10935321e-07  7.32971719e+00 
 6.20935321e-07  7.45122385e+00  6.20935321e-07  7.28249015e+00  6.20935321e-07  5.42916108e+00  6.20935321e-07  7.44950377e+00 
 6.30935321e-07  7.57122385e+00  6.30935321e-07  7.40539240e+00  6.30935321e-07  5.53409646e+00  6.30935321e-07  7.56973568e+00 
 6.40935321e-07  7.69122385e+00  6.40935321e-07  7.52808663e+00  6.40935321e-07  5.63910447e+00  6.40935321e-07  7.68952119e+00 
 6.50935321e-07  7.81122385e+00  6.50935321e-07  7.65061716e+00  6.50935321e-07  5.74418904e+00  6.50935321e-07  7.80975388e+00 
 6.60935321e-07  7.93122385e+00  6.60935321e-07  7.77301241e+00  6.60935321e-07  5.84932352e+00  6.60935321e-07  7.92953804e+00 
 6.70935321e-07  8.05122385e+00  6.70935321e-07  7.89529177e+00  6.70935321e-07  5.95451202e+00  6.70935321e-07  8.04977091e+00 
 6.80935321e-07  8.17122385e+00  6.80935321e-07  8.01746908e+00  6.80935321e-07  6.05972958e+00  6.80935321e-07  8.16955377e+00 
 6.90935321e-07  8.29122385e+00  6.90935321e-07  8.13955504e+00  6.90935321e-07  6.16497931e+00  6.90935321e-07  8.28978652e+00 
 7.00935321e-07  8.41122385e+00  7.00935321e-07  8.26155817e+00  7.00935321e-07  6.27023721e+00  7.00935321e-07  8.40956824e+00 
 7.10935321e-07  8.53122385e+00  7.10935321e-07  8.38348574e+00  7.10935321e-07  6.37550518e+00  7.10935321e-07  8.52980069e+00 
 7.20935321e-07  8.65122385e+00  7.20935321e-07  8.50534390e+00  7.20935321e-07  6.48076008e+00  7.20935321e-07  8.64958136e+00 
 7.30935321e-07  8.77122385e+00  7.30935321e-07  8.62713819e+00  7.30935321e-07  6.58600283e+00  7.30935321e-07  8.76981339e+00 
 7.40935321e-07  8.89122385e+00  7.40935321e-07  8.74887344e+00  7.40935321e-07  6.69121133e+00  7.40935321e-07  8.88959307e+00 
 7.50935321e-07  9.01122385e+00  7.50935321e-07  8.87055411e+00  7.50935321e-07  6.79638586e+00  7.50935321e-07  9.00982458e+00 
 7.60935321e-07  9.13122385e+00  7.60935321e-07  8.99218409e+00  7.60935321e-07  6.90150556e+00  7.60935321e-07  9.12960329e+00 
 7.70935321e-07  9.25122385e+00  7.70935321e-07  9.11376702e+00  7.70935321e-07  7.00657039e+00  7.70935321e-07  9.24983417e+00 
 7.80935321e-07  9.37122385e+00  7.80935321e-07  9.23530607e+00  7.80935321e-07  7.11156092e+00  7.80935321e-07  9.36961184e+00 
 7.90935321e-07  9.49122385e+00  7.90935321e-07  9.35680422e+00  7.90935321e-07  7.21647706e+00  7.90935321e-07  9.48984195e+00 
 8.00935321e-07  9.61122385e+00  8.00935321e-07  9.47826407e+00  8.00935321e-07  7.32130091e+00  8.00935321e-07  9.60961847e+00 
 8.10935321e-07  9.73122385e+00  8.10935321e-07  9.59968805e+00  8.10935321e-07  7.42603248e+00  8.10935321e-07  9.72984763e+00 
 8.20935321e-07  9.85122385e+00  8.20935321e-07  9.72107829e+00  8.20935321e-07  7.53065541e+00  8.20935321e-07  9.84962276e+00 
 8.30935321e-07  9.97122385e+00  8.30935321e-07  9.84243679e+00  8.30935321e-07  7.63516995e+00  8.30935321e-07  9.96985070e+00 
 8.40935321e-07  1.00912238e+01  8.40935321e-07  9.96376528e+00  8.40935321e-07  7.73956119e+00  8.40935321e-07  1.00896241e+01 
 8.50935321e-07  1.02112238e+01  8.50935321e-07  1.00850654e+01  8.50935321e-07  7.84382958e+00  8.50935321e-07  1.02098505e+01 
 8.60935321e-07  1.03312238e+01  8.60935321e-07  1.02063386e+01  8.60935321e-07  7.94796154e+00  8.60935321e-07  1.03296216e+01 
 8.70935321e-07  1.04512238e+01  8.70935321e-07  1.03275861e+01  8.70935321e-07  8.05195765e+00  8.70935321e-07  1.04498458e+01 
 8.75000000e-07  1.05000000e+01  8.75000000e-07  1.03768623e+01  8.75000000e-07  8.09418539e+00  8.75000000e-07  1.04983919e+01 
 8.76000000e-07  1.05000000e+01  8.76000000e-07  1.03879397e+01  8.76000000e-07  8.09419386e+00  8.76000000e-07  1.05002633e+01 
 8.78000000e-07  1.05000000e+01  8.78000000e-07  1.04081589e+01  8.78000000e-07  8.09418267e+00  8.78000000e-07  1.05007093e+01 
 8.82000000e-07  1.05000000e+01  8.82000000e-07  1.04387377e+01  8.82000000e-07  8.09423682e+00  8.82000000e-07  1.05001022e+01 
 8.90000000e-07  1.05000000e+01  8.90000000e-07  1.04737142e+01  8.90000000e-07  8.09422541e+00  8.90000000e-07  1.05002752e+01 
 9.00000000e-07  1.05000000e+01  9.00000000e-07  1.04908233e+01  9.00000000e-07  8.09409653e+00  9.00000000e-07  1.04998376e+01 
 9.10000000e-07  1.05000000e+01  9.10000000e-07  1.04962831e+01  9.10000000e-07  8.09414919e+00  9.10000000e-07  1.05001222e+01 
 9.20000000e-07  1.05000000e+01  9.20000000e-07  1.04980543e+01  9.20000000e-07  8.09428921e+00  9.20000000e-07  1.04998116e+01 
 9.30000000e-07  1.05000000e+01  9.30000000e-07  1.04986586e+01  9.30000000e-07  8.09442432e+00  9.30000000e-07  1.05000787e+01 
 9.40000000e-07  1.05000000e+01  9.40000000e-07  1.04989019e+01  9.40000000e-07  8.09456830e+00  9.40000000e-07  1.04998166e+01 
 9.50000000e-07  1.05000000e+01  9.50000000e-07  1.04990246e+01  9.50000000e-07  8.09470228e+00  9.50000000e-07  1.05000491e+01 
 9.60000000e-07  1.05000000e+01  9.60000000e-07  1.04991030e+01  9.60000000e-07  8.09480714e+00  9.60000000e-07  1.04998217e+01 
 9.70000000e-07  1.05000000e+01  9.70000000e-07  1.04991622e+01  9.70000000e-07  8.09490490e+00  9.70000000e-07  1.05000222e+01 
 9.80000000e-07  1.05000000e+01  9.80000000e-07  1.04992113e+01  9.80000000e-07  8.09498101e+00  9.80000000e-07  1.04998239e+01 
 9.90000000e-07  1.05000000e+01  9.90000000e-07  1.04992541e+01  9.90000000e-07  8.09504892e+00  9.90000000e-07  1.04999962e+01 
 1.00000000e-06  1.05000000e+01  1.00000000e-06  1.04992920e+01  1.00000000e-06  8.09510244e+00  1.00000000e-06  1.04998230e+01 
 1.01000000e-06  1.05000000e+01  1.01000000e-06  1.04993262e+01  1.01000000e-06  8.09515263e+00  1.01000000e-06  1.04999705e+01 
 1.02000000e-06  1.05000000e+01  1.02000000e-06  1.04993572e+01  1.02000000e-06  8.09519128e+00  1.02000000e-06  1.04998188e+01 
 1.03000000e-06  1.05000000e+01  1.03000000e-06  1.04993856e+01  1.03000000e-06  8.09523042e+00  1.03000000e-06  1.04999447e+01 
 1.04000000e-06  1.05000000e+01  1.04000000e-06  1.04994117e+01  1.04000000e-06  8.09526080e+00  1.04000000e-06  1.04998114e+01 
 1.05000000e-06  1.05000000e+01  1.05000000e-06  1.04994357e+01  1.05000000e-06  8.09529342e+00  1.05000000e-06  1.04999184e+01 
 1.06000000e-06  1.05000000e+01  1.06000000e-06  1.04994578e+01  1.06000000e-06  8.09531926e+00  1.06000000e-06  1.04998007e+01 
 1.07000000e-06  1.05000000e+01  1.07000000e-06  1.04994784e+01  1.07000000e-06  8.09534847e+00  1.07000000e-06  1.04998911e+01 
 1.08000000e-06  1.05000000e+01  1.08000000e-06  1.04994974e+01  1.08000000e-06  8.09537202e+00  1.08000000e-06  1.04997869e+01 
 1.09000000e-06  1.05000000e+01  1.09000000e-06  1.04995151e+01  1.09000000e-06  8.09539958e+00  1.09000000e-06  1.04998627e+01 
 1.10000000e-06  1.05000000e+01  1.10000000e-06  1.04995315e+01  1.10000000e-06  8.09542220e+00  1.10000000e-06  1.04997699e+01 
 1.11000000e-06  1.05000000e+01  1.11000000e-06  1.04995468e+01  1.11000000e-06  8.09544912e+00  1.11000000e-06  1.04998330e+01 
 1.12000000e-06  1.05000000e+01  1.12000000e-06  1.04995611e+01  1.12000000e-06  8.09547157e+00  1.12000000e-06  1.04997500e+01 
 1.13000000e-06  1.05000000e+01  1.13000000e-06  1.04995744e+01  1.13000000e-06  8.09549839e+00  1.13000000e-06  1.04998020e+01 
 1.14000000e-06  1.05000000e+01  1.14000000e-06  1.04995868e+01  1.14000000e-06  8.09552106e+00  1.14000000e-06  1.04997276e+01 
 1.15000000e-06  1.05000000e+01  1.15000000e-06  1.04995984e+01  1.15000000e-06  8.09554808e+00  1.15000000e-06  1.04997702e+01 
 1.16000000e-06  1.05000000e+01  1.16000000e-06  1.04996093e+01  1.16000000e-06  8.09557115e+00  1.16000000e-06  1.04997033e+01 
 1.17000000e-06  1.05000000e+01  1.17000000e-06  1.04996194e+01  1.17000000e-06  8.09559848e+00  1.17000000e-06  1.04997382e+01 
 1.18000000e-06  1.05000000e+01  1.18000000e-06  1.04996289e+01  1.18000000e-06  8.09562202e+00  1.18000000e-06  1.04996784e+01 
 1.19000000e-06  1.05000000e+01  1.19000000e-06  1.04996377e+01  1.19000000e-06  8.09564969e+00  1.19000000e-06  1.04997072e+01 
 1.20000000e-06  1.05000000e+01  1.20000000e-06  1.04996460e+01  1.20000000e-06  8.09567371e+00  1.20000000e-06  1.04996544e+01 
 1.21000000e-06  1.05000000e+01  1.21000000e-06  1.04996538e+01  1.21000000e-06  8.09570170e+00  1.21000000e-06  1.04996791e+01 
 1.22000000e-06  1.05000000e+01  1.22000000e-06  1.04996610e+01  1.22000000e-06  8.09572616e+00  1.22000000e-06  1.04996338e+01 
 1.23000000e-06  1.05000000e+01  1.23000000e-06  1.04996678e+01  1.23000000e-06  8.09575444e+00  1.23000000e-06  1.04996566e+01 
 1.24000000e-06  1.05000000e+01  1.24000000e-06  1.04996742e+01  1.24000000e-06  8.09577928e+00  1.24000000e-06  1.04996196e+01 
 1.25000000e-06  1.05000000e+01  1.25000000e-06  1.04996802e+01  1.25000000e-06  8.09580779e+00  1.25000000e-06  1.04996429e+01 
 1.26000000e-06  1.05000000e+01  1.26000000e-06  1.04996858e+01  1.26000000e-06  8.09583296e+00  1.26000000e-06  1.04996155e+01 
 1.27000000e-06  1.05000000e+01  1.27000000e-06  1.04996910e+01  1.27000000e-06  8.09586165e+00  1.27000000e-06  1.04996418e+01 
 1.28000000e-06  1.05000000e+01  1.28000000e-06  1.04996959e+01  1.28000000e-06  8.09588709e+00  1.28000000e-06  1.04996254e+01 
 1.29000000e-06  1.05000000e+01  1.29000000e-06  1.04997005e+01  1.29000000e-06  8.09591592e+00  1.29000000e-06  1.04996569e+01 
 1.30000000e-06  1.05000000e+01  1.30000000e-06  1.04997049e+01  1.30000000e-06  8.09594157e+00  1.30000000e-06  1.04996522e+01 
 1.31000000e-06  1.05000000e+01  1.31000000e-06  1.04997089e+01  1.31000000e-06  8.09597047e+00  1.31000000e-06  1.04996897e+01 
 1.32000000e-06  1.05000000e+01  1.32000000e-06  1.04997127e+01  1.32000000e-06  8.09599630e+00  1.32000000e-06  1.04996962e+01 
 1.33000000e-06  1.05000000e+01  1.33000000e-06  1.04997163e+01  1.33000000e-06  8.09602523e+00  1.33000000e-06  1.04997390e+01 
 1.34000000e-06  1.05000000e+01  1.34000000e-06  1.04997196e+01  1.34000000e-06  8.09605117e+00  1.34000000e-06  1.04997537e+01 
