 time            v(bvdd)         time            v(pvdd)         time            v(gate)        
 1.00000000e-09  1.00000000e-03  1.00000000e-09  1.69369356e-03  1.00000000e-09  6.24760443e-04 
 1.02794894e-09  1.02794894e-03  1.02794894e-09  1.71360301e-03  1.02794894e-09  6.37052914e-04 
 1.08384682e-09  1.08384682e-03  1.08384682e-09  1.73033638e-03  1.08384682e-09  6.59048181e-04 
 1.19564258e-09  1.19564258e-03  1.19564258e-09  1.72554061e-03  1.19564258e-09  6.96840387e-04 
 1.41923409e-09  1.41923409e-03  1.41923409e-09  1.72337134e-03  1.41923409e-09  7.85335591e-04 
 1.72917527e-09  1.72917527e-03  1.72917527e-09  1.71718735e-03  1.72917527e-09  9.26990783e-04 
 2.34905762e-09  2.34905762e-03  2.34905762e-09  1.70797421e-03  2.34905762e-09  1.24235409e-03 
 3.58882232e-09  3.58882232e-03  3.58882232e-09  1.68724714e-03  3.58882232e-09  1.93821218e-03 
 6.06835173e-09  6.06835173e-03  6.06835173e-09  1.64903986e-03  6.06835173e-09  3.14272673e-03 
 1.10274105e-08  1.10274105e-02  1.10274105e-08  1.57404691e-03  1.10274105e-08  4.57159669e-03 
 1.94636134e-08  1.94636134e-02  1.94636134e-08  1.45770115e-03  1.94636134e-08  5.51098500e-03 
 2.87960933e-08  2.87960933e-02  2.87960933e-08  1.33884959e-03  2.87960933e-08  5.75228783e-03 
 4.51115689e-08  4.51115689e-02  4.51115689e-08  1.15560989e-03  4.51115689e-08  5.92769157e-03 
 6.13784042e-08  6.13784042e-02  6.13784042e-08  9.92796994e-04  6.13784042e-08  5.99511944e-03 
 7.76746089e-08  7.76746089e-02  7.76746089e-08  8.50554614e-04  7.76746089e-08  6.13695253e-03 
 9.44825810e-08  9.44825810e-02  9.44825810e-08  7.23733952e-04  9.44825810e-08  6.39803028e-03 
 1.00000000e-07  1.00000000e-01  1.00000000e-07  6.87193987e-04  1.00000000e-07  6.47709001e-03 
 1.01832227e-07  1.01832227e-01  1.01832227e-07  6.75016269e-04  1.01832227e-07  6.50534509e-03 
 1.05496681e-07  1.05496681e-01  1.05496681e-07  6.51727098e-04  1.05496681e-07  6.56146330e-03 
 1.12825588e-07  1.12825588e-01  1.12825588e-07  6.07483746e-04  1.12825588e-07  6.67663567e-03 
 1.27483403e-07  1.27483403e-01  1.27483403e-07  5.27461915e-04  1.27483403e-07  6.91550882e-03 
 1.56799033e-07  1.56799033e-01  1.56799033e-07  3.96255473e-04  1.56799033e-07  7.42110912e-03 
 2.15430292e-07  2.15430292e-01  2.15430292e-07  2.18098645e-04  2.15430292e-07  8.51924399e-03 
 2.87688500e-07  2.87688500e-01  2.87688500e-07  9.84623313e-05  2.87688500e-07  1.00026306e-02 
 3.55477468e-07  3.55477468e-01  3.55477468e-07  4.18878572e-05  3.55477468e-07  1.15115367e-02 
 4.15489194e-07  4.15489194e-01  4.15489194e-07  1.55800554e-05  4.15489194e-07  1.29617166e-02 
 4.80644718e-07  4.80644718e-01  4.80644718e-07  1.23009619e-06  4.80644718e-07  1.47502023e-02 
 5.56717935e-07  5.56717935e-01  5.56717935e-07 -1.83981505e-06  5.56717935e-07  1.75485713e-02 
 6.25548534e-07  6.25548534e-01  6.25548534e-07  1.25356186e-05  6.25548534e-07  2.19052397e-02 
 7.25548534e-07  7.25548534e-01  7.25548534e-07  1.17940125e-04  7.25548534e-07  3.75195326e-02 
 8.24606558e-07  8.24606558e-01  8.24606558e-07  4.47658270e-04  8.24606558e-07  7.16279315e-02 
 9.24606558e-07  9.24606558e-01  9.24606558e-07  1.15730566e-03  9.24606558e-07  1.23366994e-01 
 1.02460656e-06  1.02460656e+00  1.02460656e-06  2.35962226e-03  1.02460656e-06  1.85078024e-01 
 1.12460656e-06  1.12460656e+00  1.12460656e-06  4.24142193e-03  1.12460656e-06  2.52469310e-01 
 1.20268225e-06  1.20268225e+00  1.20268225e-06  6.39995298e-03  1.20268225e-06  3.07463196e-01 
 1.28266281e-06  1.28266281e+00  1.28266281e-06  9.49662719e-03  1.28266281e-06  3.65444595e-01 
 1.36105946e-06  1.36105946e+00  1.36105946e-06  1.37359157e-02  1.36105946e-06  4.23341382e-01 
 1.46105946e-06  1.46105946e+00  1.46105946e-06  2.14534554e-02  1.46105946e-06  4.98551197e-01 
 1.56105946e-06  1.56105946e+00  1.56105946e-06  3.25590994e-02  1.56105946e-06  5.74403436e-01 
 1.66105946e-06  1.66105946e+00  1.66105946e-06  4.86247325e-02  1.66105946e-06  6.48907937e-01 
 1.76105946e-06  1.76105946e+00  1.76105946e-06  7.31711280e-02  1.76105946e-06  7.18819972e-01 
 1.86105946e-06  1.86105946e+00  1.86105946e-06  1.10780616e-01  1.86105946e-06  7.85292025e-01 
 1.96105946e-06  1.96105946e+00  1.96105946e-06  1.62573453e-01  1.96105946e-06  8.52831454e-01 
 2.06105946e-06  2.06105946e+00  2.06105946e-06  2.25825662e-01  2.06105946e-06  9.22235029e-01 
 2.16105946e-06  2.16105946e+00  2.16105946e-06  2.98163402e-01  2.16105946e-06  9.92401177e-01 
 2.26105946e-06  2.26105946e+00  2.26105946e-06  3.79625260e-01  2.26105946e-06  1.06180018e+00 
 2.36105946e-06  2.36105946e+00  2.36105946e-06  4.72291476e-01  2.36105946e-06  1.12927478e+00 
 2.46105946e-06  2.46105946e+00  2.46105946e-06  5.78549047e-01  2.46105946e-06  1.19454692e+00 
 2.56105946e-06  2.56105946e+00  2.56105946e-06  6.97822226e-01  2.56105946e-06  1.25925292e+00 
 2.66105946e-06  2.66105946e+00  2.66105946e-06  8.26695007e-01  2.66105946e-06  1.32417635e+00 
 2.76105946e-06  2.76105946e+00  2.76105946e-06  9.62139299e-01  2.76105946e-06  1.38947067e+00 
 2.86105946e-06  2.86105946e+00  2.86105946e-06  1.10230570e+00  2.86105946e-06  1.45510533e+00 
 2.96105946e-06  2.96105946e+00  2.96105946e-06  1.24605488e+00  2.96105946e-06  1.52105950e+00 
 3.06105946e-06  3.06105946e+00  3.06105946e-06  1.39254363e+00  3.06105946e-06  1.58732005e+00 
 3.16105946e-06  3.16105946e+00  3.16105946e-06  1.54156519e+00  3.16105946e-06  1.65347377e+00 
 3.26105946e-06  3.26105946e+00  3.26105946e-06  1.69543436e+00  3.26105946e-06  1.71788031e+00 
 3.36105946e-06  3.36105946e+00  3.36105946e-06  1.85722935e+00  3.36105946e-06  1.78029414e+00 
 3.46105946e-06  3.46105946e+00  3.46105946e-06  2.02176702e+00  3.46105946e-06  1.84495323e+00 
 3.56105946e-06  3.56105946e+00  3.56105946e-06  2.18074126e+00  3.56105946e-06  1.91206709e+00 
 3.66105946e-06  3.66105946e+00  3.66105946e-06  2.33428786e+00  3.66105946e-06  1.97962559e+00 
 3.76105946e-06  3.76105946e+00  3.76105946e-06  2.48522501e+00  3.76105946e-06  2.04752951e+00 
 3.86105946e-06  3.86105946e+00  3.86105946e-06  2.63419843e+00  3.86105946e-06  2.11567961e+00 
 3.96105946e-06  3.96105946e+00  3.96105946e-06  2.78094670e+00  3.96105946e-06  2.18428864e+00 
 4.06105946e-06  4.06105946e+00  4.06105946e-06  2.92515019e+00  4.06105946e-06  2.25319999e+00 
 4.16105946e-06  4.16105946e+00  4.16105946e-06  3.06638813e+00  4.16105946e-06  2.32272744e+00 
 4.26105946e-06  4.26105946e+00  4.26105946e-06  3.20404562e+00  4.26105946e-06  2.39290520e+00 
 4.36105946e-06  4.36105946e+00  4.36105946e-06  3.33727716e+00  4.36105946e-06  2.46429484e+00 
 4.46105946e-06  4.46105946e+00  4.46105946e-06  3.46562502e+00  4.46105946e-06  2.53676506e+00 
 4.56105946e-06  4.56105946e+00  4.56105946e-06  3.58757452e+00  4.56105946e-06  2.61185523e+00 
 4.64260297e-06  4.64260297e+00  4.64260297e-06  3.67794529e+00  4.64260297e-06  2.67786286e+00 
 4.72691792e-06  4.72691792e+00  4.72691792e-06  3.76865644e+00  4.72691792e-06  2.74277412e+00 
 4.81105234e-06  4.81105234e+00  4.81105234e-06  3.86151601e+00  4.81105234e-06  2.80836602e+00 
 4.91105234e-06  4.91105234e+00  4.91105234e-06  3.96931045e+00  4.91105234e-06  2.88745093e+00 
 5.01105234e-06  5.01105234e+00  5.01105234e-06  4.07578840e+00  5.01105234e-06  2.96628012e+00 
 5.11105234e-06  5.11105234e+00  5.11105234e-06  4.18087315e+00  5.11105234e-06  3.04640463e+00 
 5.21105234e-06  5.21105234e+00  5.21105234e-06  4.28486338e+00  5.21105234e-06  3.12609922e+00 
 5.31105234e-06  5.31105234e+00  5.31105234e-06  4.38800781e+00  5.31105234e-06  3.20691659e+00 
 5.41105234e-06  5.41105234e+00  5.41105234e-06  4.49032922e+00  5.41105234e-06  3.28731647e+00 
 5.51105234e-06  5.51105234e+00  5.51105234e-06  4.59210078e+00  5.51105234e-06  3.36863439e+00 
 5.61105234e-06  5.61105234e+00  5.61105234e-06  4.69327872e+00  5.61105234e-06  3.44958097e+00 
 5.71105234e-06  5.71105234e+00  5.71105234e-06  4.79410615e+00  5.71105234e-06  3.53125456e+00 
 5.81105234e-06  5.81105234e+00  5.81105234e-06  4.89453290e+00  5.81105234e-06  3.61259435e+00 
 5.91105234e-06  5.91105234e+00  5.91105234e-06  4.99476971e+00  5.91105234e-06  3.69448571e+00 
 6.01105234e-06  6.01105234e+00  6.01105234e-06  5.09477650e+00  6.01105234e-06  3.77606063e+00 
 6.11105234e-06  6.11105234e+00  6.11105234e-06  5.19473471e+00  6.11105234e-06  3.85802467e+00 
 6.21105234e-06  6.21105234e+00  6.21105234e-06  5.29461539e+00  6.21105234e-06  3.93966962e+00 
 6.31105234e-06  6.31105234e+00  6.31105234e-06  5.39457052e+00  6.31105234e-06  4.02155506e+00 
 6.41105234e-06  6.41105234e+00  6.41105234e-06  5.49457578e+00  6.41105234e-06  4.10310601e+00 
 6.51105234e-06  6.51105234e+00  6.51105234e-06  5.59474283e+00  6.51105234e-06  4.18477573e+00 
 6.61105234e-06  6.61105234e+00  6.61105234e-06  5.69502105e+00  6.61105234e-06  4.26611905e+00 
 6.71105234e-06  6.71105234e+00  6.71105234e-06  5.79543228e+00  6.71105234e-06  4.34755061e+00 
 6.81105234e-06  6.81105234e+00  6.81105234e-06  5.89583909e+00  6.81105234e-06  4.42877656e+00 
 6.91105234e-06  6.91105234e+00  6.91105234e-06  5.99617530e+00  6.91105234e-06  4.51018813e+00 
 7.00000000e-06  7.00000000e+00  7.00000000e-06  6.08525085e+00  7.00000000e-06  4.58255090e+00 
 7.01000000e-06  7.00000000e+00  7.01000000e-06  6.09256651e+00  7.01000000e-06  4.58266744e+00 
 7.03000000e-06  7.00000000e+00  7.03000000e-06  6.10318283e+00  7.03000000e-06  4.58293139e+00 
 7.07000000e-06  7.00000000e+00  7.07000000e-06  6.11055477e+00  7.07000000e-06  4.58334652e+00 
 7.15000000e-06  7.00000000e+00  7.15000000e-06  6.11107532e+00  7.15000000e-06  4.58435039e+00 
 7.21763229e-06  7.00000000e+00  7.21763229e-06  6.10978862e+00  7.21763229e-06  4.58510986e+00 
 7.28032599e-06  7.00000000e+00  7.28032599e-06  6.10900547e+00  7.28032599e-06  4.58572554e+00 
 7.29720161e-06  7.00000000e+00  7.29720161e-06  6.10877923e+00  7.29720161e-06  4.58594062e+00 
 7.32903635e-06  7.00000000e+00  7.32903635e-06  6.10834111e+00  7.32903635e-06  4.58625435e+00 
 7.38141560e-06  7.00000000e+00  7.38141560e-06  6.10761957e+00  7.38141560e-06  4.58683207e+00 
 7.44793344e-06  7.00000000e+00  7.44793344e-06  6.10667773e+00  7.44793344e-06  4.58753691e+00 
 7.54793344e-06  7.00000000e+00  7.54793344e-06  6.10526099e+00  7.54793344e-06  4.58861069e+00 
 7.64793344e-06  7.00000000e+00  7.64793344e-06  6.10384805e+00  7.64793344e-06  4.58965089e+00 
 7.74793344e-06  7.00000000e+00  7.74793344e-06  6.10246459e+00  7.74793344e-06  4.59067250e+00 
 7.84793344e-06  7.00000000e+00  7.84793344e-06  6.10110904e+00  7.84793344e-06  4.59165746e+00 
 7.94793344e-06  7.00000000e+00  7.94793344e-06  6.09979194e+00  7.94793344e-06  4.59261472e+00 
 8.04793344e-06  7.00000000e+00  8.04793344e-06  6.09850867e+00  8.04793344e-06  4.59353883e+00 
 8.14793344e-06  7.00000000e+00  8.14793344e-06  6.09726335e+00  8.14793344e-06  4.59443336e+00 
 8.24793344e-06  7.00000000e+00  8.24793344e-06  6.09605246e+00  8.24793344e-06  4.59529842e+00 
 8.34793344e-06  7.00000000e+00  8.34793344e-06  6.09487672e+00  8.34793344e-06  4.59613511e+00 
 8.44793344e-06  7.00000000e+00  8.44793344e-06  6.09373426e+00  8.44793344e-06  4.59694494e+00 
 8.54793344e-06  7.00000000e+00  8.54793344e-06  6.09262395e+00  8.54793344e-06  4.59772893e+00 
 8.64793344e-06  7.00000000e+00  8.64793344e-06  6.09154507e+00  8.64793344e-06  4.59848783e+00 
 8.74793344e-06  7.00000000e+00  8.74793344e-06  6.09049573e+00  8.74793344e-06  4.59922376e+00 
 8.84793344e-06  7.00000000e+00  8.84793344e-06  6.08947568e+00  8.84793344e-06  4.59993598e+00 
 8.94793344e-06  7.00000000e+00  8.94793344e-06  6.08848300e+00  8.94793344e-06  4.60062789e+00 
 9.04793344e-06  7.00000000e+00  9.04793344e-06  6.08751741e+00  9.04793344e-06  4.60129742e+00 
 9.14793344e-06  7.00000000e+00  9.14793344e-06  6.08657734e+00  9.14793344e-06  4.60194885e+00 
 9.24793344e-06  7.00000000e+00  9.24793344e-06  6.08566227e+00  9.24793344e-06  4.60257931e+00 
 9.34793344e-06  7.00000000e+00  9.34793344e-06  6.08477107e+00  9.34793344e-06  4.60319340e+00 
 9.44793344e-06  7.00000000e+00  9.44793344e-06  6.08390297e+00  9.44793344e-06  4.60378802e+00 
 9.54793344e-06  7.00000000e+00  9.54793344e-06  6.08305721e+00  9.54793344e-06  4.60436762e+00 
 9.64793344e-06  7.00000000e+00  9.64793344e-06  6.08223287e+00  9.64793344e-06  4.60492926e+00 
 9.74793344e-06  7.00000000e+00  9.74793344e-06  6.08142942e+00  9.74793344e-06  4.60547697e+00 
 9.84793344e-06  7.00000000e+00  9.84793344e-06  6.08064591e+00  9.84793344e-06  4.60600815e+00 
 9.94793344e-06  7.00000000e+00  9.94793344e-06  6.07988194e+00  9.94793344e-06  4.60652632e+00 
 1.00479334e-05  7.00000000e+00  1.00479334e-05  6.07913657e+00  1.00479334e-05  4.60702932e+00 
 1.01479334e-05  7.00000000e+00  1.01479334e-05  6.07840948e+00  1.01479334e-05  4.60752011e+00 
 1.02479334e-05  7.00000000e+00  1.02479334e-05  6.07769978e+00  1.02479334e-05  4.60799696e+00 
 1.03479334e-05  7.00000000e+00  1.03479334e-05  6.07700719e+00  1.03479334e-05  4.60846232e+00 
 1.04479334e-05  7.00000000e+00  1.04479334e-05  6.07633089e+00  1.04479334e-05  4.60891488e+00 
 1.05479334e-05  7.00000000e+00  1.05479334e-05  6.07567063e+00  1.05479334e-05  4.60935660e+00 
 1.06479334e-05  7.00000000e+00  1.06479334e-05  6.07502563e+00  1.06479334e-05  4.60978655e+00 
 1.07479334e-05  7.00000000e+00  1.07479334e-05  6.07439567e+00  1.07479334e-05  4.61020625e+00 
 1.08479334e-05  7.00000000e+00  1.08479334e-05  6.07378003e+00  1.08479334e-05  4.61061515e+00 
 1.09479334e-05  7.00000000e+00  1.09479334e-05  6.07317850e+00  1.09479334e-05  4.61101433e+00 
 1.10479334e-05  7.00000000e+00  1.10479334e-05  6.07259041e+00  1.10479334e-05  4.61140359e+00 
 1.11479334e-05  7.00000000e+00  1.11479334e-05  6.07201557e+00  1.11479334e-05  4.61178363e+00 
 1.12479334e-05  7.00000000e+00  1.12479334e-05  6.07145337e+00  1.12479334e-05  4.61215455e+00 
 1.13479334e-05  7.00000000e+00  1.13479334e-05  6.07090360e+00  1.13479334e-05  4.61251671e+00 
 1.14479334e-05  7.00000000e+00  1.14479334e-05  6.07036571e+00  1.14479334e-05  4.61287050e+00 
 1.15479334e-05  7.00000000e+00  1.15479334e-05  6.06983950e+00  1.15479334e-05  4.61321596e+00 
 1.16479334e-05  7.00000000e+00  1.16479334e-05  6.06932447e+00  1.16479334e-05  4.61355372e+00 
 1.17479334e-05  7.00000000e+00  1.17479334e-05  6.06882042e+00  1.17479334e-05  4.61388356e+00 
 1.18479334e-05  7.00000000e+00  1.18479334e-05  6.06832689e+00  1.18479334e-05  4.61420633e+00 
 1.19479334e-05  7.00000000e+00  1.19479334e-05  6.06784368e+00  1.19479334e-05  4.61452155e+00 
 1.20479334e-05  7.00000000e+00  1.20479334e-05  6.06737038e+00  1.20479334e-05  4.61483027e+00 
 1.21479334e-05  7.00000000e+00  1.21479334e-05  6.06690679e+00  1.21479334e-05  4.61513180e+00 
 1.22479334e-05  7.00000000e+00  1.22479334e-05  6.06645252e+00  1.22479334e-05  4.61542735e+00 
 1.23479334e-05  7.00000000e+00  1.23479334e-05  6.06600741e+00  1.23479334e-05  4.61571605e+00 
 1.24479334e-05  7.00000000e+00  1.24479334e-05  6.06557107e+00  1.24479334e-05  4.61599925e+00 
 1.25479334e-05  7.00000000e+00  1.25479334e-05  6.06514335e+00  1.25479334e-05  4.61627592e+00 
 1.26479334e-05  7.00000000e+00  1.26479334e-05  6.06472391e+00  1.26479334e-05  4.61654754e+00 
 1.27479334e-05  7.00000000e+00  1.27479334e-05  6.06431258e+00  1.27479334e-05  4.61681291e+00 
 1.28479334e-05  7.00000000e+00  1.28479334e-05  6.06390906e+00  1.28479334e-05  4.61707364e+00 
 1.29479334e-05  7.00000000e+00  1.29479334e-05  6.06351320e+00  1.29479334e-05  4.61732841e+00 
 1.30479334e-05  7.00000000e+00  1.30479334e-05  6.06312470e+00  1.30479334e-05  4.61757890e+00 
 1.31479334e-05  7.00000000e+00  1.31479334e-05  6.06274342e+00  1.31479334e-05  4.61782370e+00 
 1.32479334e-05  7.00000000e+00  1.32479334e-05  6.06236909e+00  1.32479334e-05  4.61806457e+00 
 1.33479334e-05  7.00000000e+00  1.33479334e-05  6.06200158e+00  1.33479334e-05  4.61830000e+00 
 1.34479334e-05  7.00000000e+00  1.34479334e-05  6.06164064e+00  1.34479334e-05  4.61853181e+00 
 1.35479334e-05  7.00000000e+00  1.35479334e-05  6.06128612e+00  1.35479334e-05  4.61875842e+00 
 1.36479334e-05  7.00000000e+00  1.36479334e-05  6.06093782e+00  1.36479334e-05  4.61898169e+00 
 1.37479334e-05  7.00000000e+00  1.37479334e-05  6.06059559e+00  1.37479334e-05  4.61919998e+00 
 1.38479334e-05  7.00000000e+00  1.38479334e-05  6.06025925e+00  1.38479334e-05  4.61941520e+00 
 1.39479334e-05  7.00000000e+00  1.39479334e-05  6.05992864e+00  1.39479334e-05  4.61962566e+00 
 1.40479334e-05  7.00000000e+00  1.40479334e-05  6.05960360e+00  1.40479334e-05  4.61983329e+00 
 1.41479334e-05  7.00000000e+00  1.41479334e-05  6.05928399e+00  1.41479334e-05  4.62003635e+00 
 1.42479334e-05  7.00000000e+00  1.42479334e-05  6.05896964e+00  1.42479334e-05  4.62023681e+00 
 1.43479334e-05  7.00000000e+00  1.43479334e-05  6.05866045e+00  1.43479334e-05  4.62043290e+00 
 1.44479334e-05  7.00000000e+00  1.44479334e-05  6.05835624e+00  1.44479334e-05  4.62062658e+00 
 1.45479334e-05  7.00000000e+00  1.45479334e-05  6.05805691e+00  1.45479334e-05  4.62081607e+00 
 1.46479334e-05  7.00000000e+00  1.46479334e-05  6.05776231e+00  1.46479334e-05  4.62100334e+00 
 1.47479334e-05  7.00000000e+00  1.47479334e-05  6.05747233e+00  1.47479334e-05  4.62118659e+00 
 1.48479334e-05  7.00000000e+00  1.48479334e-05  6.05718685e+00  1.48479334e-05  4.62136779e+00 
 1.49479334e-05  7.00000000e+00  1.49479334e-05  6.05690574e+00  1.49479334e-05  4.62154514e+00 
 1.50479334e-05  7.00000000e+00  1.50479334e-05  6.05662891e+00  1.50479334e-05  4.62172059e+00 
 1.51479334e-05  7.00000000e+00  1.51479334e-05  6.05635623e+00  1.51479334e-05  4.62189234e+00 
 1.52479334e-05  7.00000000e+00  1.52479334e-05  6.05608761e+00  1.52479334e-05  4.62206236e+00 
 1.53479334e-05  7.00000000e+00  1.53479334e-05  6.05582294e+00  1.53479334e-05  4.62222880e+00 
 1.54479334e-05  7.00000000e+00  1.54479334e-05  6.05556213e+00  1.54479334e-05  4.62239365e+00 
 1.55479334e-05  7.00000000e+00  1.55479334e-05  6.05530508e+00  1.55479334e-05  4.62255506e+00 
 1.56479334e-05  7.00000000e+00  1.56479334e-05  6.05505169e+00  1.56479334e-05  4.62271500e+00 
 1.57479334e-05  7.00000000e+00  1.57479334e-05  6.05480187e+00  1.57479334e-05  4.62287164e+00 
 1.58479334e-05  7.00000000e+00  1.58479334e-05  6.05455555e+00  1.58479334e-05  4.62302692e+00 
 1.59479334e-05  7.00000000e+00  1.59479334e-05  6.05431264e+00  1.59479334e-05  4.62317901e+00 
 1.60479334e-05  7.00000000e+00  1.60479334e-05  6.05407305e+00  1.60479334e-05  4.62332986e+00 
 1.61479334e-05  7.00000000e+00  1.61479334e-05  6.05383670e+00  1.61479334e-05  4.62347764e+00 
 1.62479334e-05  7.00000000e+00  1.62479334e-05  6.05360352e+00  1.62479334e-05  4.62362427e+00 
 1.63479334e-05  7.00000000e+00  1.63479334e-05  6.05337343e+00  1.63479334e-05  4.62376795e+00 
 1.64479334e-05  7.00000000e+00  1.64479334e-05  6.05314637e+00  1.64479334e-05  4.62391056e+00 
 1.65479334e-05  7.00000000e+00  1.65479334e-05  6.05292225e+00  1.65479334e-05  4.62405033e+00 
 1.66479334e-05  7.00000000e+00  1.66479334e-05  6.05270102e+00  1.66479334e-05  4.62418912e+00 
 1.67479334e-05  7.00000000e+00  1.67479334e-05  6.05248260e+00  1.67479334e-05  4.62432516e+00 
 1.68479334e-05  7.00000000e+00  1.68479334e-05  6.05226694e+00  1.68479334e-05  4.62446031e+00 
 1.69479334e-05  7.00000000e+00  1.69479334e-05  6.05205397e+00  1.69479334e-05  4.62459279e+00 
 1.70479334e-05  7.00000000e+00  1.70479334e-05  6.05184363e+00  1.70479334e-05  4.62472446e+00 
 1.71479334e-05  7.00000000e+00  1.71479334e-05  6.05163585e+00  1.71479334e-05  4.62485356e+00 
 1.72479334e-05  7.00000000e+00  1.72479334e-05  6.05143059e+00  1.72479334e-05  4.62498191e+00 
 1.73479334e-05  7.00000000e+00  1.73479334e-05  6.05122778e+00  1.73479334e-05  4.62510777e+00 
 1.74479334e-05  7.00000000e+00  1.74479334e-05  6.05102739e+00  1.74479334e-05  4.62523295e+00 
 1.75479334e-05  7.00000000e+00  1.75479334e-05  6.05082933e+00  1.75479334e-05  4.62535572e+00 
