 time            v(bvdd)         time            v(pvdd)         time            v(gate)         time            v(ea_out)       time            v(startup_done) time            v(ea_en)       
 1.00000000e-09  1.00000000e-03  1.00000000e-09  1.82232934e-04  1.00000000e-09  7.87486096e-04  1.00000000e-09 -2.31143046e-03  1.00000000e-09  6.73689811e-04  1.00000000e-09  7.11596419e-06 
 1.02794806e-09  1.02794806e-03  1.02794806e-09  1.84422358e-04  1.02794806e-09  8.08792621e-04  1.02794806e-09 -2.35768640e-03  1.02794806e-09  6.92570332e-04  1.02794806e-09  7.31632066e-06 
 1.08384417e-09  1.08384417e-03  1.08384417e-09  1.86321862e-04  1.08384417e-09  8.50844288e-04  1.08384417e-09 -2.41322827e-03  1.08384417e-09  7.30362311e-04  1.08384417e-09  7.71845722e-06 
 1.19563641e-09  1.19563641e-03  1.19563641e-09  1.85994529e-04  1.19563641e-09  9.34043245e-04  1.19563641e-09 -2.47098997e-03  1.19563641e-09  8.06006910e-04  1.19563641e-09  8.52506107e-06 
 1.41922087e-09  1.41922087e-03  1.41922087e-09  1.86133593e-04  1.41922087e-09  1.10079250e-03  1.41922087e-09 -2.43332136e-03  1.41922087e-09  9.57567227e-04  1.41922087e-09  1.01490709e-05 
 1.72904792e-09  1.72904792e-03  1.72904792e-09  1.85986230e-04  1.72904792e-09  1.33212422e-03  1.72904792e-09 -2.21214841e-03  1.72904792e-09  1.16800975e-03  1.72904792e-09  1.24157426e-05 
 2.34870203e-09  2.34870203e-03  2.34870203e-09  1.86017592e-04  2.34870203e-09  1.79595973e-03  2.34870203e-09 -1.67432913e-03  2.34870203e-09  1.58987911e-03  2.34870203e-09  1.69841395e-05 
 3.58801023e-09  3.58801023e-03  3.58801023e-09  1.85820282e-04  3.58801023e-09  2.72770260e-03  3.58801023e-09 -8.44876064e-04  3.58801023e-09  2.43676950e-03  3.58801023e-09  2.62186210e-05 
 6.06662664e-09  6.06662664e-03  6.06662664e-09  1.85692794e-04  6.06662664e-09  4.60667627e-03  6.06662664e-09 -1.10876265e-04  6.06662664e-09  4.14196434e-03  6.06662664e-09  4.49787118e-05 
 1.10238595e-08  1.10238595e-02  1.10238595e-08  1.85227196e-04  1.10238595e-08  8.42005163e-03  1.10238595e-08  1.15087009e-04  1.10238595e-08  7.59207732e-03  1.10238595e-08  8.32810976e-05 
 1.81744799e-08  1.81744799e-02  1.81744799e-08  1.84755669e-04  1.81744799e-08  1.40344165e-02  1.81744799e-08  8.48313464e-05  1.81744799e-08  1.26396569e-02  1.81744799e-08  1.39586704e-04 
 3.05823396e-08  3.05823396e-02  3.05823396e-08  1.83743022e-04  3.05823396e-08  2.40461885e-02  3.05823396e-08  9.47838862e-05  3.05823396e-08  2.15233322e-02  3.05823396e-08  2.38745664e-04 
 5.53980591e-08  5.53980591e-02  5.53980591e-08  1.81995008e-04  5.53980591e-08  4.49021553e-02  5.53980591e-08  8.95054827e-05  5.53980591e-08  3.95257441e-02  5.53980591e-08  4.39387560e-04 
 1.00000000e-07  1.00000000e-01  1.00000000e-07  1.78773875e-04  1.00000000e-07  8.44652601e-02  1.00000000e-07  9.65153183e-05  1.00000000e-07  7.22072409e-02  1.00000000e-07  7.98104030e-04 
 1.04963144e-07  1.04963144e-01  1.04963144e-07  1.78470442e-04  1.04963144e-07  8.90175488e-02  1.04963144e-07  9.41978928e-05  1.04963144e-07  7.58595432e-02  1.04963144e-07  8.37321006e-04 
 1.14889432e-07  1.14889432e-01  1.14889432e-07  1.77791659e-04  1.14889432e-07  9.81627036e-02  1.14889432e-07  9.36653515e-05  1.14889432e-07  8.31727192e-02  1.14889432e-07  9.15145746e-04 
 1.34742007e-07  1.34742007e-01  1.34742007e-07  1.76445828e-04  1.34742007e-07  1.16672259e-01  1.34742007e-07  9.38334803e-05  1.34742007e-07  9.78308343e-02  1.34742007e-07  1.06634888e-03 
 1.74447158e-07  1.74447158e-01  1.74447158e-07  1.73793479e-04  1.74447158e-07  1.54384178e-01  1.74447158e-07  9.28757732e-05  1.74447158e-07  1.27275681e-01  1.74447158e-07  1.34641732e-03 
 2.53857461e-07  2.53857461e-01  2.53857461e-07  1.68575282e-04  2.53857461e-07  2.31579869e-01  2.53857461e-07  9.04679674e-05  2.53857461e-07  1.86737064e-01  2.53857461e-07  1.80760500e-03 
 3.53857461e-07  3.53857461e-01  3.53857461e-07  1.62070958e-04  3.53857461e-07  3.30555193e-01  3.53857461e-07  8.58634309e-05  3.53857461e-07  2.62909266e-01  3.53857461e-07  2.21796503e-03 
 4.53857461e-07  4.53857461e-01  4.53857461e-07  1.55569858e-04  4.53857461e-07  4.30287160e-01  4.53857461e-07  8.13415775e-05  4.53857461e-07  3.40501097e-01  4.53857461e-07  2.48328159e-03 
 5.53857461e-07  5.53857461e-01  5.53857461e-07  1.49047336e-04  5.53857461e-07  5.30249838e-01  5.53857461e-07  7.64794531e-05  5.53857461e-07  4.17878757e-01  5.53857461e-07  2.65110285e-03 
 6.53857461e-07  6.53857461e-01  6.53857461e-07  1.42496685e-04  6.53857461e-07  6.30277626e-01  6.53857461e-07  7.22591832e-05  6.53857461e-07  4.88634714e-01  6.53857461e-07  2.75619828e-03 
 7.53857461e-07  7.53857461e-01  7.53857461e-07  1.35919252e-04  7.53857461e-07  7.30319278e-01  7.53857461e-07  6.80779259e-05  7.53857461e-07  5.35938837e-01  7.53857461e-07  2.82168812e-03 
 8.53857461e-07  8.53857461e-01  8.53857461e-07  1.29314862e-04  8.53857461e-07  8.30358699e-01  8.53857461e-07  6.48300285e-05  8.53857461e-07  5.29321573e-01  8.53857461e-07  2.86238091e-03 
 9.53857461e-07  9.53857461e-01  9.53857461e-07  1.22684452e-04  9.53857461e-07  9.30388860e-01  9.53857461e-07  6.18028955e-05  9.53857461e-07  4.44459043e-01  9.53857461e-07  2.88762667e-03 
 1.05385746e-06  1.05385746e+00  1.05385746e-06  1.16019457e-04  1.05385746e-06  1.03040551e+00  1.05385746e-06  5.92093965e-05  1.05385746e-06  2.99619701e-01  1.05385746e-06  2.90328118e-03 
 1.15385746e-06  1.15385746e+00  1.15385746e-06  1.09292409e-04  1.15385746e-06  1.13048948e+00  1.15385746e-06  5.37671842e-05  1.15385746e-06  1.25828043e-01  1.15385746e-06  2.91298998e-03 
 1.25385746e-06  1.25385746e+00  1.25385746e-06  1.02683448e-04  1.25385746e-06  1.23710618e+00  1.25385746e-06  5.66269774e-05  1.25385746e-06  5.00358799e-04  1.25385746e-06  2.91896349e-03 
 1.32978068e-06  1.32978068e+00  1.32978068e-06  9.75264645e-05  1.32978068e-06  1.31014346e+00  1.32978068e-06  6.96387849e-05  1.32978068e-06 -3.41591944e-04  1.32978068e-06  2.92184504e-03 
 1.41069789e-06  1.41069789e+00  1.41069789e-06  9.20611592e-05  1.41069789e-06  1.38882392e+00  1.41069789e-06  9.80329139e-05  1.41069789e-06  3.56764874e-04  1.41069789e-06  2.92393282e-03 
 1.51069789e-06  1.51069789e+00  1.51069789e-06  8.54254733e-05  1.51069789e-06  1.48753574e+00  1.51069789e-06  2.36486011e-04  1.51069789e-06 -2.49326675e-04  1.51069789e-06  2.92559040e-03 
 1.61069789e-06  1.61069789e+00  1.61069789e-06  7.90631781e-05  1.61069789e-06  1.58430726e+00  1.61069789e-06  6.47996705e-04  1.61069789e-06  2.65814371e-04  1.61069789e-06  2.92658200e-03 
 1.71069789e-06  1.71069789e+00  1.71069789e-06  7.33659447e-05  1.71069789e-06  1.67812579e+00  1.71069789e-06  1.57368012e-03  1.71069789e-06 -1.93789898e-04  1.71069789e-06  2.92717583e-03 
 1.81069789e-06  1.81069789e+00  1.81069789e-06  6.88071124e-05  1.81069789e-06  1.76656481e+00  1.81069789e-06  3.20500862e-03  1.81069789e-06  2.13570549e-04  1.81069789e-06  2.92753523e-03 
 1.91069789e-06  1.91069789e+00  1.91069789e-06  6.59258062e-05  1.91069789e-06  1.84983071e+00  1.91069789e-06  5.71894706e-03  1.91069789e-06 -1.59515975e-04  1.91069789e-06  2.92776731e-03 
 2.01069789e-06  2.01069789e+00  2.01069789e-06  6.52113801e-05  2.01069789e-06  1.92725332e+00  2.01069789e-06  9.25976092e-03  2.01069789e-06  1.79728591e-04  2.01069789e-06  2.92793767e-03 
 2.11069789e-06  2.11069789e+00  2.11069789e-06  6.71503088e-05  2.11069789e-06  1.99971280e+00  2.11069789e-06  1.39744264e-02  2.11069789e-06 -1.36329396e-04  2.11069789e-06  2.92809131e-03 
 2.21069789e-06  2.21069789e+00  2.21069789e-06  7.21669036e-05  2.21069789e-06  2.06701154e+00  2.21069789e-06  1.99813819e-02  2.21069789e-06  1.56075053e-04  2.21069789e-06  2.92825574e-03 
 2.31069789e-06  2.31069789e+00  2.31069789e-06  8.06710147e-05  2.31069789e-06  2.13007982e+00  2.31069789e-06  2.73989407e-02  2.31069789e-06 -1.19641279e-04  2.31069789e-06  2.92845094e-03 
 2.41069789e-06  2.41069789e+00  2.41069789e-06  9.30090513e-05  2.41069789e-06  2.18888997e+00  2.41069789e-06  3.63169585e-02  2.41069789e-06  1.38648057e-04  2.41069789e-06  2.92868896e-03 
 2.51069789e-06  2.51069789e+00  2.51069789e-06  1.09507147e-04  2.51069789e-06  2.24437016e+00  2.51069789e-06  4.68240020e-02  2.51069789e-06 -1.07082466e-04  2.51069789e-06  2.92897950e-03 
 2.61069789e-06  2.61069789e+00  2.61069789e-06  1.30429627e-04  2.61069789e-06  2.29659000e+00  2.61069789e-06  5.89815290e-02  2.61069789e-06  1.25302211e-04  2.61069789e-06  2.92932832e-03 
 2.71069789e-06  2.71069789e+00  2.71069789e-06  1.56022502e-04  2.71069789e-06  2.34645202e+00  2.71069789e-06  7.28496558e-02  2.71069789e-06 -9.78977342e-05  2.71069789e-06  2.92974080e-03 
 2.81069789e-06  2.81069789e+00  2.81069789e-06  1.86487550e-04  2.81069789e-06  2.39406492e+00  2.81069789e-06  8.84636423e-02  2.81069789e-06  1.14328302e-04  2.81069789e-06  2.93022022e-03 
 2.91069789e-06  2.91069789e+00  2.91069789e-06  2.22062821e-04  2.91069789e-06  2.44027537e+00  2.91069789e-06  1.05858121e-01  2.91069789e-06 -8.99300300e-05  2.91069789e-06  2.93077035e-03 
 3.01069789e-06  3.01069789e+00  3.01069789e-06  2.63138497e-04  3.01069789e-06  2.48520013e+00  3.01069789e-06  1.25045120e-01  3.01069789e-06  1.05948545e-04  3.01069789e-06  2.93139384e-03 
 3.11069789e-06  3.11069789e+00  3.11069789e-06  3.10819611e-04  3.11069789e-06  2.52961202e+00  3.11069789e-06  1.46038012e-01  3.11069789e-06 -8.34534298e-05  3.11069789e-06  2.93209456e-03 
 3.21069789e-06  3.21069789e+00  3.21069789e-06  3.68702864e-04  3.21069789e-06  2.57360345e+00  3.21069789e-06  1.68831881e-01  3.21069789e-06  9.90360463e-05  3.21069789e-06  2.93287680e-03 
 3.31069789e-06  3.31069789e+00  3.31069789e-06  4.48700593e-04  3.31069789e-06  2.61784976e+00  3.31069789e-06  1.93430808e-01  3.31069789e-06 -7.80922061e-05  3.31069789e-06  2.93374887e-03 
 3.41069789e-06  3.41069789e+00  3.41069789e-06  5.88339205e-04  3.41069789e-06  2.66239838e+00  3.41069789e-06  2.19842125e-01  3.41069789e-06  9.32497924e-05  3.41069789e-06  2.93472691e-03 
 3.51069789e-06  3.51069789e+00  3.51069789e-06  8.96180220e-04  3.51069789e-06  2.70784841e+00  3.51069789e-06  2.48133233e-01  3.51069789e-06 -7.35877668e-05  3.51069789e-06  2.93584908e-03 
 3.61069789e-06  3.61069789e+00  3.61069789e-06  1.65787276e-03  3.61069789e-06  2.75429830e+00  3.61069789e-06  2.78467633e-01  3.61069789e-06  8.84949726e-05  3.61069789e-06  2.93720227e-03 
 3.71069789e-06  3.71069789e+00  3.71069789e-06  3.52947090e-03  3.71069789e-06  2.80262855e+00  3.71069789e-06  3.11409217e-01  3.71069789e-06 -6.97558515e-05  3.71069789e-06  2.93898240e-03 
 3.81069789e-06  3.81069789e+00  3.81069789e-06  7.75478141e-03  3.81069789e-06  2.85377937e+00  3.81069789e-06  3.48122237e-01  3.81069789e-06  8.42641809e-05  3.81069789e-06  2.94155941e-03 
 3.91069789e-06  3.91069789e+00  3.91069789e-06  1.60884988e-02  3.91069789e-06  2.90963777e+00  3.91069789e-06  3.89643299e-01  3.91069789e-06 -6.63272933e-05  3.91069789e-06  2.94543674e-03 
 4.01069789e-06  4.01069789e+00  4.01069789e-06  3.02030879e-02  4.01069789e-06  2.97190392e+00  4.01069789e-06  4.37583510e-01  4.01069789e-06  8.06108128e-05  4.01069789e-06  2.95117257e-03 
 4.11069789e-06  4.11069789e+00  4.11069789e-06  5.08793894e-02  4.11069789e-06  3.04239161e+00  4.11069789e-06  4.91861879e-01  4.11069789e-06 -6.34918248e-05  4.11069789e-06  2.95910361e-03 
 4.21069789e-06  4.21069789e+00  4.21069789e-06  7.77215858e-02  4.21069789e-06  3.12109660e+00  4.21069789e-06  5.51767306e-01  4.21069789e-06  7.74305254e-05  4.21069789e-06  2.96935635e-03 
 4.31069789e-06  4.31069789e+00  4.31069789e-06  1.09545783e-01  4.31069789e-06  3.20703466e+00  4.31069789e-06  6.14911347e-01  4.31069789e-06 -6.10105616e-05  4.31069789e-06  2.98180295e-03 
 4.41069789e-06  4.41069789e+00  4.41069789e-06  1.45175999e-01  4.41069789e-06  3.29694650e+00  4.41069789e-06  6.78246126e-01  4.41069789e-06  7.46428749e-05  4.41069789e-06  2.99610919e-03 
 4.51069789e-06  4.51069789e+00  4.51069789e-06  1.84263683e-01  4.51069789e-06  3.38662513e+00  4.51069789e-06  7.37665414e-01  4.51069789e-06 -5.88246369e-05  4.51069789e-06  3.01154091e-03 
 4.61069789e-06  4.61069789e+00  4.61069789e-06  2.27934975e-01  4.61069789e-06  3.47058204e+00  4.61069789e-06  7.89822755e-01  4.61069789e-06  7.21847100e-05  4.61069789e-06  3.02717125e-03 
 4.71069789e-06  4.71069789e+00  4.71069789e-06  2.79061753e-01  4.71069789e-06  3.54502830e+00  4.71069789e-06  8.33818759e-01  4.71069789e-06 -5.68874110e-05  4.71069789e-06  3.04248108e-03 
 4.81069789e-06  4.81069789e+00  4.81069789e-06  3.42070123e-01  4.81069789e-06  3.60815149e+00  4.81069789e-06  8.70649685e-01  4.81069789e-06  7.00058214e-05  4.81069789e-06  3.05758677e-03 
 4.91069789e-06  4.91069789e+00  4.91069789e-06  4.22467127e-01  4.91069789e-06  3.66053540e+00  4.91069789e-06  9.01532648e-01  4.91069789e-06 -5.51613852e-05  4.91069789e-06  3.07295853e-03 
 5.01069789e-06  5.01069789e+00  5.01069789e-06  5.26240113e-01  5.01069789e-06  3.70359489e+00  5.01069789e-06  9.28889218e-01  5.01069789e-06  6.80658771e-05  5.01069789e-06  3.08956443e-03 
 5.11069789e-06  5.11069789e+00  5.11069789e-06  6.59058417e-01  5.11069789e-06  3.74023087e+00  5.11069789e-06  9.54530889e-01  5.11069789e-06 -5.36672002e-05  5.11069789e-06  3.10828827e-03 
 5.21069789e-06  5.21069789e+00  5.21069789e-06  8.25363438e-01  5.21069789e-06  3.77376032e+00  5.21069789e-06  9.80817491e-01  5.21069789e-06  6.63321531e-05  5.21069789e-06  3.13033528e-03 
 5.31069789e-06  5.31069789e+00  5.31069789e-06  1.02686571e+00  5.31069789e-06  3.81035490e+00  5.31069789e-06  1.00838170e+00  5.31069789e-06 -5.22257042e-05  5.31069789e-06  3.16486354e-03 
 5.41069789e-06  5.41069789e+00  5.41069789e-06  1.25803765e+00  5.41069789e-06  3.86589168e+00  5.41069789e-06  1.06239397e+00  5.41069789e-06  6.47782929e-05  5.41069789e-06  3.22580161e-03 
 5.51069789e-06  5.51069789e+00  5.51069789e-06  1.50253548e+00  5.51069789e-06  3.95630785e+00  5.51069789e-06  1.15650341e+00  5.51069789e-06 -5.09693794e-05  5.51069789e-06  3.31019901e-03 
 5.61069789e-06  5.61069789e+00  5.61069789e-06  1.74422423e+00  5.61069789e-06  4.06301617e+00  5.61069789e-06  1.23871408e+00  5.61069789e-06  6.33826680e-05  5.61069789e-06  3.39911218e-03 
 5.71005206e-06  5.71005206e+00  5.71005206e-06  1.97715903e+00  5.71005206e-06  4.16655440e+00  5.71005206e-06  1.31619510e+00  5.71005206e-06 -4.98309771e-05  5.71005206e-06  3.48702160e-03 
 5.81005206e-06  5.81005206e+00  5.81005206e-06  2.20168255e+00  5.81005206e-06  4.28276437e+00  5.81005206e-06  1.42232736e+00  5.81005206e-06  6.21307256e-05  5.81005206e-06  3.57441182e-03 
 5.91005206e-06  5.91005206e+00  5.91005206e-06  2.40911273e+00  5.91005206e-06  4.41263294e+00  5.91005206e-06  1.51688487e+00  5.91005206e-06 -4.88200081e-05  5.91005206e-06  3.65547272e-03 
 6.01005206e-06  6.01005206e+00  6.01005206e-06  2.59585964e+00  6.01005206e-06  4.54420758e+00  6.01005206e-06  1.61058048e+00  6.01005206e-06  6.09846588e-05  6.01005206e-06  3.72923142e-03 
 6.11005206e-06  6.11005206e+00  6.11005206e-06  2.76362738e+00  6.11005206e-06  4.67170721e+00  6.11005206e-06  1.69175922e+00  6.11005206e-06 -4.78591188e-05  6.11005206e-06  3.79548696e-03 
 6.21005206e-06  6.21005206e+00  6.21005206e-06  2.91679068e+00  6.21005206e-06  4.79005822e+00  6.21005206e-06  1.76919933e+00  6.21005206e-06  5.99754453e-05  6.21005206e-06  3.85628746e-03 
 6.31005206e-06  6.31005206e+00  6.31005206e-06  3.06051106e+00  6.31005206e-06  4.89997252e+00  6.31005206e-06  1.84039666e+00  6.31005206e-06 -4.69694163e-05  6.31005206e-06  3.91330501e-03 
 6.41005206e-06  6.41005206e+00  6.41005206e-06  3.19917311e+00  6.41005206e-06  5.00230127e+00  6.41005206e-06  1.90977565e+00  6.41005206e-06  5.90744843e-05  6.41005206e-06  3.96840223e-03 
 6.51005206e-06  6.51005206e+00  6.51005206e-06  3.33594265e+00  6.51005206e-06  5.10011318e+00  6.51005206e-06  1.97827718e+00  6.51005206e-06 -4.61375861e-05  6.51005206e-06  4.02278824e-03 
 6.61005206e-06  6.61005206e+00  6.61005206e-06  3.47266296e+00  6.61005206e-06  5.19512730e+00  6.61005206e-06  2.04639698e+00  6.61005206e-06  5.82880811e-05  6.61005206e-06  4.07716485e-03 
 6.71005206e-06  6.71005206e+00  6.71005206e-06  3.61019609e+00  6.71005206e-06  5.28933564e+00  6.71005206e-06  2.11585809e+00  6.71005206e-06 -4.53303209e-05  6.71005206e-06  4.13197433e-03 
 6.81005206e-06  6.81005206e+00  6.81005206e-06  3.74874355e+00  6.81005206e-06  5.38332182e+00  6.81005206e-06  2.18485510e+00  6.81005206e-06  5.75898650e-05  6.81005206e-06  4.18715592e-03 
 6.91005206e-06  6.91005206e+00  6.91005206e-06  3.88830609e+00  6.91005206e-06  5.47734131e+00  6.91005206e-06  2.25469057e+00  6.91005206e-06 -4.45756017e-05  6.91005206e-06  4.24280968e-03 
 7.00000000e-06  7.00000000e+00  7.00000000e-06  4.01487271e+00  7.00000000e-06  5.56107348e+00  7.00000000e-06  2.31521284e+00  7.00000000e-06  5.70068580e-05  7.00000000e-06  4.29308939e-03 
 7.01000000e-06  7.00000000e+00  7.01000000e-06  4.02893576e+00  7.01000000e-06  5.56174956e+00  7.01000000e-06  2.32193293e+00  7.01000000e-06  1.43712544e-06  7.01000000e-06  4.29867726e-03 
 7.03000000e-06  7.00000000e+00  7.03000000e-06  4.05693308e+00  7.03000000e-06  5.56278354e+00  7.03000000e-06  2.33455658e+00  7.03000000e-06  1.03923709e-06  7.03000000e-06  4.30974177e-03 
 7.07000000e-06  7.00000000e+00  7.07000000e-06  4.11244052e+00  7.07000000e-06  5.56224387e+00  7.07000000e-06  2.35575981e+00  7.07000000e-06 -7.63512198e-06  7.07000000e-06  4.33137196e-03 
 7.11006313e-06  7.00000000e+00  7.11006313e-06  4.17379579e+00  7.11006313e-06  5.50337217e+00  7.11006313e-06  2.36256217e+00  7.11006313e-06  6.99311652e+00  7.11006313e-06  4.40338732e-03 
 7.13778602e-06  7.00000000e+00  7.13778602e-06  4.21978985e+00  7.13778602e-06  5.50896231e+00  7.13778602e-06  2.38947272e+00  7.13778602e-06  7.00678790e+00  7.13778602e-06  4.49660717e-03 
 7.16357289e-06  7.00000000e+00  7.16357289e-06  4.26130823e+00  7.16357289e-06  5.51659573e+00  7.16357289e-06  2.40763932e+00  7.16357289e-06  6.99322903e+00  7.16357289e-06  4.58396853e-03 
 7.18751787e-06  7.00000000e+00  7.18751787e-06  4.29867369e+00  7.18751787e-06  5.52299838e+00  7.18751787e-06  2.42811738e+00  7.18751787e-06  7.00671308e+00  7.18751787e-06  4.66397811e-03 
 7.21248068e-06  7.00000000e+00  7.21248068e-06  4.33638715e+00  7.21248068e-06  5.53109833e+00  7.21248068e-06  2.44628682e+00  7.21248068e-06  6.99330481e+00  7.21248068e-06  4.74757194e-03 
 7.23923736e-06  7.00000000e+00  7.23923736e-06  4.37536577e+00  7.23923736e-06  5.53923117e+00  7.23923736e-06  2.46762055e+00  7.23923736e-06  7.00664287e+00  7.23923736e-06  4.83619528e-03 
 7.26954886e-06  7.00000000e+00  7.26954886e-06  4.41768464e+00  7.26954886e-06  5.54990049e+00  7.26954886e-06  2.48934171e+00  7.26954886e-06  6.99336845e+00  7.26954886e-06  4.93620630e-03 
 7.29095899e-06  7.00000000e+00  7.29095899e-06  4.44638329e+00  7.29095899e-06  5.55692573e+00  7.29095899e-06  2.50531130e+00  7.29095899e-06  7.00657174e+00  7.29095899e-06  5.00621433e-03 
 7.30678943e-06  7.00000000e+00  7.30678943e-06  4.46696581e+00  7.30678943e-06  5.56298035e+00  7.30678943e-06  2.51613978e+00  7.30678943e-06  6.99346630e+00  7.30678943e-06  5.05785657e-03 
 7.31751614e-06  7.00000000e+00  7.31751614e-06  4.48060358e+00  7.31751614e-06  5.56642248e+00  7.31751614e-06  2.52366527e+00  7.31751614e-06  7.00643447e+00  7.31751614e-06  5.09265036e-03 
 7.32977955e-06  7.00000000e+00  7.32977955e-06  4.49589156e+00  7.32977955e-06  5.57125054e+00  7.32977955e-06  2.53211561e+00  7.32977955e-06  6.99361884e+00  7.32977955e-06  5.13238351e-03 
 7.34401933e-06  7.00000000e+00  7.34401933e-06  4.51323716e+00  7.34401933e-06  5.57605197e+00  7.34401933e-06  2.54146113e+00  7.34401933e-06  7.00630415e+00  7.34401933e-06  5.17829939e-03 
