 time            v(vin)          v(vout)         v(xenv.rect)   
 1.00000000e-07  9.00031416e-01  9.02226404e-01  1.66113049e+00 
 1.02319864e-07  9.00032145e-01  9.02288052e-01  1.66844914e+00 
 1.06959592e-07  9.00033602e-01  9.02425042e-01  1.68265905e+00 
 1.16239048e-07  9.00036518e-01  9.02719310e-01  1.70747708e+00 
 1.29383282e-07  9.00040647e-01  9.03142793e-01  1.73542489e+00 
 1.48183616e-07  9.00046553e-01  9.03745510e-01  1.76296103e+00 
 1.85784283e-07  9.00058366e-01  9.04935331e-01  1.79145153e+00 
 2.23219290e-07  9.00070126e-01  9.06098741e-01  1.80087599e+00 
 2.69962978e-07  9.00084811e-01  9.07521689e-01  1.80291113e+00 
 3.20804426e-07  9.00100784e-01  9.09032647e-01  1.80193938e+00 
 3.82870327e-07  9.00120282e-01  9.10827262e-01  1.80062046e+00 
 5.01212768e-07  9.00157460e-01  9.14107221e-01  1.79937572e+00 
 7.37897652e-07  9.00231817e-01  9.20172265e-01  1.79770162e+00 
 1.21126742e-06  9.00380527e-01  9.30705643e-01  1.79161018e+00 
 1.88380010e-06  9.00591799e-01  9.42934503e-01  1.78012530e+00 
 2.42447092e-06  9.00761641e-01  9.50990737e-01  1.76645480e+00 
 2.82665122e-06  9.00887972e-01  9.56182596e-01  1.69756583e+00 
 3.12443857e-06  9.00981508e-01  9.59669712e-01  1.60598760e+00 
 3.29174217e-06  9.01034058e-01  9.61512700e-01  1.54988273e+00 
 3.43377293e-06  9.01078668e-01  9.63019400e-01  1.50405038e+00 
 3.54363716e-06  9.01113174e-01  9.64151190e-01  1.47196134e+00 
 3.61321313e-06  9.01135027e-01  9.64853493e-01  1.45450915e+00 
 3.66376152e-06  9.01150903e-01  9.65357003e-01  1.44790547e+00 
 3.72580212e-06  9.01170388e-01  9.65967374e-01  1.44014580e+00 
 3.78444081e-06  9.01188805e-01  9.66536827e-01  1.43208411e+00 
 3.86088302e-06  9.01212813e-01  9.67268659e-01  1.42293198e+00 
 4.01376745e-06  9.01260829e-01  9.68698020e-01  1.40923977e+00 
 4.31686620e-06  9.01356017e-01  9.71406238e-01  1.39200112e+00 
 4.80774118e-06  9.01510167e-01  9.75477654e-01  1.37684119e+00 
 5.43412477e-06  9.01706849e-01  9.80188626e-01  1.36561495e+00 
 6.36247718e-06  9.01998299e-01  9.86363574e-01  1.35219798e+00 
 7.73534040e-06  9.02429172e-01  9.94147965e-01  1.33227915e+00 
 1.00000000e-05  9.03139526e-01  1.00455342e+00  1.29830106e+00 
 1.02745726e-05  9.03225611e-01  1.00560449e+00  1.29412034e+00 
 1.08237179e-05  9.03397751e-01  1.00764274e+00  1.28576748e+00 
 1.19220085e-05  9.03741908e-01  1.01144348e+00  1.26907885e+00 
 1.41185896e-05  9.04429671e-01  1.01810447e+00  1.23566547e+00 
 1.85117519e-05  9.05802534e-01  1.02844493e+00  1.16917540e+00 
 2.61430087e-05  9.08176184e-01  1.03671074e+00  1.06283135e+00 
 2.98173914e-05  9.09312708e-01  1.03767641e+00  1.01972351e+00 
 3.17997392e-05  9.09923845e-01  1.03781063e+00  9.99442900e-01 
 3.39647375e-05  9.10589529e-01  1.03785983e+00  9.80342833e-01 
 3.59376669e-05  9.11194453e-01  1.03787342e+00  9.65753181e-01 
 3.98835256e-05  9.12399049e-01  1.03788331e+00  9.43764733e-01 
 4.77752430e-05  9.14784642e-01  1.03789062e+00  9.19822322e-01 
 5.52096194e-05  9.16998842e-01  1.03789269e+00  9.10829876e-01 
 6.47330231e-05  9.19780392e-01  1.03789331e+00  9.03399506e-01 
 6.56299817e-05  9.20038876e-01  1.03789329e+00  9.03275145e-01 
 6.74238988e-05  9.20553926e-01  1.03789326e+00  9.02966620e-01 
 7.03795271e-05  9.21396788e-01  1.03789320e+00  9.02461365e-01 
 7.35098135e-05  9.22281406e-01  1.03789320e+00  9.02671553e-01 
 7.64308703e-05  9.23099129e-01  1.03789396e+00  9.10730552e-01 
 7.97930276e-05  9.24030684e-01  1.03789544e+00  9.26290148e-01 
 8.32389547e-05  9.24974318e-01  1.03789600e+00  9.32284885e-01 
 8.67591590e-05  9.25926201e-01  1.03789580e+00  9.30281890e-01 
 9.04533120e-05  9.26911473e-01  1.03789538e+00  9.26060728e-01 
 9.55387188e-05  9.28243986e-01  1.03789525e+00  9.24972698e-01 
 1.00739841e-04  9.29576983e-01  1.03789560e+00  9.28830262e-01 
 1.06473168e-04  9.31009726e-01  1.03789588e+00  9.31993374e-01 
 1.14924037e-04  9.33047689e-01  1.03789597e+00  9.33337137e-01 
 1.23869012e-04  9.35103206e-01  1.03789608e+00  9.34827209e-01 
 1.33869012e-04  9.37269637e-01  1.03789627e+00  9.37274968e-01 
 1.43869012e-04  9.39288983e-01  1.03789643e+00  9.39373369e-01 
 1.53869012e-04  9.41153272e-01  1.03789657e+00  9.41194665e-01 
 1.63869012e-04  9.42855149e-01  1.03789669e+00  9.42897302e-01 
 1.73869012e-04  9.44387895e-01  1.03789680e+00  9.44447754e-01 
 1.83869012e-04  9.45745463e-01  1.03789689e+00  9.45813690e-01 
 1.93869012e-04  9.46922495e-01  1.03789696e+00  9.46996674e-01 
 2.03869012e-04  9.47914344e-01  1.03789702e+00  9.47995676e-01 
 2.13869012e-04  9.48717098e-01  1.03789706e+00  9.48805442e-01 
 2.23869012e-04  9.49327588e-01  1.03789707e+00  9.49422482e-01 
 2.33869012e-04  9.49743404e-01  1.03789707e+00  9.49844709e-01 
 2.43869012e-04  9.49962906e-01  1.03789705e+00  9.50070575e-01 
 2.53869012e-04  9.49985227e-01  1.03789701e+00  9.50099231e-01 
 2.63869012e-04  9.49810279e-01  1.03789696e+00  9.49930651e-01 
 2.73869012e-04  9.49438752e-01  1.03789688e+00  9.49565593e-01 
 2.83869012e-04  9.48872114e-01  1.03789678e+00  9.49005589e-01 
 2.93869012e-04  9.48112600e-01  1.03789667e+00  9.48252945e-01 
 3.03869012e-04  9.47163207e-01  1.03789653e+00  9.47310739e-01 
 3.13869012e-04  9.46027682e-01  1.03789638e+00  9.46182805e-01 
 3.23869012e-04  9.44710508e-01  1.03789621e+00  9.44873729e-01 
 3.33869012e-04  9.43216881e-01  1.03789603e+00  9.43388828e-01 
 3.43869012e-04  9.41552697e-01  1.03789582e+00  9.41734143e-01 
 3.53869012e-04  9.39724524e-01  1.03789561e+00  9.39916419e-01 
 3.63869012e-04  9.37739576e-01  1.03789537e+00  9.37943095e-01 
 3.73869012e-04  9.35605687e-01  1.03789513e+00  9.35822293e-01 
 3.83869012e-04  9.33331278e-01  1.03789487e+00  9.33562811e-01 
 3.93869012e-04  9.30925327e-01  1.03789460e+00  9.31174138e-01 
 4.03869012e-04  9.28397327e-01  1.03789431e+00  9.28666482e-01 
 4.13869012e-04  9.25757256e-01  1.03789402e+00  9.26050847e-01 
 4.23869012e-04  9.23015533e-01  1.03789372e+00  9.23339194e-01 
 4.33869012e-04  9.20182978e-01  1.03789341e+00  9.20544773e-01 
 4.43869012e-04  9.17270770e-01  1.03789309e+00  9.17682810e-01 
 4.53869012e-04  9.14290403e-01  1.03789277e+00  9.14772037e-01 
 4.63869012e-04  9.11253637e-01  1.03789245e+00  9.11838342e-01 
 4.73869012e-04  9.08172459e-01  1.03789213e+00  9.08924299e-01 
 4.83869012e-04  9.05059027e-01  1.03789182e+00  9.06131059e-01 
 4.93869012e-04  9.01925630e-01  1.03789154e+00  9.03656412e-01 
 5.03869012e-04  8.98784634e-01  1.03789133e+00  9.01893092e-01 
 5.13869012e-04  8.95648434e-01  1.03789119e+00  9.00928916e-01 
 5.23869012e-04  8.92529407e-01  1.03789110e+00  9.00445905e-01 
 5.31365369e-04  8.90209939e-01  1.03789105e+00  9.00168939e-01 
 5.38597898e-04  8.87992627e-01  1.03789092e+00  8.99136559e-01 
 5.43872393e-04  8.86390974e-01  1.03789060e+00  8.96055560e-01 
 5.50398304e-04  8.84430192e-01  1.03789042e+00  8.94489314e-01 
 5.56065451e-04  8.82748553e-01  1.03789056e+00  8.96196413e-01 
 5.62376706e-04  8.80901620e-01  1.03789069e+00  8.97776211e-01 
 5.69143452e-04  8.78954825e-01  1.03789073e+00  8.98554511e-01 
 5.77038241e-04  8.76731812e-01  1.03789073e+00  8.98902797e-01 
 5.86097458e-04  8.74251773e-01  1.03789071e+00  8.99033076e-01 
 5.96097458e-04  8.71611344e-01  1.03789067e+00  8.99085708e-01 
 6.06097458e-04  8.69082951e-01  1.03789063e+00  8.99127292e-01 
 6.16097458e-04  8.66676574e-01  1.03789060e+00  8.99177177e-01 
 6.26097458e-04  8.64401710e-01  1.03789056e+00  8.99233911e-01 
 6.36097458e-04  8.62267335e-01  1.03789052e+00  8.99293476e-01 
 6.46097458e-04  8.60281874e-01  1.03789049e+00  8.99353857e-01 
 6.56097458e-04  8.58453163e-01  1.03789045e+00  8.99414857e-01 
 6.66097458e-04  8.56788418e-01  1.03789042e+00  8.99477178e-01 
 6.76097458e-04  8.55294209e-01  1.03789038e+00  8.99541822e-01 
 6.86097458e-04  8.53976433e-01  1.03789034e+00  8.99609759e-01 
 6.96097458e-04  8.52840292e-01  1.03789031e+00  8.99681620e-01 
 7.06097458e-04  8.51890268e-01  1.03789027e+00  8.99757340e-01 
 7.16097458e-04  8.51130112e-01  1.03789024e+00  8.99835853e-01 
 7.26097458e-04  8.50562823e-01  1.03789021e+00  8.99915067e-01 
 7.36097458e-04  8.50190639e-01  1.03789017e+00  8.99992264e-01 
 7.46097458e-04  8.50015030e-01  1.03789014e+00  9.00064176e-01 
 7.56097458e-04  8.50036690e-01  1.03789010e+00  9.00130179e-01 
 7.66097458e-04  8.50255531e-01  1.03789006e+00  9.00189499e-01 
 7.76097458e-04  8.50670692e-01  1.03789003e+00  9.00242549e-01 
 7.86097458e-04  8.51280532e-01  1.03788999e+00  9.00290661e-01 
 7.96097458e-04  8.52082646e-01  1.03788995e+00  9.00335544e-01 
 8.06097458e-04  8.53073868e-01  1.03788991e+00  9.00378867e-01 
 8.16097458e-04  8.54250286e-01  1.03788988e+00  9.00422019e-01 
 8.26097458e-04  8.55607257e-01  1.03788984e+00  9.00466016e-01 
 8.36097458e-04  8.57139426e-01  1.03788980e+00  9.00511508e-01 
 8.46097458e-04  8.58840746e-01  1.03788976e+00  9.00558820e-01 
 8.56097458e-04  8.60704503e-01  1.03788973e+00  9.00608031e-01 
 8.66097458e-04  8.62723341e-01  1.03788969e+00  9.00659053e-01 
 8.76097458e-04  8.64889293e-01  1.03788965e+00  9.00711728e-01 
 8.86097458e-04  8.67193811e-01  1.03788962e+00  9.00765926e-01 
 8.96097458e-04  8.69627801e-01  1.03788958e+00  9.00821637e-01 
 9.06097458e-04  8.72181655e-01  1.03788954e+00  9.00879069e-01 
 9.16097458e-04  8.74845296e-01  1.03788951e+00  9.00938738e-01 
 9.26097458e-04  8.77608210e-01  1.03788947e+00  9.01001604e-01 
 9.36097458e-04  8.80459495e-01  1.03788944e+00  9.01069264e-01 
 9.46097458e-04  8.83387898e-01  1.03788940e+00  9.01144311e-01 
 9.56097458e-04  8.86381860e-01  1.03788937e+00  9.01230983e-01 
 9.66097458e-04  8.89429568e-01  1.03788934e+00  9.01336413e-01 
 9.76097458e-04  8.92518992e-01  1.03788931e+00  9.01472895e-01 
 9.86097458e-04  8.95637940e-01  1.03788928e+00  9.01661431e-01 
 9.96097458e-04  8.98774103e-01  1.03788927e+00  9.01939952e-01 
 1.00609746e-03  9.01915104e-01  1.03788926e+00  9.02261544e-01 
 1.01609746e-03  9.05048547e-01  1.03788919e+00  9.02048979e-01 
 1.02609746e-03  9.08162066e-01  1.03788905e+00  9.00986025e-01 
 1.03283193e-03  9.10241455e-01  1.03788897e+00  9.00433062e-01 
 1.03970414e-03  9.12344444e-01  1.03788892e+00  9.00218225e-01 
 1.04443303e-03  9.13778420e-01  1.03788893e+00  9.00577748e-01 
 1.04971920e-03  9.15366927e-01  1.03788970e+00  9.08756651e-01 
 1.05481442e-03  9.16882030e-01  1.03789052e+00  9.17564913e-01 
 1.05881408e-03  9.18059315e-01  1.03789073e+00  9.19919779e-01 
 1.06346633e-03  9.19414289e-01  1.03789091e+00  9.21980476e-01 
 1.06895403e-03  9.20991180e-01  1.03789084e+00  9.21535303e-01 
 1.07610570e-03  9.23008481e-01  1.03789083e+00  9.21688141e-01 
 1.08444889e-03  9.25302892e-01  1.03789109e+00  9.24832849e-01 
 1.09427858e-03  9.27916431e-01  1.03789137e+00  9.28187563e-01 
 1.10427858e-03  9.30465958e-01  1.03789156e+00  9.30529355e-01 
 1.11427858e-03  9.32895249e-01  1.03789174e+00  9.32831833e-01 
 1.12427858e-03  9.35194718e-01  1.03789192e+00  9.35194229e-01 
 1.13427858e-03  9.37355289e-01  1.03789209e+00  9.37387735e-01 
 1.14427858e-03  9.39368436e-01  1.03789224e+00  9.39401726e-01 
 1.15427858e-03  9.41226214e-01  1.03789238e+00  9.41266365e-01 
 1.16427858e-03  9.42921290e-01  1.03789251e+00  9.42972347e-01 
 1.17427858e-03  9.44446976e-01  1.03789261e+00  9.44506734e-01 
 1.18427858e-03  9.45797251e-01  1.03789270e+00  9.45864531e-01 
 1.19427858e-03  9.46966784e-01  1.03789278e+00  9.47041458e-01 
 1.20427858e-03  9.47950961e-01  1.03789283e+00  9.48032747e-01 
 1.21427858e-03  9.48745897e-01  1.03789287e+00  9.48834466e-01 
 1.22427858e-03  9.49348456e-01  1.03789288e+00  9.49443595e-01 
 1.23427858e-03  9.49756258e-01  1.03789288e+00  9.49857834e-01 
 1.24427858e-03  9.49967696e-01  1.03789286e+00  9.50075626e-01 
 1.25427858e-03  9.49981934e-01  1.03789282e+00  9.50096196e-01 
 1.26427858e-03  9.49798915e-01  1.03789276e+00  9.49919550e-01 
 1.27427858e-03  9.49419364e-01  1.03789268e+00  9.49546472e-01 
 1.28427858e-03  9.48844777e-01  1.03789259e+00  9.48978527e-01 
 1.29427858e-03  9.48077421e-01  1.03789247e+00  9.48218054e-01 
 1.30427858e-03  9.47120326e-01  1.03789234e+00  9.47268161e-01 
 1.31427858e-03  9.45977269e-01  1.03789218e+00  9.46132713e-01 
 1.32427858e-03  9.44652761e-01  1.03789201e+00  9.44816326e-01 
 1.33427858e-03  9.43152028e-01  1.03789183e+00  9.43324348e-01 
 1.34427858e-03  9.41480994e-01  1.03789163e+00  9.41662848e-01 
 1.35427858e-03  9.39646254e-01  1.03789141e+00  9.39838600e-01 
 1.36427858e-03  9.37655047e-01  1.03789117e+00  9.37859072e-01 
 1.37427858e-03  9.35515234e-01  1.03789093e+00  9.35732412e-01 
 1.38427858e-03  9.33235258e-01  1.03789067e+00  9.33467448e-01 
 1.39427858e-03  9.30824118e-01  1.03789039e+00  9.31073697e-01 
 1.40427858e-03  9.28291329e-01  1.03789011e+00  9.28561396e-01 
 1.41427858e-03  9.25646887e-01  1.03788982e+00  9.25941586e-01 
 1.42427858e-03  9.22901229e-01  1.03788951e+00  9.23226273e-01 
 1.43427858e-03  9.20065190e-01  1.03788920e+00  9.20428769e-01 
 1.44427858e-03  9.17149962e-01  1.03788889e+00  9.17564406e-01 
 1.45427858e-03  9.14167052e-01  1.03788857e+00  9.14652117e-01 
 1.46427858e-03  9.11128231e-01  1.03788824e+00  9.11718221e-01 
 1.47427858e-03  9.08045492e-01  1.03788792e+00  9.08806360e-01 
 1.48427858e-03  9.04931001e-01  1.03788761e+00  9.06021234e-01 
 1.49427858e-03  9.01797049e-01  1.03788734e+00  9.03567617e-01 
 1.50427858e-03  8.98656006e-01  1.03788713e+00  9.01839969e-01 
 1.51427858e-03  8.95520266e-01  1.03788700e+00  9.00903209e-01 
 1.52427858e-03  8.92402206e-01  1.03788691e+00  9.00432404e-01 
 1.53167005e-03  8.90116091e-01  1.03788685e+00  9.00150200e-01 
 1.53869942e-03  8.87961669e-01  1.03788672e+00  8.99093089e-01 
 1.54379287e-03  8.86415016e-01  1.03788641e+00  8.96060282e-01 
 1.55035368e-03  8.84443515e-01  1.03788623e+00  8.94471032e-01 
 1.55599406e-03  8.82769606e-01  1.03788637e+00  8.96182106e-01 
 1.56228571e-03  8.80928043e-01  1.03788650e+00  8.97767047e-01 
 1.56905109e-03  8.78981150e-01  1.03788654e+00  8.98550331e-01 
 1.57694505e-03  8.76757730e-01  1.03788654e+00  8.98901222e-01 
 1.58595781e-03  8.74289390e-01  1.03788652e+00  8.99031931e-01 
 1.59595781e-03  8.71647468e-01  1.03788648e+00  8.99084927e-01 
 1.60595781e-03  8.69117442e-01  1.03788644e+00  8.99126522e-01 
 1.61595781e-03  8.66709294e-01  1.03788641e+00  8.99176367e-01 
 1.62595781e-03  8.64432530e-01  1.03788637e+00  8.99233079e-01 
 1.63595781e-03  8.62296134e-01  1.03788633e+00  8.99292637e-01 
 1.64595781e-03  8.60308539e-01  1.03788630e+00  8.99353012e-01 
 1.65595781e-03  8.58477587e-01  1.03788626e+00  8.99413997e-01 
 1.66595781e-03  8.56810505e-01  1.03788622e+00  8.99476289e-01 
 1.67595781e-03  8.55313873e-01  1.03788619e+00  8.99540888e-01 
 1.68595781e-03  8.53993596e-01  1.03788615e+00  8.99608768e-01 
 1.69595781e-03  8.52854886e-01  1.03788612e+00  8.99680564e-01 
 1.70595781e-03  8.51902236e-01  1.03788608e+00  8.99756225e-01 
 1.71595781e-03  8.51139405e-01  1.03788605e+00  8.99834701e-01 
 1.72595781e-03  8.50569406e-01  1.03788602e+00  8.99913914e-01 
 1.73595781e-03  8.50194486e-01  1.03788598e+00  8.99991153e-01 
 1.74595781e-03  8.50016125e-01  1.03788595e+00  9.00063155e-01 
 1.75595781e-03  8.50035029e-01  1.03788591e+00  9.00129247e-01 
 1.76595781e-03  8.50251121e-01  1.03788587e+00  9.00188665e-01 
 1.77595781e-03  8.50663549e-01  1.03788584e+00  9.00241803e-01 
 1.78595781e-03  8.51270686e-01  1.03788580e+00  9.00289981e-01 
 1.79595781e-03  8.52070135e-01  1.03788576e+00  9.00334904e-01 
 1.80595781e-03  8.53058741e-01  1.03788572e+00  9.00378245e-01 
 1.81595781e-03  8.54232603e-01  1.03788569e+00  9.00421396e-01 
 1.82595781e-03  8.55587088e-01  1.03788565e+00  9.00465381e-01 
 1.83595781e-03  8.57116851e-01  1.03788561e+00  9.00510852e-01 
 1.84595781e-03  8.58815853e-01  1.03788557e+00  9.00558141e-01 
 1.85595781e-03  8.60677391e-01  1.03788554e+00  9.00607328e-01 
 1.86595781e-03  8.62694117e-01  1.03788550e+00  9.00658327e-01 
 1.87595781e-03  8.64858072e-01  1.03788546e+00  9.00710980e-01 
 1.88595781e-03  8.67160717e-01  1.03788543e+00  9.00765158e-01 
 1.89595781e-03  8.69592963e-01  1.03788539e+00  9.00820848e-01 
 1.90595781e-03  8.72145212e-01  1.03788535e+00  9.00878253e-01 
 1.91595781e-03  8.74807391e-01  1.03788532e+00  9.00937885e-01 
 1.92595781e-03  8.77568993e-01  1.03788528e+00  9.01000697e-01 
 1.93595781e-03  8.80419121e-01  1.03788525e+00  9.01068276e-01 
 1.94595781e-03  8.83346525e-01  1.03788521e+00  9.01143195e-01 
 1.95595781e-03  8.86339653e-01  1.03788518e+00  9.01229665e-01 
 1.96595781e-03  8.89386693e-01  1.03788515e+00  9.01334764e-01 
 1.97595781e-03  8.92475618e-01  1.03788512e+00  9.01470692e-01 
 1.98595781e-03  8.95594238e-01  1.03788509e+00  9.01658301e-01 
 1.99595781e-03  8.98730246e-01  1.03788508e+00  9.01935394e-01 
 2.00595781e-03  9.01871265e-01  1.03788507e+00  9.02258168e-01 
 2.01595781e-03  9.05004899e-01  1.03788501e+00  9.02060054e-01 
 2.02595781e-03  9.08118781e-01  1.03788486e+00  9.00999958e-01 
 2.03275113e-03  9.10216609e-01  1.03788478e+00  9.00437887e-01 
 2.03972271e-03  9.12350099e-01  1.03788473e+00  9.00216490e-01 
 2.04447514e-03  9.13791137e-01  1.03788475e+00  9.00593586e-01 
 2.04974816e-03  9.15375585e-01  1.03788551e+00  9.08828535e-01 
 2.05485565e-03  9.16894221e-01  1.03788633e+00  9.17604577e-01 
 2.05887024e-03  9.18075766e-01  1.03788654e+00  9.19959951e-01 
 2.06352866e-03  9.19432335e-01  1.03788672e+00  9.21987671e-01 
 2.06907590e-03  9.21025923e-01  1.03788665e+00  9.21525463e-01 
 2.07621924e-03  9.23040144e-01  1.03788664e+00  9.21720918e-01 
 2.08465037e-03  9.25357466e-01  1.03788691e+00  9.24909621e-01 
 2.09446800e-03  9.27965781e-01  1.03788719e+00  9.28236270e-01 
 2.10446800e-03  9.30513122e-01  1.03788737e+00  9.30572259e-01 
 2.11446800e-03  9.32940041e-01  1.03788755e+00  9.32877045e-01 
 2.12446800e-03  9.35236962e-01  1.03788773e+00  9.35237449e-01 
 2.13446800e-03  9.37394818e-01  1.03788790e+00  9.37427405e-01 
 2.14446800e-03  9.39405094e-01  1.03788806e+00  9.39438452e-01 
 2.15446800e-03  9.41259856e-01  1.03788819e+00  9.41300207e-01 
 2.16446800e-03  9.42951784e-01  1.03788832e+00  9.43003024e-01 
 2.17446800e-03  9.44474201e-01  1.03788842e+00  9.44534107e-01 
 2.18446800e-03  9.45821099e-01  1.03788851e+00  9.45888521e-01 
 2.19446800e-03  9.46987162e-01  1.03788859e+00  9.47061974e-01 
 2.20446800e-03  9.47967788e-01  1.03788864e+00  9.48049706e-01 
 2.21446800e-03  9.48759107e-01  1.03788868e+00  9.48847802e-01 
 2.22446800e-03  9.49357996e-01  1.03788869e+00  9.49453259e-01 
 2.23446800e-03  9.49762092e-01  1.03788869e+00  9.49863789e-01 
 2.24446800e-03  9.49969799e-01  1.03788867e+00  9.50077850e-01 
 2.25446800e-03  9.49980299e-01  1.03788863e+00  9.50094681e-01 
 2.26446800e-03  9.49793549e-01  1.03788857e+00  9.49914304e-01 
 2.27446800e-03  9.49410286e-01  1.03788849e+00  9.49537519e-01 
 2.28446800e-03  9.48832024e-01  1.03788839e+00  9.48965903e-01 
 2.29446800e-03  9.48061044e-01  1.03788828e+00  9.48201810e-01 
 2.30446800e-03  9.47100389e-01  1.03788814e+00  9.47248364e-01 
 2.31446800e-03  9.45953851e-01  1.03788799e+00  9.46109444e-01 
 2.32446800e-03  9.44625953e-01  1.03788782e+00  9.44789678e-01 
 2.33446800e-03  9.43121938e-01  1.03788763e+00  9.43294431e-01 
 2.34446800e-03  9.41447739e-01  1.03788743e+00  9.41629782e-01 
 2.35446800e-03  9.39609966e-01  1.03788721e+00  9.39802522e-01 
 2.36446800e-03  9.37615870e-01  1.03788698e+00  9.37820129e-01 
 2.37446800e-03  9.35473321e-01  1.03788673e+00  9.35690765e-01 
 2.38446800e-03  9.33190776e-01  1.03788647e+00  9.33423271e-01 
 2.39446800e-03  9.30777241e-01  1.03788620e+00  9.31027176e-01 
 2.40446800e-03  9.28242243e-01  1.03788591e+00  9.28512734e-01 
 2.41446800e-03  9.25595786e-01  1.03788562e+00  9.25891000e-01 
 2.42446800e-03  9.22848313e-01  1.03788532e+00  9.23174001e-01 
 2.43446800e-03  9.20010669e-01  1.03788501e+00  9.20375081e-01 
